Time [s],Packet ID,MOSI,MISO
0.039043800000000,,0xB0,0x0B
0.042093000000000,,0x00,0x07
0.045066800000000,,0x20,0x00
0.048040800000000,,0x06,0x28
0.051014600000000,,0x0E,0x0F
0.053988400000000,,0x30,0x20
0.056962400000000,,0x32,0x04
0.059936400000000,,0x80,0x00
0.062910200000000,,0x1B,0xC2
0.097989000000000,,0xB0,0x0B
0.100578000000000,,0x00,0x07
0.103551800000000,,0x20,0x00
0.106525600000000,,0x8E,0x28
0.109499200000000,,0x0E,0x0F
0.112473000000000,,0x30,0x20
0.115446800000000,,0x32,0x04
0.118420600000000,,0x80,0x00
0.121394400000000,,0xA3,0xC2
0.157525200000000,,0xB0,0x0B
0.160055000000000,,0x00,0x07
0.163028800000000,,0x20,0x00
0.166002800000000,,0x06,0x28
0.168976800000000,,0x0E,0x0F
0.171950600000000,,0x30,0x20
0.174924600000000,,0x32,0x04
0.177898400000000,,0x80,0x00
0.180872400000000,,0x1B,0xC2
0.217046200000000,,0xB0,0x0B
0.219532600000000,,0x00,0x07
0.222506200000000,,0x20,0x00
0.225480000000000,,0x8E,0x28
0.228453800000000,,0x0E,0x0F
0.231427600000000,,0x30,0x20
0.234401200000000,,0x32,0x04
0.237375200000000,,0x80,0x00
0.240348800000000,,0xA3,0xC2
0.276581800000000,,0xB0,0x0B
0.279008400000000,,0x00,0x07
0.281982400000000,,0x20,0x00
0.284956200000000,,0x06,0x28
0.287930200000000,,0x0E,0x0F
0.290904200000000,,0x30,0x20
0.293878000000000,,0x32,0x04
0.296852000000000,,0x80,0x00
0.299826000000000,,0x1B,0xC2
0.336118200000000,,0xB0,0x0B
0.338485400000000,,0x00,0x07
0.341459200000000,,0x20,0x00
0.344433000000000,,0x8E,0x28
0.347406800000000,,0x0E,0x0F
0.350380800000000,,0x30,0x20
0.353354400000000,,0x32,0x04
0.356328400000000,,0x80,0x00
0.359302200000000,,0xA3,0xC2
0.395639400000000,,0xB0,0x0B
0.397960400000000,,0x00,0x07
0.400934000000000,,0x20,0x00
0.403907800000000,,0x06,0x28
0.406881600000000,,0x0E,0x0F
0.409855400000000,,0x30,0x20
0.412829000000000,,0x32,0x04
0.415802800000000,,0x80,0x00
0.418776400000000,,0x1B,0xC2
0.455294400000000,,0xB0,0x0B
0.457435000000000,,0x00,0x07
0.460408800000000,,0x20,0x00
0.463382600000000,,0x8E,0x28
0.466356200000000,,0x0E,0x0F
0.469330000000000,,0x30,0x20
0.472303800000000,,0x33,0x04
0.475277600000000,,0x80,0x00
0.478251400000000,,0xA4,0xC2
0.514721400000000,,0xB0,0x0B
0.516909800000000,,0x00,0x07
0.519883600000000,,0x20,0x00
0.522857400000000,,0x06,0x28
0.525831000000000,,0x0E,0x0F
0.528804600000000,,0x30,0x20
0.531778400000000,,0x33,0x04
0.534752000000000,,0x80,0x00
0.537725800000000,,0x1C,0xC2
0.574165800000000,,0xB0,0x0B
0.576386000000000,,0x00,0x07
0.579359800000000,,0x20,0x00
0.582333600000000,,0x8E,0x28
0.585307200000000,,0x0E,0x0F
0.588281200000000,,0x30,0x20
0.591254800000000,,0x33,0x04
0.594228600000000,,0x80,0x00
0.597202400000000,,0xA4,0xC2
0.633609200000000,,0xB0,0x0B
0.635862400000000,,0x00,0x07
0.638836200000000,,0x20,0x00
0.641810000000000,,0x06,0x28
0.644783800000000,,0x0E,0x0F
0.647757600000000,,0x30,0x20
0.650731400000000,,0x33,0x04
0.653705200000000,,0x80,0x00
0.656679000000000,,0x1C,0xC2
0.693037400000000,,0xB0,0x0B
0.695338400000000,,0x00,0x07
0.698312400000000,,0x20,0x00
0.701286200000000,,0x8E,0x28
0.704260200000000,,0x0E,0x0F
0.707234200000000,,0x30,0x20
0.710208200000000,,0x33,0x04
0.713182000000000,,0x80,0x00
0.716156000000000,,0xA4,0xC2
0.752687000000000,,0xB0,0x0B
0.754816000000000,,0x00,0x07
0.757789800000000,,0x20,0x00
0.760763800000000,,0x06,0x28
0.763737800000000,,0x0E,0x0F
0.766711600000000,,0x30,0x20
0.769685600000000,,0x33,0x04
0.772659600000000,,0x80,0x00
0.775633400000000,,0x1C,0xC2
0.812163600000000,,0xB0,0x0B
0.814295400000000,,0x00,0x07
0.817269400000000,,0x20,0x00
0.820243600000000,,0x8E,0x28
0.823217400000000,,0x0E,0x0F
0.826191600000000,,0x30,0x20
0.829165600000000,,0x33,0x04
0.832139600000000,,0x80,0x00
0.835113600000000,,0xA4,0xC2
0.871658000000000,,0xB0,0x0B
0.873774800000000,,0x00,0x07
0.876748800000000,,0x20,0x00
0.879722800000000,,0x06,0x28
0.882696800000000,,0x0E,0x0F
0.885670800000000,,0x30,0x20
0.888644800000000,,0x33,0x04
0.891618800000000,,0x80,0x00
0.894592600000000,,0x1C,0xC2
0.931152200000000,,0xB0,0x0B
0.933255400000000,,0x00,0x07
0.936229200000000,,0x20,0x00
0.939203200000000,,0x8E,0x28
0.942177000000000,,0x0E,0x0F
0.945151000000000,,0x30,0x20
0.948125000000000,,0x33,0x04
0.951099000000000,,0x80,0x00
0.954073000000000,,0xA4,0xC2
0.990591600000000,,0xB0,0x0B
0.992733600000000,,0x00,0x07
0.995707400000000,,0x20,0x00
0.998681400000000,,0x06,0x28
1.001655200000000,,0x0E,0x0F
1.004629200000000,,0x30,0x20
1.007603000000000,,0x33,0x04
1.010577000000000,,0x80,0x00
1.013551000000000,,0x1C,0xC2
1.050081800000000,,0xB0,0x0B
1.052211600000000,,0x00,0x07
1.055185400000000,,0x20,0x00
1.058159200000000,,0x8E,0x28
1.061133000000000,,0x0E,0x0F
1.064106800000000,,0x30,0x20
1.067080800000000,,0x33,0x04
1.070054600000000,,0x80,0x00
1.073028400000000,,0xA4,0xC2
1.109558800000000,,0xB0,0x0B
1.111690000000000,,0x00,0x07
1.114664000000000,,0x20,0x00
1.117638000000000,,0x06,0x28
1.120612000000000,,0x0E,0x0F
1.123585800000000,,0x30,0x20
1.126559600000000,,0x33,0x04
1.129533600000000,,0x80,0x00
1.132507400000000,,0x1C,0xC2
1.169050400000000,,0xB0,0x0B
1.171167200000000,,0x00,0x07
1.174141000000000,,0x20,0x00
1.177115000000000,,0x8E,0x28
1.180089000000000,,0x0E,0x0F
1.183062800000000,,0x30,0x20
1.186036600000000,,0x33,0x04
1.189010600000000,,0x80,0x00
1.191984600000000,,0xA4,0xC2
1.228545000000000,,0xB0,0x0B
1.230648200000000,,0x00,0x07
1.233622000000000,,0x20,0x00
1.236596000000000,,0x06,0x28
1.239570000000000,,0x0E,0x0F
1.242543800000000,,0x30,0x20
1.245517800000000,,0x33,0x04
1.248491600000000,,0x80,0x00
1.251465400000000,,0x1C,0xC2
1.287983200000000,,0xB0,0x0B
1.290125600000000,,0x00,0x07
1.293099600000000,,0x20,0x00
1.296073600000000,,0x8E,0x28
1.299047600000000,,0x0E,0x0F
1.302021400000000,,0x30,0x20
1.304995400000000,,0x33,0x04
1.307969400000000,,0x80,0x00
1.310943200000000,,0xA4,0xC2
1.347473800000000,,0xB0,0x0B
1.349603000000000,,0x00,0x07
1.352576800000000,,0x20,0x00
1.355550800000000,,0x06,0x28
1.358524600000000,,0x0E,0x0F
1.361498600000000,,0x30,0x20
1.364472600000000,,0x33,0x04
1.367446400000000,,0x80,0x00
1.370420400000000,,0x1C,0xC2
1.406950600000000,,0xB0,0x0B
1.409082400000000,,0x00,0x07
1.412056600000000,,0x20,0x00
1.415030600000000,,0x8E,0x28
1.418004600000000,,0x0E,0x0F
1.420978600000000,,0x30,0x20
1.423952400000000,,0x33,0x04
1.426926400000000,,0x80,0x00
1.429900400000000,,0xA4,0xC2
1.466344000000000,,0xB0,0x0B
1.468561800000000,,0x00,0x07
1.471535800000000,,0x20,0x00
1.474509800000000,,0x06,0x28
1.477483800000000,,0x0E,0x0F
1.480457800000000,,0x30,0x20
1.483431600000000,,0x34,0x04
1.486405600000000,,0x80,0x00
1.489379400000000,,0x1D,0xC2
1.525742200000000,,0xB0,0x0B
1.528040800000000,,0x00,0x07
1.531014800000000,,0x20,0x00
1.533988800000000,,0x8E,0x28
1.536962600000000,,0x0E,0x0F
1.539936400000000,,0x30,0x20
1.542910400000000,,0x34,0x04
1.545884200000000,,0x80,0x00
1.548858000000000,,0xA5,0xC2
1.585123000000000,,0xB0,0x0B
1.587518400000000,,0x00,0x07
1.590492400000000,,0x20,0x00
1.593466200000000,,0x06,0x28
1.596440200000000,,0x0E,0x0F
1.599414000000000,,0x30,0x20
1.602388000000000,,0x34,0x04
1.605362000000000,,0x80,0x00
1.608335800000000,,0x1D,0xC2
1.644516800000000,,0xB0,0x0B
1.646995800000000,,0x00,0x07
1.649969800000000,,0x20,0x00
1.652943800000000,,0x8E,0x28
1.655917800000000,,0x0E,0x0F
1.658892000000000,,0x30,0x20
1.661865800000000,,0x34,0x04
1.664839800000000,,0x80,0x00
1.667813600000000,,0xA5,0xC2
1.703898400000000,,0xB0,0x0B
1.706475200000000,,0x00,0x07
1.709449200000000,,0x20,0x00
1.712423000000000,,0x06,0x28
1.715397000000000,,0x0E,0x0F
1.718371000000000,,0x30,0x20
1.721344800000000,,0x34,0x04
1.724318600000000,,0x80,0x00
1.727292200000000,,0x1D,0xC2
1.763396600000000,,0xB0,0x0B
1.765953800000000,,0x00,0x07
1.768927800000000,,0x20,0x00
1.771901600000000,,0x8E,0x28
1.774875400000000,,0x0E,0x0F
1.777849200000000,,0x30,0x20
1.780823000000000,,0x34,0x04
1.783797000000000,,0x80,0x00
1.786771000000000,,0xA5,0xC2
1.822933000000000,,0xB0,0x0B
1.825430400000000,,0x00,0x07
1.828404400000000,,0x20,0x00
1.831378200000000,,0x06,0x28
1.834352200000000,,0x0E,0x0F
1.837326200000000,,0x30,0x20
1.840300000000000,,0x34,0x04
1.843274000000000,,0x80,0x00
1.846248000000000,,0x1D,0xC2
1.882453800000000,,0xB0,0x0B
1.884907800000000,,0x00,0x07
1.887881600000000,,0x20,0x00
1.890855600000000,,0x8E,0x28
1.893829400000000,,0x0E,0x0F
1.896803200000000,,0x30,0x20
1.899777200000000,,0x34,0x04
1.902751000000000,,0x80,0x00
1.905724800000000,,0xA5,0xC2
1.941992000000000,,0xB0,0x0B
1.944385800000000,,0x00,0x07
1.947359800000000,,0x20,0x00
1.950333800000000,,0x06,0x28
1.953307600000000,,0x0E,0x0F
1.956281600000000,,0x30,0x20
1.959255400000000,,0x34,0x04
1.962229200000000,,0x80,0x00
1.965203000000000,,0x1D,0xC2
2.001515000000000,,0xB0,0x0B
2.003862400000000,,0x00,0x07
2.006836000000000,,0x20,0x00
2.009809800000000,,0x8E,0x28
2.012783400000000,,0x0E,0x0F
2.015757400000000,,0x30,0x20
2.018731200000000,,0x34,0x04
2.021704800000000,,0x80,0x00
2.024678600000000,,0xA5,0xC2
2.061053800000000,,0xB0,0x0B
2.063339400000000,,0x00,0x07
2.066313200000000,,0x20,0x00
2.069287000000000,,0x06,0x28
2.072261000000000,,0x0E,0x0F
2.075234800000000,,0x30,0x20
2.078208600000000,,0x34,0x04
2.081182600000000,,0x80,0x00
2.084156400000000,,0x1D,0xC2
2.120594400000000,,0xB0,0x0B
2.122816200000000,,0x00,0x07
2.125790200000000,,0x20,0x00
2.128764000000000,,0x8E,0x28
2.131737800000000,,0x0E,0x0F
2.134711800000000,,0x30,0x20
2.137685600000000,,0x34,0x04
2.140659400000000,,0x80,0x00
2.143633400000000,,0xA5,0xC2
2.180118600000000,,0xB0,0x0B
2.182293400000000,,0x00,0x07
2.185267400000000,,0x20,0x00
2.188241200000000,,0x06,0x28
2.191215000000000,,0x0E,0x0F
2.194188800000000,,0x30,0x20
2.197162800000000,,0x34,0x04
2.200136800000000,,0x80,0x00
2.203110600000000,,0x1D,0xC2
2.239656400000000,,0xB0,0x0B
2.241773000000000,,0x00,0x07
2.244746800000000,,0x20,0x00
2.247720800000000,,0x8E,0x28
2.250694600000000,,0x0E,0x0F
2.253668200000000,,0x30,0x20
2.256642000000000,,0x34,0x04
2.259616000000000,,0x80,0x00
2.262589800000000,,0xA5,0xC2
2.299178200000000,,0xB0,0x0B
2.301249000000000,,0x00,0x07
2.304222600000000,,0x20,0x00
2.307196600000000,,0x06,0x28
2.310170400000000,,0x0E,0x0F
2.313144000000000,,0x30,0x20
2.316118000000000,,0x34,0x04
2.319091800000000,,0x80,0x00
2.322065600000000,,0x1D,0xC2
2.358106600000000,,0xB0,0x0B
2.360726600000000,,0x00,0x07
2.363700400000000,,0x20,0x00
2.366674200000000,,0x8E,0x28
2.369648200000000,,0x0E,0x0F
2.372621800000000,,0x30,0x20
2.375595800000000,,0x34,0x04
2.378569600000000,,0x80,0x00
2.381543400000000,,0xA5,0xC2
2.417656600000000,,0xB0,0x0B
2.420203800000000,,0x00,0x07
2.423177600000000,,0x20,0x00
2.426153800000000,,0x06,0x28
2.429127600000000,,0x0E,0x0F
2.432101400000000,,0x30,0x20
2.435075200000000,,0x34,0x04
2.438049200000000,,0x80,0x00
2.441022800000000,,0x1D,0xC2
2.477410400000000,,0xB0,0x0B
2.479682000000000,,0x00,0x07
2.482655800000000,,0x20,0x00
2.485629600000000,,0x8E,0x28
2.488603400000000,,0x0E,0x0F
2.491577600000000,,0x30,0x20
2.494551600000000,,0x35,0x04
2.497525400000000,,0x80,0x00
2.500499600000000,,0xA6,0xC2
2.536856000000000,,0xB0,0x0B
2.539160400000000,,0x00,0x07
2.542134400000000,,0x20,0x00
2.545108200000000,,0x06,0x28
2.548082400000000,,0x0E,0x0F
2.551056200000000,,0x30,0x20
2.554030200000000,,0x35,0x04
2.557004400000000,,0x80,0x00
2.559978200000000,,0x1E,0xC2
2.596284000000000,,0xB0,0x0B
2.598639400000000,,0x00,0x07
2.601613200000000,,0x20,0x00
2.604587200000000,,0x8E,0x28
2.607561000000000,,0x0E,0x0F
2.610534800000000,,0x30,0x20
2.613508800000000,,0x35,0x04
2.616482800000000,,0x80,0x00
2.619456600000000,,0xA6,0xC2
2.655725800000000,,0xB0,0x0B
2.658117000000000,,0x00,0x07
2.661090800000000,,0x20,0x00
2.664064800000000,,0x06,0x28
2.667038800000000,,0x0E,0x0F
2.670012600000000,,0x30,0x20
2.672986600000000,,0x35,0x04
2.675960400000000,,0x80,0x00
2.678934200000000,,0x1E,0xC2
2.715179000000000,,0xB0,0x0B
2.717594800000000,,0x00,0x07
2.720568600000000,,0x20,0x00
2.723542400000000,,0x8E,0x28
2.726516200000000,,0x0E,0x0F
2.729490000000000,,0x30,0x20
2.732464000000000,,0x35,0x04
2.735438000000000,,0x80,0x00
2.738412000000000,,0xA6,0xC2
2.774639600000000,,0xB0,0x0B
2.777073200000000,,0x00,0x07
2.780047000000000,,0x20,0x00
2.783020800000000,,0x06,0x28
2.785994800000000,,0x0E,0x0F
2.788968600000000,,0x30,0x20
2.791942600000000,,0x35,0x04
2.794916400000000,,0x80,0x00
2.797890200000000,,0x1E,0xC2
2.834130800000000,,0xB0,0x0B
2.836551400000000,,0x00,0x07
2.839525400000000,,0x20,0x00
2.842499400000000,,0x8E,0x28
2.845473200000000,,0x0E,0x0F
2.848447400000000,,0x30,0x20
2.851421400000000,,0x35,0x04
2.854395600000000,,0x80,0x00
2.857369800000000,,0xA6,0xC2
2.893605200000000,,0xB0,0x0B
2.896030200000000,,0x00,0x07
2.899004000000000,,0x20,0x00
2.901977600000000,,0x06,0x28
2.904951400000000,,0x0E,0x0F
2.907925200000000,,0x30,0x20
2.910899000000000,,0x35,0x04
2.913872800000000,,0x80,0x00
2.916846800000000,,0x1E,0xC2
2.953093600000000,,0xB0,0x0B
2.955507200000000,,0x00,0x07
2.958481000000000,,0x20,0x00
2.961455000000000,,0x8E,0x28
2.964428600000000,,0x0E,0x0F
2.967402600000000,,0x30,0x20
2.970376400000000,,0x35,0x04
2.973350200000000,,0x80,0x00
2.976324200000000,,0xA6,0xC2
3.012584600000000,,0xB0,0x0B
3.014984400000000,,0x00,0x07
3.017958200000000,,0x20,0x00
3.020932000000000,,0x06,0x28
3.023906000000000,,0x0E,0x0F
3.026879800000000,,0x30,0x20
3.029853600000000,,0x35,0x04
3.032827400000000,,0x80,0x00
3.035801200000000,,0x1E,0xC2
3.072059400000000,,0xB0,0x0B
3.074460000000000,,0x00,0x07
3.077433800000000,,0x20,0x00
3.080407800000000,,0x8E,0x28
3.083381400000000,,0x0E,0x0F
3.086355000000000,,0x30,0x20
3.089329000000000,,0x35,0x04
3.092302600000000,,0x80,0x00
3.095276200000000,,0xA6,0xC2
3.131553000000000,,0xB0,0x0B
3.133936400000000,,0x00,0x07
3.136910400000000,,0x20,0x00
3.139884400000000,,0x06,0x28
3.142858400000000,,0x0E,0x0F
3.145832600000000,,0x30,0x20
3.148806600000000,,0x35,0x04
3.151780400000000,,0x80,0x00
3.154754200000000,,0x1E,0xC2
3.191030600000000,,0xB0,0x0B
3.193414600000000,,0x00,0x07
3.196388600000000,,0x20,0x00
3.199362800000000,,0x8E,0x28
3.202336600000000,,0x0E,0x0F
3.205310800000000,,0x30,0x20
3.208284800000000,,0x35,0x04
3.211258600000000,,0x80,0x00
3.214232600000000,,0xA6,0xC2
3.250522000000000,,0xB0,0x0B
3.252893800000000,,0x00,0x07
3.255867800000000,,0x20,0x00
3.258841600000000,,0x06,0x28
3.261815400000000,,0x0E,0x0F
3.264789400000000,,0x30,0x20
3.267763200000000,,0x35,0x04
3.270737200000000,,0x80,0x00
3.273711200000000,,0x1E,0xC2
3.310011600000000,,0xB0,0x0B
3.312370400000000,,0x00,0x07
3.315344200000000,,0x20,0x00
3.318318200000000,,0x8E,0x28
3.321292000000000,,0x0E,0x0F
3.324266000000000,,0x30,0x20
3.327240000000000,,0x35,0x04
3.330213800000000,,0x80,0x00
3.333187600000000,,0xA6,0xC2
3.369486200000000,,0xB0,0x0B
3.371848000000000,,0x00,0x07
3.374821800000000,,0x20,0x00
3.377795800000000,,0x06,0x28
3.380769600000000,,0x0E,0x0F
3.383743600000000,,0x30,0x20
3.386717600000000,,0x35,0x04
3.389691400000000,,0x80,0x00
3.392665200000000,,0x1E,0xC2
3.429099400000000,,0xB0,0x0B
3.431325200000000,,0x00,0x07
3.434299000000000,,0x20,0x00
3.437272800000000,,0x8E,0x28
3.440246800000000,,0x0E,0x0F
3.443220800000000,,0x30,0x20
3.446194600000000,,0x36,0x04
3.449168600000000,,0x80,0x00
3.452142400000000,,0xA7,0xC2
3.488476800000000,,0xB0,0x0B
3.490802800000000,,0x00,0x07
3.493776400000000,,0x20,0x00
3.496750400000000,,0x06,0x28
3.499724200000000,,0x0E,0x0F
3.502698000000000,,0x30,0x20
3.505672000000000,,0x36,0x04
3.508645800000000,,0x80,0x00
3.511619600000000,,0x1F,0xC2
3.547875000000000,,0xB0,0x0B
3.550279200000000,,0x00,0x07
3.553253000000000,,0x20,0x00
3.556226800000000,,0x8E,0x28
3.559200600000000,,0x0E,0x0F
3.562174400000000,,0x30,0x20
3.565148200000000,,0x36,0x04
3.568122200000000,,0x80,0x00
3.571096000000000,,0xA7,0xC2
3.607270400000000,,0xB0,0x0B
3.609755800000000,,0x00,0x07
3.612729600000000,,0x20,0x00
3.615703600000000,,0x06,0x28
3.618677400000000,,0x0E,0x0F
3.621651200000000,,0x30,0x20
3.624625200000000,,0x36,0x04
3.627599200000000,,0x80,0x00
3.630573200000000,,0x1F,0xC2
3.666652400000000,,0xB0,0x0B
3.669234600000000,,0x00,0x07
3.672208600000000,,0x20,0x00
3.675182600000000,,0x8E,0x28
3.678156400000000,,0x0E,0x0F
3.681130400000000,,0x30,0x20
3.684104200000000,,0x36,0x04
3.687078000000000,,0x80,0x00
3.690052000000000,,0xA7,0xC2
3.728115600000000,,0xB0,0x0B
3.730694800000000,,0x00,0x07
3.733668600000000,,0x20,0x00
3.736642600000000,,0x06,0x28
3.739616400000000,,0x0E,0x0F
3.742590200000000,,0x30,0x20
3.745564000000000,,0x36,0x04
3.748538000000000,,0x80,0x00
3.751511800000000,,0x1F,0xC2
3.786012200000000,,0xB0,0x0B
3.788190000000000,,0x00,0x07
3.791163800000000,,0x20,0x00
3.794137400000000,,0x8E,0x28
3.797111200000000,,0x0E,0x0F
3.800085000000000,,0x30,0x20
3.803058800000000,,0x36,0x04
3.806032600000000,,0x80,0x00
3.809006200000000,,0xA7,0xC2
3.845546400000000,,0xB0,0x0B
3.847667000000000,,0x00,0x07
3.850640800000000,,0x20,0x00
3.853614600000000,,0x06,0x28
3.856588400000000,,0x0E,0x0F
3.859562200000000,,0x30,0x20
3.862536000000000,,0x36,0x04
3.865509800000000,,0x80,0x00
3.868483400000000,,0x1F,0xC2
3.905080000000000,,0xB0,0x0B
3.907142200000000,,0x00,0x07
3.910116000000000,,0x20,0x00
3.913089800000000,,0x8E,0x28
3.916063600000000,,0x0E,0x0F
3.919037200000000,,0x30,0x20
3.922010800000000,,0x36,0x04
3.924984600000000,,0x80,0x00
3.927958600000000,,0xA7,0xC2
3.963988800000000,,0xB0,0x0B
3.966617800000000,,0x00,0x07
3.969592000000000,,0x20,0x00
3.972566000000000,,0x06,0x28
3.975539800000000,,0x0E,0x0F
3.978513800000000,,0x30,0x20
3.981487600000000,,0x36,0x04
3.984461400000000,,0x80,0x00
3.987435400000000,,0x1F,0xC2
4.023525600000000,,0xB0,0x0B
4.026094200000000,,0x00,0x07
4.029068000000000,,0x20,0x00
4.032041800000000,,0x8E,0x28
4.035015400000000,,0x0E,0x0F
4.037989200000000,,0x30,0x20
4.040963000000000,,0x36,0x04
4.043936800000000,,0x80,0x00
4.046910400000000,,0xA7,0xC2
4.083045600000000,,0xB0,0x0B
4.085568800000000,,0x00,0x07
4.088542400000000,,0x20,0x00
4.091516200000000,,0x06,0x28
4.094490000000000,,0x0E,0x0F
4.097463800000000,,0x30,0x20
4.100437600000000,,0x36,0x04
4.103411200000000,,0x80,0x00
4.106385000000000,,0x1F,0xC2
4.142580600000000,,0xB0,0x0B
4.145043400000000,,0x00,0x07
4.148017200000000,,0x20,0x00
4.150991000000000,,0x8E,0x28
4.153964600000000,,0x0E,0x0F
4.156938200000000,,0x30,0x20
4.159911800000000,,0x36,0x04
4.162885600000000,,0x80,0x00
4.165859200000000,,0xA7,0xC2
4.202116600000000,,0xB0,0x0B
4.204518200000000,,0x00,0x07
4.207492200000000,,0x20,0x00
4.210466000000000,,0x06,0x28
4.213440000000000,,0x0E,0x0F
4.216413800000000,,0x30,0x20
4.219387600000000,,0x36,0x04
4.222361400000000,,0x80,0x00
4.225335000000000,,0x1F,0xC2
4.261634800000000,,0xB0,0x0B
4.263993600000000,,0x00,0x07
4.266967400000000,,0x20,0x00
4.269941000000000,,0x8E,0x28
4.272914800000000,,0x0E,0x0F
4.275888400000000,,0x30,0x20
4.278862200000000,,0x36,0x04
4.281836000000000,,0x80,0x00
4.284809600000000,,0xA7,0xC2
4.321173400000000,,0xB0,0x0B
4.323468200000000,,0x00,0x07
4.326442000000000,,0x20,0x00
4.329415800000000,,0x06,0x28
4.332389600000000,,0x0E,0x0F
4.335363200000000,,0x30,0x20
4.338337000000000,,0x36,0x04
4.341310600000000,,0x80,0x00
4.344284200000000,,0x1F,0xC2
4.380691400000000,,0xB0,0x0B
4.382943200000000,,0x00,0x07
4.385917000000000,,0x20,0x00
4.388890800000000,,0x8E,0x28
4.391864600000000,,0x0E,0x0F
4.394838400000000,,0x30,0x20
4.397812200000000,,0x36,0x04
4.400786000000000,,0x80,0x00
4.403759600000000,,0xA7,0xC2
4.440123600000000,,0xB0,0x0B
4.442418000000000,,0x00,0x07
4.445391800000000,,0x20,0x00
4.448365800000000,,0x06,0x28
4.451339600000000,,0x0E,0x0F
4.454313400000000,,0x30,0x20
4.457287200000000,,0x37,0x04
4.460261000000000,,0x80,0x00
4.463234800000000,,0x20,0xC2
4.499564400000000,,0xB0,0x0B
4.501893600000000,,0x00,0x07
4.504867400000000,,0x20,0x00
4.507841200000000,,0x8E,0x28
4.510815000000000,,0x0E,0x0F
4.513788800000000,,0x30,0x20
4.516762600000000,,0x37,0x04
4.519736400000000,,0x80,0x00
4.522710400000000,,0xA8,0xC2
4.558991000000000,,0xB0,0x0B
4.561370400000000,,0x00,0x07
4.564344200000000,,0x20,0x00
4.567318000000000,,0x06,0x28
4.570292000000000,,0x0E,0x0F
4.573265800000000,,0x30,0x20
4.576239600000000,,0x37,0x04
4.579213400000000,,0x80,0x00
4.582187200000000,,0x20,0xC2
4.618432000000000,,0xB0,0x0B
4.620846600000000,,0x00,0x07
4.623820400000000,,0x20,0x00
4.626794200000000,,0x8E,0x28
4.629768200000000,,0x0E,0x0F
4.632742000000000,,0x30,0x20
4.635715800000000,,0x37,0x04
4.638689600000000,,0x80,0x00
4.641663400000000,,0xA8,0xC2
4.677857200000000,,0xB0,0x0B
4.680322600000000,,0x00,0x07
4.683296400000000,,0x20,0x00
4.686270200000000,,0x06,0x28
4.689244000000000,,0x0E,0x0F
4.692217600000000,,0x30,0x20
4.695191400000000,,0x37,0x04
4.698165200000000,,0x80,0x00
4.701139000000000,,0x20,0xC2
4.737700600000000,,0xB0,0x0B
4.739800000000000,,0x00,0x07
4.742773800000000,,0x20,0x00
4.745747400000000,,0x8E,0x28
4.748721400000000,,0x0E,0x0F
4.751695000000000,,0x30,0x20
4.754668800000000,,0x37,0x04
4.757642600000000,,0x80,0x00
4.760616400000000,,0xA8,0xC2
4.797151400000000,,0xB0,0x0B
4.799276000000000,,0x00,0x07
4.802249600000000,,0x20,0x00
4.805223600000000,,0x06,0x28
4.808197200000000,,0x0E,0x0F
4.811171000000000,,0x30,0x20
4.814144800000000,,0x37,0x04
4.817118600000000,,0x80,0x00
4.820092200000000,,0x20,0xC2
4.856625200000000,,0xB0,0x0B
4.858751800000000,,0x00,0x07
4.861725600000000,,0x20,0x00
4.864699600000000,,0x8E,0x28
4.867673400000000,,0x0E,0x0F
4.870647200000000,,0x30,0x20
4.873621000000000,,0x37,0x04
4.876594800000000,,0x80,0x00
4.879568800000000,,0xA8,0xC2
4.916117000000000,,0xB0,0x0B
4.918229600000000,,0x00,0x07
4.921203600000000,,0x20,0x00
4.924177600000000,,0x06,0x28
4.927151600000000,,0x0E,0x0F
4.930125600000000,,0x30,0x20
4.933099400000000,,0x37,0x04
4.936073400000000,,0x80,0x00
4.939047400000000,,0x20,0xC2
4.975595400000000,,0xB0,0x0B
4.977708000000000,,0x00,0x07
4.980681800000000,,0x20,0x00
4.983655600000000,,0x8E,0x28
4.986629400000000,,0x0E,0x0F
4.989603400000000,,0x30,0x20
4.992577000000000,,0x37,0x04
4.995551000000000,,0x80,0x00
4.998524800000000,,0xA8,0xC2
5.035087800000000,,0xB0,0x0B
5.037186800000000,,0x00,0x07
5.040160600000000,,0x20,0x00
5.043134400000000,,0x06,0x28
5.046108200000000,,0x0E,0x0F
5.049082000000000,,0x30,0x20
5.052055800000000,,0x37,0x04
5.055029600000000,,0x80,0x00
5.058003400000000,,0x20,0xC2
5.094538200000000,,0xB0,0x0B
5.096662800000000,,0x00,0x07
5.099636600000000,,0x20,0x00
5.102610400000000,,0x8E,0x28
5.105584200000000,,0x0E,0x0F
5.108558000000000,,0x30,0x20
5.111531800000000,,0x37,0x04
5.114505600000000,,0x80,0x00
5.117479400000000,,0xA8,0xC2
5.154013800000000,,0xB0,0x0B
5.156140000000000,,0x00,0x07
5.159114000000000,,0x20,0x00
5.162088000000000,,0x06,0x28
5.165061800000000,,0x0E,0x0F
5.168035800000000,,0x30,0x20
5.171009600000000,,0x37,0x04
5.173983600000000,,0x80,0x00
5.176957600000000,,0x20,0xC2
5.213506600000000,,0xB0,0x0B
5.215619400000000,,0x00,0x07
5.218593400000000,,0x20,0x00
5.221567600000000,,0x8E,0x28
5.224541400000000,,0x0E,0x0F
5.227515400000000,,0x30,0x20
5.230489400000000,,0x37,0x04
5.233463400000000,,0x80,0x00
5.236437400000000,,0xA8,0xC2
5.272988600000000,,0xB0,0x0B
5.275101200000000,,0x00,0x07
5.278075200000000,,0x20,0x00
5.281049000000000,,0x06,0x28
5.284022800000000,,0x0E,0x0F
5.286996800000000,,0x30,0x20
5.289970800000000,,0x37,0x04
5.292944600000000,,0x80,0x00
5.295918400000000,,0x20,0xC2
5.332509600000000,,0xB0,0x0B
5.334578800000000,,0x40,0x07
5.337552600000000,,0x20,0x00
5.340526600000000,,0x8E,0x28
5.343500400000000,,0x0E,0x0F
5.346474200000000,,0x30,0x20
5.349448000000000,,0x37,0x04
5.352421800000000,,0x81,0x00
5.355395600000000,,0xE9,0xC2
5.391454200000000,,0xB0,0x0B
5.394055200000000,,0x40,0x07
5.397029000000000,,0x20,0x00
5.400002800000000,,0x06,0x28
5.402976600000000,,0x0E,0x0F
5.405950600000000,,0x30,0x20
5.408924400000000,,0x37,0x04
5.411898200000000,,0x81,0x00
5.414872200000000,,0x61,0xC2
5.451213200000000,,0xB0,0x0B
5.453532600000000,,0x40,0x07
5.456506600000000,,0x20,0x01
5.459480400000000,,0x8E,0x28
5.462454200000000,,0x0E,0x0F
5.465428000000000,,0x30,0x20
5.468402000000000,,0x38,0x04
5.471375800000000,,0x81,0x00
5.474349800000000,,0xEA,0xC3
5.510531800000000,,0xB0,0x0B
5.513009000000000,,0x40,0x07
5.515983000000000,,0x20,0x01
5.518957000000000,,0x06,0x28
5.521930800000000,,0x0E,0x0F
5.524904800000000,,0x30,0x20
5.527878600000000,,0x38,0x04
5.530852600000000,,0x81,0x00
5.533826400000000,,0x62,0xC3
5.570345600000000,,0xB0,0x0B
5.572485800000000,,0x40,0x07
5.575459400000000,,0x20,0x01
5.578433200000000,,0x8E,0x28
5.581406800000000,,0x0E,0x0F
5.584380600000000,,0x30,0x20
5.587354400000000,,0x38,0x04
5.590328200000000,,0x81,0x00
5.593301800000000,,0xEA,0xC3
5.629602800000000,,0xB0,0x0B
5.631960400000000,,0x40,0x07
5.634934200000000,,0x20,0x01
5.637908000000000,,0x06,0x28
5.640881800000000,,0x0E,0x0F
5.643855400000000,,0x30,0x20
5.646829200000000,,0x38,0x04
5.649803200000000,,0x81,0x00
5.652776800000000,,0x62,0xC3
5.688866200000000,,0xB0,0x0B
5.691435200000000,,0x40,0x07
5.694408800000000,,0x20,0x01
5.697382400000000,,0x8E,0x28
5.700356200000000,,0x0E,0x0F
5.703330000000000,,0x30,0x20
5.706303800000000,,0x38,0x04
5.709277400000000,,0x81,0x00
5.712251000000000,,0xEA,0xC3
5.748321800000000,,0xB0,0x0B
5.750909400000000,,0x40,0x07
5.753883200000000,,0x20,0x01
5.756856800000000,,0x06,0x28
5.759830400000000,,0x0E,0x0F
5.762804000000000,,0x30,0x20
5.765777600000000,,0x38,0x04
5.768751400000000,,0x81,0x00
5.771725000000000,,0x62,0xC3
5.808237000000000,,0xB0,0x0B
5.810383800000000,,0x40,0x07
5.813357400000000,,0x20,0x01
5.816331200000000,,0x8E,0x28
5.819304600000000,,0x0E,0x0F
5.822278200000000,,0x30,0x20
5.825252000000000,,0x38,0x04
5.828225800000000,,0x81,0x00
5.831199400000000,,0xEA,0xC3
5.867560400000000,,0xB0,0x0B
5.869858000000000,,0x40,0x07
5.872831600000000,,0x20,0x01
5.875805400000000,,0x06,0x28
5.878779000000000,,0x0E,0x0F
5.881752800000000,,0x30,0x20
5.884726600000000,,0x38,0x04
5.887700400000000,,0x81,0x00
5.890674000000000,,0x62,0xC3
5.926895800000000,,0xB0,0x0B
5.929331800000000,,0x40,0x07
5.932305600000000,,0x20,0x01
5.935279400000000,,0x8E,0x28
5.938253200000000,,0x0E,0x0F
5.941227000000000,,0x30,0x20
5.944200800000000,,0x38,0x04
5.947174800000000,,0x81,0x00
5.950148600000000,,0xEA,0xC3
5.986236400000000,,0xB0,0x0B
5.988806800000000,,0x40,0x07
5.991780600000000,,0x20,0x01
5.994754400000000,,0x06,0x28
5.997728000000000,,0x0E,0x0F
6.000701800000000,,0x30,0x20
6.003675400000000,,0x38,0x04
6.006649200000000,,0x81,0x00
6.009622800000000,,0x62,0xC3
6.046136200000000,,0xB0,0x0B
6.048280600000000,,0x40,0x07
6.051254400000000,,0x20,0x01
6.054228000000000,,0x8E,0x28
6.057201600000000,,0x0E,0x0F
6.060175200000000,,0x30,0x20
6.063148800000000,,0x38,0x04
6.066122400000000,,0x81,0x00
6.069096200000000,,0xEA,0xC3
6.105475600000000,,0xB0,0x0B
6.107754600000000,,0x40,0x07
6.110728200000000,,0x20,0x01
6.113701800000000,,0x06,0x28
6.116675600000000,,0x0E,0x0F
6.119649200000000,,0x30,0x20
6.122622800000000,,0x38,0x04
6.125596600000000,,0x81,0x00
6.128570200000000,,0x62,0xC3
6.164797200000000,,0xB0,0x0B
6.167227600000000,,0x40,0x07
6.170201200000000,,0x20,0x01
6.173174800000000,,0x8E,0x28
6.176148400000000,,0x0E,0x0F
6.179122000000000,,0x30,0x20
6.182095600000000,,0x38,0x04
6.185069200000000,,0x81,0x00
6.188042800000000,,0xEA,0xC3
6.224132200000000,,0xB0,0x0B
6.226699600000000,,0x40,0x07
6.229673000000000,,0x20,0x01
6.232646600000000,,0x06,0x28
6.235620000000000,,0x0E,0x0F
6.238593800000000,,0x30,0x20
6.241567400000000,,0x38,0x04
6.244541000000000,,0x81,0x00
6.247514600000000,,0x62,0xC3
6.284062400000000,,0xB0,0x0B
6.286175000000000,,0x00,0x07
6.289148600000000,,0x20,0x01
6.292122400000000,,0x8E,0x28
6.295096000000000,,0x0E,0x0F
6.298069800000000,,0x30,0x20
6.301043600000000,,0x38,0x04
6.304017200000000,,0x80,0x00
6.306991000000000,,0xA9,0xC3
6.343334200000000,,0xB0,0x0B
6.345649000000000,,0x00,0x07
6.348622400000000,,0x20,0x01
6.351596200000000,,0x06,0x28
6.354569800000000,,0x0E,0x0F
6.357543600000000,,0x30,0x20
6.360517200000000,,0x38,0x04
6.363490800000000,,0x80,0x00
6.366464600000000,,0x21,0xC3
6.402708000000000,,0xB0,0x0B
6.405122600000000,,0x00,0x07
6.408096600000000,,0x20,0x01
6.411070400000000,,0x8E,0x28
6.414044200000000,,0x0E,0x0F
6.417018000000000,,0x30,0x20
6.419991800000000,,0x39,0x04
6.422965600000000,,0x80,0x00
6.425939600000000,,0xAA,0xC3
6.462472000000000,,0xB0,0x0B
6.464599000000000,,0x00,0x07
6.467573000000000,,0x20,0x01
6.470547000000000,,0x06,0x28
6.473520800000000,,0x0E,0x0F
6.476494600000000,,0x30,0x20
6.479468600000000,,0x39,0x04
6.482442400000000,,0x80,0x00
6.485416400000000,,0x22,0xC3
6.521678400000000,,0xB0,0x0B
6.524075800000000,,0x00,0x07
6.527049600000000,,0x20,0x01
6.530023400000000,,0x8E,0x28
6.532997000000000,,0x0E,0x0F
6.535970800000000,,0x30,0x20
6.538944600000000,,0x39,0x04
6.541918000000000,,0x80,0x00
6.544891800000000,,0xAA,0xC3
6.581452200000000,,0xB0,0x0B
6.583551200000000,,0x00,0x07
6.586524800000000,,0x20,0x01
6.589498400000000,,0x06,0x28
6.592472200000000,,0x0E,0x0F
6.595445800000000,,0x30,0x20
6.598419400000000,,0x39,0x04
6.601393200000000,,0x80,0x00
6.604366800000000,,0x22,0xC3
6.640602800000000,,0xB0,0x0B
6.643024200000000,,0x00,0x07
6.645997800000000,,0x20,0x01
6.648971400000000,,0x8E,0x28
6.651945000000000,,0x0E,0x0F
6.654918600000000,,0x30,0x20
6.657892200000000,,0x39,0x04
6.660865800000000,,0x80,0x00
6.663839400000000,,0xAA,0xC3
6.700175600000000,,0xB0,0x0B
6.702499400000000,,0x00,0x07
6.705473200000000,,0x20,0x01
6.708447000000000,,0x06,0x28
6.711420600000000,,0x0E,0x0F
6.714394400000000,,0x30,0x20
6.717368200000000,,0x39,0x04
6.720342000000000,,0x80,0x00
6.723315600000000,,0x22,0xC3
6.759449200000000,,0xB0,0x0B
6.761973800000000,,0x00,0x07
6.764947400000000,,0x20,0x01
6.767921200000000,,0x8E,0x28
6.770895000000000,,0x0E,0x0F
6.773868600000000,,0x30,0x20
6.776842400000000,,0x39,0x04
6.779816200000000,,0x80,0x00
6.782789800000000,,0xAA,0xC3
6.819317800000000,,0xB0,0x0B
6.821448200000000,,0x00,0x07
6.824422000000000,,0x20,0x01
6.827395800000000,,0x06,0x28
6.830369600000000,,0x0E,0x0F
6.833343400000000,,0x30,0x20
6.836317000000000,,0x39,0x04
6.839291000000000,,0x80,0x00
6.842264600000000,,0x22,0xC3
6.878608400000000,,0xB0,0x0B
6.880923400000000,,0x00,0x07
6.883897200000000,,0x20,0x01
6.886871000000000,,0x8E,0x28
6.889844800000000,,0x0E,0x0F
6.892818800000000,,0x30,0x20
6.895792600000000,,0x39,0x04
6.898766600000000,,0x80,0x00
6.901740600000000,,0xAA,0xC3
6.937883400000000,,0xB0,0x0B
6.940400800000000,,0x00,0x07
6.943374600000000,,0x20,0x01
6.946348400000000,,0x06,0x28
6.949322200000000,,0x0E,0x0F
6.952296000000000,,0x30,0x20
6.955269800000000,,0x39,0x04
6.958243600000000,,0x80,0x00
6.961217400000000,,0x22,0xC3
6.997753600000000,,0xB0,0x0B
6.999878200000000,,0x00,0x07
7.002852200000000,,0x20,0x01
7.005826000000000,,0x8E,0x28
7.008799800000000,,0x0E,0x0F
7.011773600000000,,0x30,0x20
7.014747400000000,,0x39,0x04
7.017721200000000,,0x80,0x00
7.020695000000000,,0xAA,0xC3
7.057027600000000,,0xB0,0x0B
7.059353800000000,,0x00,0x07
7.062327600000000,,0x20,0x01
7.065301400000000,,0x06,0x28
7.068275200000000,,0x0E,0x0F
7.071249000000000,,0x30,0x20
7.074222800000000,,0x39,0x04
7.077196600000000,,0x80,0x00
7.080170400000000,,0x22,0xC3
7.116316400000000,,0xB0,0x0B
7.118829600000000,,0x00,0x07
7.121803600000000,,0x20,0x01
7.124777200000000,,0x8E,0x28
7.127751000000000,,0x0E,0x0F
7.130724800000000,,0x30,0x20
7.133698600000000,,0x39,0x04
7.136672400000000,,0x80,0x00
7.139646200000000,,0xAA,0xC3
7.176185000000000,,0xB0,0x0B
7.178305600000000,,0x00,0x07
7.181279400000000,,0x20,0x01
7.184253200000000,,0x06,0x28
7.187227000000000,,0x0E,0x0F
7.190200600000000,,0x30,0x20
7.193174400000000,,0x39,0x04
7.196148200000000,,0x80,0x00
7.199122200000000,,0x22,0xC3
7.235460200000000,,0xB0,0x0B
7.237780600000000,,0x00,0x07
7.240754200000000,,0x20,0x01
7.243728000000000,,0x8E,0x28
7.246701600000000,,0x0E,0x0F
7.249675400000000,,0x30,0x20
7.252649200000000,,0x39,0x04
7.255623000000000,,0x80,0x00
7.258596800000000,,0xAA,0xC3
7.294750000000000,,0xB0,0x0B
7.297256200000000,,0x00,0x07
7.300230000000000,,0x20,0x01
7.303203800000000,,0x06,0x28
7.306177600000000,,0x0E,0x0F
7.309151400000000,,0x30,0x20
7.312125200000000,,0x39,0x04
7.315098800000000,,0x80,0x00
7.318072600000000,,0x22,0xC3
7.354601200000000,,0xB0,0x0B
7.356732200000000,,0x00,0x07
7.359706000000000,,0x20,0x01
7.362679800000000,,0x8E,0x28
7.365653400000000,,0x0E,0x0F
7.368627200000000,,0x30,0x20
7.371601000000000,,0x39,0x04
7.374574800000000,,0x80,0x00
7.377548800000000,,0xAA,0xC3
7.413752600000000,,0xB0,0x0B
7.416208000000000,,0x00,0x07
7.419181800000000,,0x20,0x01
7.422155600000000,,0x06,0x28
7.425129400000000,,0x0E,0x0F
7.428103200000000,,0x30,0x20
7.431077000000000,,0x3A,0x04
7.434050800000000,,0x80,0x00
7.437024400000000,,0x23,0xC3
7.473530600000000,,0xB0,0x0B
7.475684200000000,,0x00,0x07
7.478658000000000,,0x20,0x01
7.481632000000000,,0x8E,0x28
7.484605800000000,,0x0E,0x0F
7.487579800000000,,0x30,0x20
7.490553800000000,,0x3A,0x04
7.493527600000000,,0x80,0x00
7.496501600000000,,0xAB,0xC3
7.532722000000000,,0xB0,0x0B
7.535161000000000,,0x00,0x07
7.538134800000000,,0x20,0x05
7.541108600000000,,0x06,0x28
7.544082400000000,,0x0E,0x0F
7.547056400000000,,0x30,0x20
7.550030400000000,,0x3A,0x04
7.553004200000000,,0x80,0x00
7.555978000000000,,0x23,0xC7
7.592499600000000,,0xB0,0x0B
7.594636800000000,,0x00,0x07
7.597610600000000,,0x20,0x05
7.600584400000000,,0x8E,0x28
7.603558200000000,,0x0E,0x0F
7.606532000000000,,0x30,0x20
7.609505600000000,,0x3A,0x04
7.612479400000000,,0x80,0x00
7.615453200000000,,0xAB,0xC7
7.651691000000000,,0xB0,0x0B
7.654113200000000,,0x00,0x07
7.657087000000000,,0x20,0x05
7.660061000000000,,0x06,0x28
7.663034600000000,,0x0E,0x0F
7.666008400000000,,0x30,0x20
7.668982200000000,,0x3A,0x04
7.671956000000000,,0x80,0x00
7.674929600000000,,0x23,0xC7
7.711487800000000,,0xB0,0x0B
7.713587000000000,,0x00,0x07
7.716560800000000,,0x20,0x05
7.719534600000000,,0x8E,0x28
7.722508200000000,,0x0E,0x0F
7.725482000000000,,0x30,0x20
7.728455800000000,,0x3A,0x04
7.731429400000000,,0x80,0x00
7.734403200000000,,0xAB,0xC7
7.770739800000000,,0xB0,0x0B
7.773062800000000,,0x00,0x07
7.776036600000000,,0x20,0x05
7.779010400000000,,0x06,0x28
7.781984200000000,,0x0E,0x0F
7.784957800000000,,0x30,0x20
7.787931400000000,,0x3A,0x04
7.790905200000000,,0x80,0x00
7.793878800000000,,0x23,0xC7
7.830014800000000,,0xB0,0x0B
7.832538600000000,,0x00,0x07
7.835512600000000,,0x20,0x05
7.838486600000000,,0x8E,0x28
7.841460400000000,,0x0E,0x0F
7.844434400000000,,0x30,0x20
7.847408400000000,,0x3A,0x04
7.850382200000000,,0x80,0x00
7.853356200000000,,0xAB,0xC7
7.889887400000000,,0xB0,0x0B
7.892017200000000,,0x00,0x07
7.894991000000000,,0x20,0x05
7.897965000000000,,0x06,0x28
7.900939200000000,,0x0E,0x0F
7.903913000000000,,0x30,0x20
7.906887000000000,,0x3A,0x04
7.909861000000000,,0x80,0x00
7.912834800000000,,0x23,0xC7
7.949170200000000,,0xB0,0x0B
7.951495200000000,,0x00,0x07
7.954468800000000,,0x20,0x05
7.957442800000000,,0x8E,0x28
7.960416600000000,,0x0E,0x0F
7.963390400000000,,0x30,0x20
7.966364200000000,,0x3A,0x04
7.969338200000000,,0x80,0x00
7.972312000000000,,0xAB,0xC7
8.008512800000000,,0xB0,0x0B
8.010971200000000,,0x20,0x07
8.013944800000001,,0x20,0x05
8.016918600000000,,0x06,0x28
8.019892400000000,,0x0E,0x0F
8.022866000000000,,0x30,0x20
8.025839800000000,,0x3A,0x04
8.028813599999999,,0x81,0x00
8.031787400000001,,0x44,0xC7
8.067852999999999,,0xB0,0x0B
8.070446600000000,,0x20,0x07
8.073420400000000,,0x20,0x05
8.076394199999999,,0x8E,0x28
8.079367800000000,,0x0E,0x0F
8.082341599999999,,0x30,0x20
8.085315400000001,,0x3A,0x04
8.088289400000001,,0x81,0x00
8.091263200000000,,0xCC,0xC7
8.127744600000000,,0xB0,0x0B
8.129924600000001,,0x00,0x07
8.132898400000000,,0x20,0x05
8.135872400000000,,0x06,0x28
8.138846200000000,,0x0E,0x0F
8.141820200000000,,0x30,0x20
8.144793999999999,,0x3A,0x04
8.147767800000000,,0x80,0x00
8.150741600000000,,0x23,0xC7
8.187036200000000,,0xB0,0x0B
8.189400200000000,,0x00,0x07
8.192373999999999,,0x20,0x05
8.195347999999999,,0x8E,0x28
8.198321600000000,,0x0E,0x0F
8.201295600000000,,0x30,0x20
8.204269200000001,,0x3A,0x04
8.207243000000000,,0x80,0x00
8.210216800000000,,0xAB,0xC7
8.246307800000000,,0xB0,0x0B
8.248875800000000,,0x00,0x07
8.251849600000000,,0x20,0x05
8.254823200000001,,0x06,0x28
8.257797000000000,,0x0E,0x0F
8.260770800000000,,0x30,0x20
8.263744400000000,,0x3A,0x04
8.266717999999999,,0x80,0x00
8.269691399999999,,0x23,0xC7
8.306173400000000,,0xB0,0x0B
8.308349200000000,,0x00,0x07
8.311323000000000,,0x20,0x05
8.314296600000000,,0x8E,0x28
8.317270199999999,,0x0E,0x0F
8.320243800000000,,0x30,0x20
8.323217600000000,,0x3A,0x04
8.326191400000001,,0x80,0x00
8.329165000000000,,0xAB,0xC7
8.365475000000000,,0xB0,0x0B
8.367823400000001,,0x00,0x07
8.370797200000000,,0x20,0x05
8.373770800000001,,0x06,0x28
8.376744600000000,,0x0E,0x0F
8.379718400000000,,0x30,0x20
8.382692199999999,,0x3A,0x04
8.385666000000001,,0x80,0x00
8.388639800000000,,0x23,0xC7
8.424961600000000,,0xB0,0x0B
8.427299200000000,,0x00,0x07
8.430273200000000,,0x20,0x05
8.433247000000000,,0x8E,0x28
8.436221000000000,,0x0E,0x0F
8.439195000000000,,0x30,0x20
8.442169000000000,,0x3B,0x04
8.445142799999999,,0x80,0x00
8.448116799999999,,0xAC,0xC7
8.484170000000001,,0xB0,0x0B
8.486777000000000,,0x00,0x07
8.489750799999999,,0x20,0x05
8.492724400000000,,0x06,0x28
8.495698200000000,,0x0E,0x0F
8.498672200000000,,0x30,0x20
8.501646200000000,,0x3B,0x04
8.504619999999999,,0x80,0x00
8.507593999999999,,0x24,0xC7
8.543929199999999,,0xB0,0x0B
8.546254200000000,,0x00,0x07
8.549227999999999,,0x20,0x06
8.552201800000001,,0x8E,0x28
8.555175400000000,,0x0E,0x0F
8.558149200000001,,0x30,0x20
8.561123000000000,,0x3B,0x04
8.564096800000000,,0x80,0x00
8.567070800000000,,0xAC,0xC8
8.603136800000000,,0xB0,0x0B
8.605732000000000,,0x00,0x07
8.608706000000000,,0x20,0x06
8.611680200000000,,0x06,0x28
8.614654000000000,,0x0E,0x0F
8.617628000000000,,0x30,0x20
8.620602000000000,,0x3B,0x04
8.623576000000000,,0x80,0x00
8.626550000000000,,0x24,0xC8
8.662923400000000,,0xB0,0x0B
8.665211599999999,,0x00,0x07
8.668185400000000,,0x20,0x06
8.671159200000000,,0x8E,0x28
8.674133200000000,,0x0E,0x0F
8.677107200000000,,0x30,0x20
8.680081200000000,,0x3B,0x04
8.683055200000000,,0x80,0x00
8.686029000000000,,0xAC,0xC8
8.722342800000000,,0xB0,0x0B
8.724691000000000,,0x00,0x07
8.727665000000000,,0x20,0x06
8.730638799999999,,0x06,0x28
8.733612600000001,,0x0E,0x0F
8.736586400000000,,0x30,0x20
8.739560400000000,,0x3B,0x04
8.742534400000000,,0x80,0x00
8.745507999999999,,0x24,0xC8
8.781635800000000,,0xB0,0x0B
8.784167999999999,,0x00,0x07
8.787141999999999,,0x20,0x06
8.790115800000001,,0x8E,0x28
8.793089600000000,,0x0E,0x0F
8.796063200000001,,0x30,0x20
8.799037200000001,,0x3B,0x04
8.802011000000000,,0x80,0x00
8.804985000000000,,0xAC,0xC8
8.841493000000000,,0xB0,0x0B
8.843646400000001,,0x00,0x07
8.846620400000001,,0x20,0x06
8.849594200000000,,0x06,0x28
8.852568200000000,,0x0E,0x0F
8.855542000000000,,0x30,0x20
8.858515799999999,,0x3B,0x04
8.861489799999999,,0x80,0x00
8.864463600000001,,0x24,0xC8
8.900784600000000,,0xB0,0x0B
8.903124399999999,,0x00,0x07
8.906098399999999,,0x20,0x06
8.909072200000001,,0x8E,0x28
8.912046200000001,,0x0E,0x0F
8.915020000000000,,0x30,0x20
8.917994000000000,,0x3B,0x04
8.920967800000000,,0x80,0x00
8.923941599999999,,0xAC,0xC8
8.960075399999999,,0xB0,0x0B
8.962601400000000,,0x00,0x07
8.965575200000000,,0x20,0x06
8.968548999999999,,0x06,0x28
8.971522999999999,,0x0E,0x0F
8.974496800000001,,0x30,0x20
8.977470800000001,,0x3B,0x04
8.980444800000001,,0x80,0x00
8.983418600000000,,0x24,0xC8
9.019928999999999,,0xB0,0x0B
9.022078600000000,,0x00,0x07
9.025052400000000,,0x20,0x06
9.028026400000000,,0x8E,0x28
9.031000400000000,,0x0E,0x0F
9.033974199999999,,0x30,0x20
9.036948199999999,,0x3B,0x04
9.039922000000001,,0x80,0x00
9.042896000000001,,0xAC,0xC8
9.079220200000000,,0xB0,0x0B
9.081556200000000,,0x00,0x07
9.084530000000001,,0x20,0x06
9.087503800000000,,0x06,0x28
9.090477600000000,,0x0E,0x0F
9.093451200000001,,0x30,0x20
9.096425000000000,,0x3B,0x04
9.099398799999999,,0x80,0x00
9.102372600000001,,0x24,0xC8
9.138494800000000,,0xB0,0x0B
9.141032400000000,,0x00,0x07
9.144006200000000,,0x20,0x06
9.146979999999999,,0x8E,0x28
9.149953999999999,,0x0E,0x0F
9.152927800000001,,0x30,0x20
9.155901800000001,,0x3B,0x04
9.158875800000001,,0x80,0x00
9.161849600000000,,0xAC,0xC8
9.198363400000000,,0xB0,0x0B
9.200510000000000,,0x00,0x07
9.203484000000000,,0x20,0x06
9.206458000000000,,0x06,0x28
9.209432000000000,,0x0E,0x0F
9.212405800000001,,0x30,0x20
9.215379600000000,,0x3B,0x04
9.218353799999999,,0x80,0x00
9.221327600000000,,0x24,0xC8
9.257656400000000,,0xB0,0x0B
9.259989400000000,,0x00,0x07
9.262963400000000,,0x20,0x06
9.265937400000000,,0x8E,0x28
9.268911200000000,,0x0E,0x0F
9.271885200000000,,0x30,0x20
9.274858999999999,,0x3B,0x04
9.277832999999999,,0x80,0x00
9.280806999999999,,0xAC,0xC8
9.316935000000001,,0xB0,0x0B
9.319468799999999,,0x00,0x07
9.322443000000000,,0x20,0x06
9.325417000000000,,0x06,0x28
9.328391000000000,,0x0E,0x0F
9.331365000000000,,0x30,0x20
9.334338799999999,,0x3B,0x04
9.337312799999999,,0x80,0x00
9.340287000000000,,0x24,0xC8
9.376322600000000,,0xB0,0x0B
9.378947800000001,,0x00,0x07
9.381921800000001,,0x20,0x06
9.384895800000001,,0x8E,0x28
9.387869800000001,,0x0E,0x0F
9.390844000000000,,0x31,0x20
9.393818000000000,,0x00,0x04
9.396792000000000,,0x80,0x00
9.399766000000000,,0x72,0xC8
9.436088399999999,,0xB0,0x0B
9.438428399999999,,0x00,0x07
9.441402600000000,,0x20,0x06
9.444376600000000,,0x06,0x28
9.447350600000000,,0x0E,0x0F
9.450324800000001,,0x31,0x20
9.453298600000000,,0x00,0x04
9.456272600000000,,0x80,0x00
9.459246400000000,,0xEA,0xC8
9.495297799999999,,0xB0,0x0B
9.497906800000001,,0x00,0x07
9.500880600000000,,0x20,0x06
9.503854400000000,,0x8E,0x28
9.506828199999999,,0x0E,0x0F
9.509802000000001,,0x31,0x20
9.512775800000000,,0x00,0x04
9.515749599999999,,0x80,0x00
9.518723600000000,,0x72,0xC8
9.555075199999999,,0xB0,0x0B
9.557382199999999,,0x00,0x07
9.560356199999999,,0x20,0x06
9.563330000000001,,0x06,0x28
9.566303800000000,,0x0E,0x0F
9.569277599999999,,0x31,0x20
9.572251400000001,,0x00,0x04
9.575225200000000,,0x80,0x00
9.578199200000000,,0xEA,0xC8
9.614265400000001,,0xB0,0x0B
9.616859399999999,,0x00,0x07
9.619833399999999,,0x20,0x06
9.622807399999999,,0x8E,0x28
9.625781200000000,,0x0E,0x0F
9.628755200000001,,0x31,0x20
9.631729000000000,,0x00,0x04
9.634702799999999,,0x80,0x00
9.637676799999999,,0x72,0xC8
9.673836200000000,,0xB0,0x0B
9.676335800000000,,0x00,0x07
9.679309600000000,,0x20,0x06
9.682283399999999,,0x06,0x28
9.685257200000001,,0x0E,0x0F
9.688231000000000,,0x31,0x20
9.691204800000000,,0x00,0x04
9.694178600000001,,0x80,0x00
9.697152200000000,,0xEA,0xC8
9.733685200000000,,0xB0,0x0B
9.735812200000000,,0x00,0x07
9.738785999999999,,0x20,0x06
9.741759999999999,,0x8E,0x28
9.744733600000000,,0x0E,0x0F
9.747707399999999,,0x31,0x20
9.750681200000001,,0x00,0x04
9.753654800000000,,0x80,0x00
9.756628400000000,,0x72,0xC8
9.792974400000000,,0xB0,0x0B
9.795287800000001,,0x00,0x07
9.798261600000000,,0x20,0x06
9.801235600000000,,0x06,0x28
9.804209400000000,,0x0E,0x0F
9.807183200000001,,0x31,0x20
9.810157000000000,,0x00,0x04
9.813131000000000,,0x80,0x00
9.816105000000000,,0xEA,0xC8
9.852266600000000,,0xB0,0x0B
9.854764400000001,,0x00,0x07
9.857738200000000,,0x20,0x06
9.860712200000000,,0x8E,0x28
9.863686000000000,,0x0E,0x0F
9.866659800000001,,0x31,0x20
9.869633800000001,,0x00,0x04
9.872607600000000,,0x80,0x00
9.875581600000000,,0x72,0xC8
9.912119400000000,,0xB0,0x0B
9.914243799999999,,0x00,0x07
9.917217800000000,,0x20,0x06
9.920191600000001,,0x06,0x28
9.923165400000000,,0x0E,0x0F
9.926139200000000,,0x31,0x20
9.929112999999999,,0x00,0x04
9.932086800000000,,0x80,0x00
9.935060600000000,,0xEA,0xC8
9.971409400000001,,0xB0,0x0B
9.973720800000001,,0x00,0x07
9.976694800000001,,0x20,0x06
9.979668800000001,,0x8E,0x28
9.982642800000001,,0x0E,0x0F
9.985616600000000,,0x31,0x20
9.988590400000000,,0x00,0x04
9.991564199999999,,0x80,0x00
9.994538000000000,,0x72,0xC8
10.030688600000000,,0xB0,0x0B
10.033199400000001,,0x00,0x07
10.036173200000000,,0x20,0x06
10.039147200000000,,0x06,0x28
10.042121200000000,,0x0E,0x0F
10.045095000000000,,0x31,0x20
10.048069000000000,,0x00,0x04
10.051043000000000,,0x80,0x00
10.054016799999999,,0xEA,0xC8
10.090558600000000,,0xB0,0x0B
10.092679199999999,,0x00,0x07
10.095653000000000,,0x20,0x06
10.098627000000000,,0x8E,0x28
10.101600800000000,,0x0E,0x0F
10.104574599999999,,0x31,0x20
10.107548599999999,,0x00,0x04
10.110522599999999,,0x80,0x00
10.113496400000001,,0x72,0xC8
10.149848799999999,,0xB0,0x0B
10.152157200000000,,0x00,0x07
10.155131000000001,,0x20,0x06
10.158105200000000,,0x06,0x28
10.161079200000000,,0x0E,0x0F
10.164052800000000,,0x31,0x20
10.167026600000000,,0x00,0x04
10.170000600000000,,0x80,0x00
10.172974399999999,,0xEA,0xC8
10.209123999999999,,0xB0,0x0B
10.211635400000000,,0x00,0x07
10.214609400000001,,0x20,0x06
10.217583400000001,,0x8E,0x28
10.220557400000001,,0x0E,0x0F
10.223531200000000,,0x31,0x20
10.226505000000000,,0x00,0x04
10.229479000000000,,0x80,0x00
10.232453000000000,,0x72,0xC8
10.268995200000001,,0xB0,0x0B
10.271115800000000,,0x00,0x07
10.274089800000000,,0x20,0x06
10.277063800000001,,0x06,0x28
10.280037999999999,,0x0E,0x0F
10.283011800000001,,0x31,0x20
10.285985600000000,,0x00,0x04
10.288959800000001,,0x80,0x00
10.291933800000001,,0xEA,0xC8
10.328268599999999,,0xB0,0x0B
10.330593600000000,,0x00,0x07
10.333567199999999,,0x20,0x06
10.336541199999999,,0x8E,0x28
10.339515000000000,,0x0E,0x0F
10.342488800000000,,0x31,0x20
10.345462599999999,,0x00,0x04
10.348436400000001,,0x80,0x00
10.351410200000000,,0x72,0xC8
10.387429800000000,,0xB0,0x0B
10.390069799999999,,0x00,0x07
10.393043600000000,,0x20,0x06
10.396017600000000,,0x06,0x28
10.398991600000000,,0x0E,0x0F
10.401965400000000,,0x31,0x20
10.404939199999999,,0x01,0x04
10.407913199999999,,0x80,0x00
10.410887199999999,,0xEB,0xC8
10.447207000000001,,0xB0,0x0B
10.449546399999999,,0x00,0x07
10.452520200000000,,0x20,0x06
10.455494000000000,,0x8E,0x28
10.458467799999999,,0x0E,0x0F
10.461441600000001,,0x31,0x20
10.464415400000000,,0x01,0x04
10.467389200000000,,0x80,0x00
10.470363000000001,,0x73,0xC8
10.506397600000000,,0xB0,0x0B
10.509022000000000,,0x00,0x07
10.511995799999999,,0x20,0x06
10.514969600000001,,0x06,0x28
10.517943199999999,,0x0E,0x0F
10.520917200000000,,0x31,0x20
10.523891000000001,,0x01,0x04
10.526865000000001,,0x80,0x00
10.529838800000000,,0xEB,0xC8
10.566175800000000,,0xB0,0x0B
10.568498999999999,,0x00,0x07
10.571472800000000,,0x20,0x06
10.574446600000000,,0x8E,0x28
10.577420600000000,,0x0E,0x0F
10.580394399999999,,0x31,0x20
10.583368200000001,,0x01,0x04
10.586342000000000,,0x80,0x00
10.589316000000000,,0x73,0xC8
10.625365600000000,,0xB0,0x0B
10.627974600000000,,0x00,0x07
10.630948399999999,,0x20,0x06
10.633922200000001,,0x06,0x28
10.636895800000000,,0x0E,0x0F
10.639869600000001,,0x31,0x20
10.642843400000000,,0x01,0x04
10.645817200000000,,0x80,0x00
10.648790800000000,,0xEB,0xC8
10.685154600000001,,0xB0,0x0B
10.687449600000001,,0x00,0x07
10.690423200000000,,0x20,0x06
10.693396999999999,,0x8E,0x28
10.696370600000000,,0x0E,0x0F
10.699344399999999,,0x31,0x20
10.702318200000001,,0x01,0x04
10.705292200000001,,0x80,0x00
10.708266000000000,,0x73,0xC8
10.744447400000000,,0xB0,0x0B
10.746925400000000,,0x00,0x07
10.749899200000000,,0x20,0x06
10.752872800000000,,0x06,0x28
10.755846600000000,,0x0E,0x0F
10.758820399999999,,0x31,0x20
10.761794200000001,,0x01,0x04
10.764768000000000,,0x80,0x00
10.767742000000000,,0xEB,0xC8
10.804301400000000,,0xB0,0x0B
10.806400600000000,,0x00,0x07
10.809374399999999,,0x20,0x06
10.812348200000001,,0x8E,0x28
10.815322000000000,,0x0E,0x0F
10.818295600000001,,0x31,0x20
10.821269200000000,,0x01,0x04
10.824242800000000,,0x80,0x00
10.827216600000000,,0x73,0xC8
10.863555200000000,,0xB0,0x0B
10.865875000000001,,0x00,0x07
10.868848800000000,,0x20,0x06
10.871822600000000,,0x06,0x28
10.874796600000000,,0x0E,0x0F
10.877770399999999,,0x31,0x20
10.880744200000001,,0x01,0x04
10.883718200000001,,0x80,0x00
10.886692000000000,,0xEB,0xC8
10.922828600000001,,0xB0,0x0B
10.925351200000000,,0x00,0x07
10.928324800000000,,0x20,0x06
10.931298600000000,,0x8E,0x28
10.934272399999999,,0x0E,0x0F
10.937246000000000,,0x31,0x20
10.940219799999999,,0x01,0x04
10.943193600000001,,0x80,0x00
10.946167400000000,,0x73,0xC8
10.982696000000001,,0xB0,0x0B
10.984826399999999,,0x00,0x07
10.987800399999999,,0x20,0x06
10.990774200000001,,0x06,0x28
10.993748000000000,,0x0E,0x0F
10.996721800000000,,0x31,0x20
10.999695600000001,,0x01,0x04
11.002669600000001,,0x80,0x00
11.005643400000000,,0xEB,0xC8
11.041987600000001,,0xB0,0x0B
11.044302399999999,,0x00,0x07
11.047276200000001,,0x20,0x06
11.050250200000001,,0x8E,0x28
11.053224000000000,,0x0E,0x0F
11.056197600000001,,0x31,0x20
11.059171400000000,,0x01,0x04
11.062145200000000,,0x80,0x00
11.065118999999999,,0x73,0xC8
11.101260800000000,,0xB0,0x0B
11.103778000000000,,0x00,0x07
11.106752000000000,,0x20,0x06
11.109726000000000,,0x06,0x28
11.112699800000000,,0x0E,0x0F
11.115673800000000,,0x31,0x20
11.118647599999999,,0x01,0x04
11.121621400000000,,0x80,0x00
11.124595400000000,,0xEB,0xC8
11.161130999999999,,0xB0,0x0B
11.163255599999999,,0x00,0x07
11.166229400000001,,0x20,0x06
11.169203400000001,,0x8E,0x28
11.172177200000000,,0x0E,0x0F
11.175151000000000,,0x31,0x20
11.178124800000001,,0x01,0x04
11.181098600000000,,0x80,0x00
11.184072400000000,,0x73,0xC8
11.220405200000000,,0xB0,0x0B
11.222731400000001,,0x00,0x07
11.225705200000000,,0x20,0x06
11.228679200000000,,0x06,0x28
11.231653000000000,,0x0E,0x0F
11.234627000000000,,0x31,0x20
11.237600799999999,,0x01,0x04
11.240574600000000,,0x80,0x00
11.243548400000000,,0xEB,0xC8
11.279694599999999,,0xB0,0x0B
11.282207800000000,,0x00,0x07
11.285181600000000,,0x20,0x06
11.288155400000001,,0x8E,0x28
11.291129200000000,,0x0E,0x0F
11.294103000000000,,0x31,0x20
11.297076799999999,,0x01,0x04
11.300050600000001,,0x80,0x00
11.303024400000000,,0x73,0xC8
11.339577600000000,,0xB0,0x0B
11.341686200000000,,0x00,0x07
11.344659999999999,,0x20,0x06
11.347633600000000,,0x06,0x28
11.350607399999999,,0x0E,0x0F
11.353581000000000,,0x31,0x20
11.356554600000001,,0x01,0x04
11.359528400000000,,0x80,0x00
11.362501999999999,,0xEB,0xC8
11.399064600000001,,0xB0,0x0B
11.401159800000000,,0x00,0x07
11.404133399999999,,0x20,0x06
11.407107399999999,,0x8E,0x28
11.410081000000000,,0x0E,0x0F
11.413054799999999,,0x31,0x20
11.416028400000000,,0x02,0x04
11.419002200000000,,0x80,0x00
11.421975800000000,,0x74,0xC8
11.458232400000000,,0xB0,0x0B
11.460634400000000,,0x00,0x07
11.463608000000001,,0x20,0x06
11.466581800000000,,0x06,0x28
11.469555600000000,,0x0E,0x0F
11.472529200000000,,0x31,0x20
11.475502799999999,,0x02,0x04
11.478476799999999,,0x80,0x00
11.481450400000000,,0xEC,0xC8
11.517993000000001,,0xB0,0x0B
11.520109600000000,,0x00,0x07
11.523083200000000,,0x20,0x06
11.526057000000000,,0x8E,0x28
11.529030799999999,,0x0E,0x0F
11.532004600000000,,0x31,0x20
11.534978199999999,,0x02,0x04
11.537952000000001,,0x80,0x00
11.540925800000000,,0x74,0xC8
11.577198800000000,,0xB0,0x0B
11.579585000000000,,0x00,0x07
11.582558799999999,,0x20,0x06
11.585532400000000,,0x06,0x28
11.588506199999999,,0x0E,0x0F
11.591480000000001,,0x31,0x20
11.594453800000000,,0x02,0x04
11.597427600000000,,0x80,0x00
11.600401600000000,,0xEC,0xC8
11.636983600000001,,0xB0,0x0B
11.639062800000000,,0x00,0x07
11.642036600000001,,0x20,0x06
11.645010200000000,,0x8E,0x28
11.647986000000000,,0x0E,0x0F
11.650959800000001,,0x31,0x20
11.653933800000001,,0x02,0x04
11.656907600000000,,0x80,0x00
11.659881400000000,,0x74,0xC8
11.696358999999999,,0xB0,0x0B
11.698539800000001,,0x00,0x07
11.701513600000000,,0x20,0x06
11.704487200000001,,0x06,0x28
11.707461000000000,,0x0E,0x0F
11.710434800000000,,0x31,0x20
11.713408200000000,,0x02,0x04
11.716381800000001,,0x80,0x00
11.719355600000000,,0xEC,0xC8
11.755645200000000,,0xB0,0x0B
11.758013399999999,,0x00,0x07
11.760987200000001,,0x20,0x06
11.763960800000000,,0x8E,0x28
11.766934400000000,,0x0E,0x0F
11.769907999999999,,0x31,0x20
11.772881800000000,,0x02,0x04
11.775855399999999,,0x80,0x00
11.778829000000000,,0x74,0xC8
11.814916600000000,,0xB0,0x0B
11.817488200000000,,0x00,0x07
11.820461999999999,,0x20,0x06
11.823435800000000,,0x06,0x28
11.826409399999999,,0x0E,0x0F
11.829383200000001,,0x31,0x20
11.832356799999999,,0x02,0x04
11.835330600000001,,0x80,0x00
11.838304400000000,,0xEC,0xC8
11.874780599999999,,0xB0,0x0B
11.876961800000000,,0x00,0x07
11.879935400000001,,0x20,0x06
11.882909000000000,,0x8E,0x28
11.885882600000000,,0x0E,0x0F
11.888856199999999,,0x31,0x20
11.891829800000000,,0x02,0x04
11.894803400000001,,0x80,0x00
11.897777000000000,,0x74,0xC8
11.934067199999999,,0xB0,0x0B
11.936434200000001,,0x00,0x07
11.939407800000000,,0x20,0x06
11.942381400000000,,0x06,0x28
11.945354999999999,,0x0E,0x0F
11.948328800000001,,0x31,0x20
11.951302200000001,,0x02,0x04
11.954275800000000,,0x80,0x00
11.957249600000001,,0xEC,0xC8
11.993335600000000,,0xB0,0x0B
11.995907600000001,,0x00,0x07
11.998881400000000,,0x20,0x06
12.001855200000000,,0x8E,0x28
12.004828800000000,,0x0E,0x0F
12.007802600000000,,0x31,0x20
12.010776200000000,,0x02,0x04
12.013750000000000,,0x80,0x00
12.016723600000001,,0x74,0xC8
12.053202799999999,,0xB0,0x0B
12.055383800000000,,0x00,0x07
12.058357600000001,,0x20,0x06
12.061331600000001,,0x06,0x28
12.064305400000000,,0x0E,0x0F
12.067279200000000,,0x31,0x20
12.070252999999999,,0x02,0x04
12.073226999999999,,0x80,0x00
12.076200800000001,,0xEC,0xC8
12.112476600000001,,0xB0,0x0B
12.114860400000000,,0x00,0x07
12.117834200000001,,0x20,0x06
12.120808000000000,,0x8E,0x28
12.123781800000000,,0x0E,0x0F
12.126755599999999,,0x31,0x20
12.129729400000000,,0x02,0x04
12.132703200000000,,0x80,0x00
12.135676999999999,,0x74,0xC8
12.171771200000000,,0xB0,0x0B
12.174336200000001,,0x00,0x07
12.177309800000000,,0x20,0x06
12.180283599999999,,0x06,0x28
12.183257200000000,,0x0E,0x0F
12.186230800000001,,0x31,0x20
12.189204399999999,,0x02,0x04
12.192178400000000,,0x80,0x00
12.195152200000001,,0xEC,0xC8
12.231636800000000,,0xB0,0x0B
12.233811200000000,,0x00,0x07
12.236784999999999,,0x20,0x06
12.239758999999999,,0x8E,0x28
12.242732800000001,,0x0E,0x0F
12.245706400000000,,0x31,0x20
12.248679800000000,,0x02,0x04
12.251653200000000,,0x80,0x00
12.254626800000000,,0x74,0xC8
12.290907000000001,,0xB0,0x0B
12.293284000000000,,0x00,0x07
12.296257600000001,,0x20,0x06
12.299231400000000,,0x06,0x28
12.302205000000001,,0x0E,0x0F
12.305178800000000,,0x31,0x20
12.308152600000000,,0x02,0x04
12.311126399999999,,0x80,0x00
12.314100000000000,,0xEC,0xC8
12.350286000000001,,0xB0,0x0B
12.352757799999999,,0x00,0x07
12.355731400000000,,0x20,0x06
12.358705199999999,,0x8E,0x28
12.361678800000000,,0x0E,0x0F
12.364652400000001,,0x31,0x20
12.367626000000000,,0x03,0x04
12.370599800000001,,0x80,0x00
12.373573400000000,,0x75,0xC8
12.410043800000000,,0xB0,0x0B
12.412231200000001,,0x00,0x07
12.415204800000000,,0x20,0x06
12.418178599999999,,0x06,0x28
12.421152200000000,,0x0E,0x0F
12.424125999999999,,0x31,0x20
12.427099800000001,,0x03,0x04
12.430073600000000,,0x80,0x00
12.433047400000000,,0xED,0xC8
12.469249000000000,,0xB0,0x0B
12.471705399999999,,0x00,0x07
12.474679000000000,,0x20,0x06
12.477652600000001,,0x8E,0x28
12.480626200000000,,0x0E,0x0F
12.483599800000000,,0x31,0x22
12.486573399999999,,0x03,0x04
12.489547399999999,,0x80,0x00
12.492521000000000,,0x75,0xCA
12.529023400000000,,0xB0,0x0B
12.531179399999999,,0x00,0x07
12.534153399999999,,0x20,0x06
12.537127000000000,,0x06,0x28
12.540100799999999,,0x0E,0x0F
12.543074600000001,,0x31,0x22
12.546048200000000,,0x03,0x04
12.549022200000000,,0x80,0x00
12.551996000000001,,0xED,0xCA
12.588213400000001,,0xB0,0x0B
12.590655600000000,,0x00,0x07
12.593629399999999,,0x20,0x06
12.596603200000001,,0x8E,0x28
12.599577000000000,,0x0E,0x0F
12.602550600000001,,0x31,0x22
12.605524400000000,,0x03,0x04
12.608498200000000,,0x80,0x00
12.611471999999999,,0x75,0xCA
12.647788000000000,,0xB0,0x0B
12.650131200000001,,0x00,0x07
12.653105000000000,,0x20,0x06
12.656078600000001,,0x06,0x28
12.659052400000000,,0x0E,0x0F
12.662026200000000,,0x31,0x22
12.664999999999999,,0x03,0x04
12.667973800000000,,0x80,0x00
12.670947600000000,,0xED,0xCA
12.707062199999999,,0xB0,0x0B
12.709606400000000,,0x00,0x07
12.712580200000000,,0x20,0x06
12.715553999999999,,0x8E,0x28
12.718527800000000,,0x0E,0x0F
12.721501800000000,,0x31,0x22
12.724475399999999,,0x03,0x04
12.727449399999999,,0x80,0x00
12.730423200000001,,0x75,0xCA
12.766931200000000,,0xB0,0x0B
12.769082200000000,,0x00,0x07
12.772055999999999,,0x20,0x06
12.775029800000000,,0x06,0x28
12.778003600000000,,0x0E,0x0F
12.780977399999999,,0x31,0x22
12.783951200000001,,0x03,0x04
12.786925000000000,,0x80,0x00
12.789899000000000,,0xED,0xCA
12.826218400000000,,0xB0,0x0B
12.828557200000001,,0x00,0x07
12.831531000000000,,0x20,0x06
12.834504799999999,,0x8E,0x28
12.837478400000000,,0x0E,0x0F
12.840452200000000,,0x31,0x22
12.843425999999999,,0x03,0x04
12.846399999999999,,0x80,0x00
12.849373999999999,,0x75,0xCA
12.885493600000000,,0xB0,0x0B
12.888033800000001,,0x00,0x07
12.891007800000001,,0x20,0x06
12.893981600000000,,0x06,0x28
12.896955600000000,,0x0E,0x0F
12.899929600000000,,0x31,0x22
12.902903400000000,,0x03,0x04
12.905877400000000,,0x80,0x00
12.908851400000000,,0xED,0xCA
12.945366399999999,,0xB0,0x0B
12.947511600000000,,0x00,0x07
12.950485600000000,,0x20,0x06
12.953459400000000,,0x8E,0x28
12.956433199999999,,0x0E,0x0F
12.959407199999999,,0x31,0x22
12.962381000000001,,0x03,0x04
12.965354600000000,,0x80,0x00
12.968328600000000,,0x75,0xCA
13.004640400000000,,0xB0,0x0B
13.006988200000000,,0x00,0x07
13.009962200000000,,0x20,0x0E
13.012936000000000,,0x06,0x28
13.015909799999999,,0x0E,0x0F
13.018883600000001,,0x31,0x22
13.021857400000000,,0x03,0x24
13.024831199999999,,0x80,0x00
13.027805000000001,,0xED,0xF2
13.064033000000000,,0xB0,0x0B
13.066464000000000,,0x00,0x07
13.069437799999999,,0x20,0x0E
13.072411600000001,,0x8E,0x28
13.075385400000000,,0x0E,0x0F
13.078359200000000,,0x31,0x22
13.081333000000001,,0x03,0x24
13.084306800000000,,0x80,0x00
13.087280399999999,,0x75,0xF2
13.123426000000000,,0xB0,0x0B
13.125939199999999,,0x00,0x07
13.128913200000000,,0x20,0x0E
13.131887000000001,,0x06,0x28
13.134861000000001,,0x0E,0x0F
13.137834800000000,,0x31,0x22
13.140808600000000,,0x03,0x24
13.143782600000000,,0x80,0x00
13.146756600000000,,0xED,0xF2
13.182803000000000,,0xB0,0x0B
13.185416000000000,,0x00,0x07
13.188389799999999,,0x20,0x0E
13.191363800000000,,0x8E,0x28
13.194337400000000,,0x0E,0x0F
13.197311200000000,,0x31,0x22
13.200284999999999,,0x03,0x24
13.203258999999999,,0x80,0x00
13.206232800000000,,0x75,0xF2
13.242765800000001,,0xB0,0x0B
13.244893400000000,,0x00,0x07
13.247867400000001,,0x20,0x0E
13.250841200000000,,0x06,0x28
13.253814999999999,,0x0E,0x0F
13.256788800000001,,0x31,0x22
13.259762800000001,,0x03,0x24
13.262736800000001,,0x80,0x00
13.265710400000000,,0xED,0xF2
13.302145599999999,,0xB0,0x0B
13.304371800000000,,0x00,0x07
13.307345800000000,,0x20,0x0E
13.310319800000000,,0x8E,0x28
13.313293600000000,,0x0E,0x0F
13.316267600000000,,0x31,0x22
13.319241399999999,,0x03,0x24
13.322215399999999,,0x80,0x00
13.325189200000001,,0x75,0xF2
13.361309600000000,,0xB0,0x0B
13.363850400000000,,0x00,0x07
13.366824200000000,,0x20,0x0E
13.369798200000000,,0x06,0x28
13.372771999999999,,0x0E,0x0F
13.375745800000001,,0x31,0x22
13.378719600000000,,0x04,0x24
13.381693400000000,,0x80,0x00
13.384667200000001,,0xEE,0xF2
13.420701599999999,,0xB0,0x0B
13.423326400000001,,0x00,0x07
13.426299999999999,,0x20,0x0E
13.429273999999999,,0x8E,0x28
13.432247600000000,,0x0E,0x0F
13.435221600000000,,0x31,0x22
13.438195199999999,,0x04,0x24
13.441169199999999,,0x80,0x00
13.444143000000000,,0x76,0xF2
13.480648800000001,,0xB0,0x0B
13.482802599999999,,0x00,0x07
13.485776400000001,,0x20,0x0E
13.488750200000000,,0x06,0x28
13.491724000000000,,0x0E,0x0F
13.494697600000000,,0x31,0x22
13.497671600000000,,0x04,0x24
13.500645400000000,,0x80,0x00
13.503619199999999,,0xEE,0xF2
13.540037999999999,,0xB0,0x0B
13.542278200000000,,0x00,0x07
13.545251800000001,,0x20,0x0E
13.548225600000000,,0x8E,0x28
13.551199199999999,,0x0E,0x0F
13.554173000000000,,0x31,0x22
13.557146599999999,,0x04,0x24
13.560120400000001,,0x80,0x00
13.563094200000000,,0x76,0xF2
13.599413800000001,,0xB0,0x0B
13.601753000000000,,0x00,0x07
13.604726800000000,,0x20,0x0E
13.607700400000001,,0x06,0x28
13.610674200000000,,0x0E,0x0F
13.613648000000000,,0x31,0x22
13.616621600000000,,0x04,0x24
13.619595400000000,,0x80,0x00
13.622569400000000,,0xEE,0xF2
13.658813400000000,,0xB0,0x0B
13.661228200000000,,0x00,0x07
13.664202000000000,,0x20,0x0E
13.667175800000001,,0x8E,0x28
13.670149600000000,,0x0E,0x0F
13.673123400000000,,0x31,0x22
13.676097199999999,,0x04,0x24
13.679071199999999,,0x80,0x00
13.682045000000000,,0x76,0xF2
13.718210200000000,,0xB0,0x0B
13.720705600000001,,0x00,0x07
13.723679400000000,,0x20,0x0E
13.726653400000000,,0x06,0x28
13.729627199999999,,0x0E,0x0F
13.732601000000001,,0x31,0x22
13.735574800000000,,0x04,0x24
13.738548600000000,,0x80,0x00
13.741522200000000,,0xEE,0xF2
13.777587400000000,,0xB0,0x0B
13.780180200000000,,0x00,0x07
13.783153799999999,,0x20,0x0E
13.786127400000000,,0x8E,0x28
13.789101199999999,,0x0E,0x0F
13.792074800000000,,0x31,0x22
13.795048400000001,,0x04,0x24
13.798022200000000,,0x80,0x00
13.800995800000001,,0x76,0xF2
13.837543800000001,,0xB0,0x0B
13.839656400000001,,0x00,0x07
13.842630000000000,,0x20,0x0E
13.845603600000000,,0x06,0x28
13.848577400000000,,0x0E,0x0F
13.851551000000001,,0x31,0x22
13.854524600000000,,0x04,0x24
13.857498400000001,,0x80,0x00
13.860472200000000,,0xEE,0xF2
13.896922600000000,,0xB0,0x0B
13.899131000000001,,0x00,0x07
13.902104800000000,,0x20,0x0E
13.905078600000000,,0x8E,0x28
13.908052400000001,,0x0E,0x0F
13.911026200000000,,0x31,0x22
13.914000000000000,,0x04,0x24
13.916973600000000,,0x80,0x00
13.919947400000000,,0x76,0xF2
13.956315999999999,,0xB0,0x0B
13.958606400000001,,0x00,0x07
13.961580200000000,,0x20,0x0E
13.964554000000000,,0x06,0x28
13.967527799999999,,0x0E,0x0F
13.970501600000000,,0x31,0x22
13.973475400000000,,0x04,0x24
13.976449400000000,,0x80,0x00
13.979423199999999,,0xEE,0xF2
14.015712000000001,,0xB0,0x0B
14.018083200000000,,0x00,0x07
14.021057200000000,,0x20,0x0E
14.024031000000001,,0x8E,0x28
14.027004800000000,,0x0E,0x0F
14.029978600000000,,0x31,0x20
14.032952399999999,,0x04,0x24
14.035926399999999,,0x80,0x00
14.038900200000000,,0x76,0xF0
14.075094800000000,,0xB0,0x0B
14.077560800000001,,0x00,0x07
14.080534600000000,,0x20,0x0E
14.083508399999999,,0x06,0x28
14.086482200000001,,0x0E,0x0F
14.089456200000001,,0x31,0x20
14.092430000000000,,0x04,0x24
14.095403800000000,,0x80,0x00
14.098377800000000,,0xEE,0xF0
14.134489200000001,,0xB0,0x0B
14.137037800000000,,0x00,0x07
14.140011599999999,,0x20,0x0E
14.142985599999999,,0x8E,0x28
14.145959200000000,,0x0E,0x0F
14.148933200000000,,0x31,0x20
14.151907000000000,,0x04,0x24
14.154880800000001,,0x80,0x00
14.157854600000000,,0x76,0xF0
14.194435800000001,,0xB0,0x0B
14.196515200000000,,0x00,0x07
14.199489200000000,,0x20,0x0E
14.202463200000000,,0x06,0x28
14.205437000000000,,0x0E,0x0F
14.208411000000000,,0x31,0x20
14.211384799999999,,0x04,0x24
14.214358799999999,,0x80,0x00
14.217332600000001,,0xEE,0xF0
14.253795400000000,,0xB0,0x0B
14.255994200000000,,0x00,0x07
14.258967999999999,,0x20,0x0E
14.261941999999999,,0x8E,0x28
14.264915999999999,,0x0E,0x0F
14.267890000000000,,0x31,0x20
14.270864000000000,,0x04,0x24
14.273838000000000,,0x80,0x00
14.276811800000001,,0x76,0xF0
14.313205600000000,,0xB0,0x0B
14.315471600000000,,0x00,0x07
14.318445400000000,,0x20,0x0E
14.321419199999999,,0x06,0x28
14.324393000000001,,0x0E,0x0F
14.327366800000000,,0x31,0x20
14.330340600000000,,0x04,0x24
14.333314400000001,,0x80,0x00
14.336288200000000,,0xEE,0xF0
14.372335400000001,,0xB0,0x0B
14.374947600000000,,0x00,0x07
14.377921400000000,,0x20,0x0E
14.380895199999999,,0x8E,0x28
14.383869000000001,,0x0E,0x0F
14.386842800000000,,0x31,0x20
14.389816600000000,,0x05,0x24
14.392790200000000,,0x80,0x00
14.395764000000000,,0x77,0xF0
14.432294799999999,,0xB0,0x0B
14.434422400000001,,0x00,0x07
14.437396200000000,,0x20,0x0E
14.440370000000000,,0x06,0x28
14.443343799999999,,0x0E,0x0F
14.446317600000000,,0x31,0x20
14.449291400000000,,0x05,0x24
14.452265199999999,,0x80,0x00
14.455238800000000,,0xEF,0xF0
14.491669399999999,,0xB0,0x0B
14.493896400000001,,0x00,0x07
14.496869999999999,,0x20,0x0E
14.499843800000001,,0x8E,0x28
14.502817600000000,,0x0E,0x0F
14.505791200000001,,0x31,0x20
14.508764800000000,,0x05,0x24
14.511738400000000,,0x80,0x00
14.514711999999999,,0x77,0xF0
14.551063400000000,,0xB0,0x0B
14.553370800000000,,0x00,0x07
14.556344599999999,,0x20,0x0E
14.559318400000000,,0x06,0x28
14.562292200000000,,0x0E,0x0F
14.565265999999999,,0x31,0x20
14.568239800000001,,0x05,0x24
14.571213600000000,,0x80,0x00
14.574187400000000,,0xEF,0xF0
14.610461799999999,,0xB0,0x0B
14.612845399999999,,0x00,0x07
14.615819000000000,,0x20,0x0E
14.618793000000000,,0x8E,0x28
14.621766600000001,,0x0E,0x0F
14.624740400000000,,0x31,0x20
14.627713999999999,,0x05,0x24
14.630687600000000,,0x80,0x00
14.633661200000001,,0x77,0xF0
14.669836800000001,,0xB0,0x0B
14.672318600000001,,0x00,0x07
14.675292199999999,,0x20,0x0E
14.678266000000001,,0x06,0x28
14.681239600000000,,0x0E,0x0F
14.684213400000001,,0x31,0x20
14.687187000000000,,0x05,0x24
14.690160600000000,,0x80,0x00
14.693134199999999,,0xEF,0xF0
14.729228800000000,,0xB0,0x0B
14.731791800000000,,0x00,0x07
14.734765400000001,,0x20,0x0E
14.737739200000000,,0x8E,0x28
14.740712800000001,,0x0E,0x0F
14.743686400000000,,0x31,0x20
14.746660000000000,,0x05,0x24
14.749633800000000,,0x80,0x00
14.752607599999999,,0x77,0xF0
14.789172400000000,,0xB0,0x0B
14.791267599999999,,0x00,0x07
14.794241400000001,,0x20,0x0E
14.797215400000001,,0x06,0x28
14.800189200000000,,0x0E,0x0F
14.803162800000001,,0x31,0x20
14.806136600000000,,0x05,0x24
14.809110199999999,,0x80,0x00
14.812084000000000,,0xEF,0xF0
14.848529800000000,,0xB0,0x0B
14.850742600000000,,0x00,0x07
14.853716600000000,,0x20,0x0E
14.856690600000000,,0x8E,0x28
14.859664600000000,,0x0E,0x0F
14.862638600000000,,0x31,0x20
14.865612400000000,,0x05,0x24
14.868586400000000,,0x80,0x00
14.871560199999999,,0x77,0xF0
14.907922400000000,,0xB0,0x0B
14.910219400000001,,0x00,0x07
14.913193200000000,,0x20,0x0E
14.916166799999999,,0x06,0x28
14.919140799999999,,0x0E,0x0F
14.922114600000000,,0x31,0x20
14.925088199999999,,0x05,0x24
14.928062000000001,,0x80,0x00
14.931035800000000,,0xEF,0xF0
14.967299600000000,,0xB0,0x0B
14.969694199999999,,0x00,0x07
14.972668000000001,,0x20,0x0E
14.975641800000000,,0x8E,0x28
14.978615599999999,,0x0E,0x0F
14.981589400000001,,0x31,0x20
14.984563000000000,,0x05,0x24
14.987536800000001,,0x80,0x00
14.990510600000000,,0x77,0xF0
15.026693399999999,,0xB0,0x0B
15.029168400000000,,0x00,0x07
15.032142000000000,,0x20,0x0E
15.035115800000000,,0x06,0x28
15.038089800000000,,0x0E,0x0F
15.041063599999999,,0x31,0x20
15.044037400000001,,0x05,0x24
15.047010999999999,,0x80,0x00
15.049984800000001,,0xEF,0xF0
15.086072800000000,,0xB0,0x0B
15.088643400000000,,0x00,0x07
15.091616999999999,,0x20,0x0E
15.094590600000000,,0x8E,0x28
15.097564200000001,,0x0E,0x0F
15.100537800000000,,0x31,0x20
15.103511400000000,,0x05,0x24
15.106484999999999,,0x80,0x00
15.109458800000001,,0x77,0xF0
15.146032999999999,,0xB0,0x0B
15.148120000000000,,0x00,0x07
15.151093800000000,,0x20,0x0E
15.154067599999999,,0x06,0x28
15.157041200000000,,0x0E,0x0F
15.160015000000000,,0x31,0x20
15.162988800000001,,0x05,0x24
15.165962600000000,,0x80,0x00
15.168936400000000,,0xEF,0xF0
15.205390400000001,,0xB0,0x0B
15.207595800000000,,0x00,0x07
15.210569599999999,,0x20,0x0E
15.213543600000000,,0x8E,0x28
15.216517400000001,,0x0E,0x0F
15.219491200000000,,0x31,0x20
15.222465000000000,,0x05,0x24
15.225438799999999,,0x80,0x00
15.228412600000000,,0x77,0xF0
15.264769200000000,,0xB0,0x0B
15.267072799999999,,0x00,0x07
15.270046600000001,,0x20,0x0E
15.273020400000000,,0x06,0x28
15.275994400000000,,0x0E,0x0F
15.278968200000000,,0x31,0x20
15.281942000000001,,0x05,0x24
15.284915800000000,,0x80,0x00
15.287889800000000,,0xEF,0xF0
15.323932800000000,,0xB0,0x0B
15.326550400000000,,0x00,0x07
15.329524200000000,,0x20,0x0E
15.332497999999999,,0x8E,0x28
15.335471800000001,,0x0E,0x0F
15.338445600000000,,0x31,0x20
15.341419600000000,,0x06,0x24
15.344393600000000,,0x80,0x00
15.347367400000000,,0x78,0xF0
15.383878200000000,,0xB0,0x0B
15.386026599999999,,0x00,0x07
15.389000400000000,,0x20,0x0E
15.391974400000001,,0x06,0x28
15.394948200000000,,0x0E,0x0F
15.397921999999999,,0x31,0x20
15.400895800000001,,0x06,0x24
15.403869800000001,,0x80,0x00
15.406843400000000,,0xF0,0xF0
15.443272199999999,,0xB0,0x0B
15.445502400000001,,0x00,0x07
15.448476200000000,,0x20,0x0E
15.451449999999999,,0x8E,0x28
15.454423600000000,,0x0E,0x0F
15.457397400000000,,0x31,0x20
15.460371200000001,,0x06,0x24
15.463345199999999,,0x80,0x00
15.466319000000000,,0x78,0xF0
15.502666200000000,,0xB0,0x0B
15.504978200000000,,0x00,0x07
15.507952000000000,,0x20,0x0E
15.510925800000001,,0x06,0x28
15.513899400000000,,0x0E,0x0F
15.516873199999999,,0x31,0x20
15.519847000000000,,0x06,0x24
15.522820800000000,,0x80,0x00
15.525794599999999,,0xF0,0xF0
15.562042999999999,,0xB0,0x0B
15.564455600000001,,0x00,0x07
15.567429600000001,,0x20,0x0E
15.570403600000001,,0x8E,0x28
15.573377600000001,,0x0E,0x0F
15.576351400000000,,0x31,0x20
15.579325400000000,,0x06,0x24
15.582299200000000,,0x80,0x00
15.585273200000000,,0x78,0xF0
15.621445599999999,,0xB0,0x0B
15.623933400000000,,0x00,0x07
15.626907200000000,,0x20,0x0E
15.629880999999999,,0x06,0x28
15.632854800000000,,0x0E,0x0F
15.635828399999999,,0x31,0x20
15.638802000000000,,0x06,0x24
15.641775800000000,,0x80,0x00
15.644749600000001,,0xF0,0xF0
15.680821600000000,,0xB0,0x0B
15.683408000000000,,0x00,0x07
15.686381600000001,,0x20,0x0E
15.689355400000000,,0x8E,0x28
15.692329200000000,,0x0E,0x0F
15.695302800000000,,0x31,0x20
15.698276600000000,,0x06,0x24
15.701250399999999,,0x80,0x00
15.704224200000001,,0x78,0xF0
15.740784600000000,,0xB0,0x0B
15.742883800000000,,0x00,0x07
15.745857600000001,,0x20,0x0E
15.748831400000000,,0x06,0x28
15.751805200000000,,0x0E,0x0F
15.754778800000000,,0x31,0x20
15.757752399999999,,0x06,0x24
15.760726399999999,,0x80,0x00
15.763700200000001,,0xF0,0xF0
15.800142599999999,,0xB0,0x0B
15.802360200000001,,0x00,0x07
15.805333800000000,,0x20,0x0E
15.808307599999999,,0x8E,0x28
15.811281200000000,,0x0E,0x0F
15.814254800000001,,0x31,0x20
15.817228399999999,,0x06,0x24
15.820202200000001,,0x80,0x00
15.823176000000000,,0x78,0xF0
15.859521400000000,,0xB0,0x0B
15.861835800000000,,0x00,0x07
15.864809800000000,,0x20,0x0E
15.867783599999999,,0x06,0x28
15.870757400000000,,0x0E,0x0F
15.873731400000000,,0x31,0x20
15.876705200000000,,0x06,0x24
15.879678999999999,,0x80,0x00
15.882652800000001,,0xF0,0xF0
15.918917600000000,,0xB0,0x0B
15.921312199999999,,0x00,0x07
15.924286199999999,,0x20,0x0E
15.927260000000000,,0x8E,0x28
15.930233800000000,,0x0E,0x0F
15.933207800000000,,0x31,0x20
15.936181400000001,,0x06,0x24
15.939155200000000,,0x80,0x00
15.942129000000000,,0x78,0xF0
15.978294000000000,,0xB0,0x0B
15.980788199999999,,0x00,0x07
15.983762199999999,,0x20,0x0E
15.986736000000001,,0x06,0x28
15.989709800000000,,0x0E,0x0F
15.992683800000000,,0x31,0x20
15.995657400000001,,0x06,0x24
15.998631200000000,,0x80,0x00
16.001605000000001,,0xF0,0xF0
16.037685600000000,,0xB0,0x0B
16.040263800000002,,0x00,0x07
16.043237600000001,,0x20,0x0E
16.046211400000001,,0x8E,0x28
16.049185200000000,,0x0E,0x0F
16.052158800000001,,0x31,0x20
16.055132600000000,,0x06,0x24
16.058106400000000,,0x80,0x00
16.061080199999999,,0x78,0xF0
16.097646800000000,,0xB0,0x0B
16.099741999999999,,0x00,0x07
16.102715799999999,,0x20,0x0E
16.105689600000002,,0x06,0x28
16.108663199999999,,0x0E,0x0F
16.111637200000001,,0x31,0x20
16.114610800000001,,0x06,0x24
16.117584600000001,,0x80,0x00
16.120558599999999,,0xF0,0xF0
16.156988399999999,,0xB0,0x0B
16.159218599999999,,0x00,0x07
16.162192399999999,,0x20,0x0E
16.165166200000002,,0x8E,0x28
16.168140000000001,,0x0E,0x0F
16.171113800000001,,0x31,0x20
16.174087600000000,,0x06,0x24
16.177061399999999,,0x80,0x00
16.180035199999999,,0x78,0xF0
16.216383400000002,,0xB0,0x0B
16.218695400000001,,0x00,0x07
16.221669400000000,,0x20,0x0E
16.224643199999999,,0x06,0x28
16.227616999999999,,0x0E,0x0F
16.230591000000000,,0x31,0x20
16.233564800000000,,0x06,0x24
16.236538599999999,,0x80,0x00
16.239512600000001,,0xF0,0xF0
16.275759399999998,,0xB0,0x0B
16.278172000000001,,0x00,0x07
16.281145800000001,,0x20,0x0E
16.284119600000000,,0x8E,0x28
16.287093400000000,,0x0E,0x0F
16.290067400000002,,0x31,0x20
16.293041200000001,,0x06,0x24
16.296015000000001,,0x80,0x00
16.298988800000000,,0x78,0xF0
16.335485200000001,,0xB0,0x0B
16.337647199999999,,0x00,0x07
16.340620999999999,,0x20,0x0E
16.343594800000002,,0x06,0x28
16.346568399999999,,0x0E,0x0F
16.349542199999998,,0x31,0x20
16.352516000000001,,0x07,0x24
16.355489800000001,,0x80,0x00
16.358463600000000,,0xF1,0xF0
16.394881399999999,,0xB0,0x0B
16.397123199999999,,0x00,0x07
16.400097200000001,,0x20,0x0E
16.403071000000001,,0x8E,0x28
16.406044800000000,,0x0E,0x0F
16.409018400000001,,0x31,0x20
16.411992200000000,,0x07,0x24
16.414966000000000,,0x80,0x00
16.417939799999999,,0x79,0xF0
16.454260000000001,,0xB0,0x0B
16.456600000000002,,0x00,0x07
16.459573800000001,,0x20,0x0E
16.462547600000001,,0x06,0x28
16.465521599999999,,0x0E,0x0F
16.468495399999998,,0x31,0x20
16.471469200000001,,0x07,0x24
16.474443000000001,,0x80,0x00
16.477416800000000,,0xF1,0xF0
16.513656000000001,,0xB0,0x0B
16.516076200000001,,0x00,0x07
16.519050000000000,,0x20,0x0E
16.522023799999999,,0x8E,0x28
16.524997599999999,,0x0E,0x0F
16.527971399999998,,0x31,0x20
16.530944999999999,,0x07,0x24
16.533918799999999,,0x80,0x00
16.536892600000002,,0x79,0xF0
16.573032800000000,,0xB0,0x0B
16.575552200000001,,0x00,0x07
16.578526000000000,,0x20,0x0E
16.581499800000000,,0x06,0x28
16.584473599999999,,0x0E,0x0F
16.587447399999999,,0x31,0x20
16.590421200000002,,0x07,0x24
16.593395000000001,,0x80,0x00
16.596368800000000,,0xF1,0xF0
16.632434600000000,,0xB0,0x0B
16.635027600000001,,0x00,0x07
16.638001599999999,,0x20,0x0E
16.640975399999999,,0x8E,0x28
16.643949200000002,,0x0E,0x0F
16.646923000000001,,0x31,0x20
16.649896800000000,,0x07,0x24
16.652870400000001,,0x80,0x00
16.655844200000001,,0x79,0xF0
16.692396200000001,,0xB0,0x0B
16.694504800000001,,0x00,0x07
16.697478600000000,,0x20,0x0E
16.700452599999998,,0x06,0x28
16.703426199999999,,0x0E,0x0F
16.706399999999999,,0x31,0x20
16.709373800000002,,0x07,0x24
16.712347800000000,,0x80,0x00
16.715321599999999,,0xF1,0xF0
16.751775599999998,,0xB0,0x0B
16.753980800000001,,0x00,0x07
16.756954400000001,,0x20,0x0E
16.759928200000001,,0x8E,0x28
16.762901800000002,,0x0E,0x0F
16.765875600000001,,0x31,0x20
16.768849199999998,,0x07,0x24
16.771823200000000,,0x80,0x00
16.774797000000000,,0x79,0xF0
16.811168400000000,,0xB0,0x0B
16.813455800000000,,0x00,0x07
16.816429599999999,,0x20,0x0E
16.819403200000000,,0x06,0x28
16.822376999999999,,0x0E,0x0F
16.825350799999999,,0x31,0x20
16.828324400000000,,0x07,0x24
16.831298199999999,,0x80,0x00
16.834271999999999,,0xF1,0xF0
16.870543800000000,,0xB0,0x0B
16.872931000000001,,0x00,0x07
16.875904999999999,,0x20,0x0E
16.878878799999999,,0x8E,0x28
16.881852599999998,,0x0E,0x0F
16.884826400000001,,0x31,0x20
16.887800200000001,,0x07,0x24
16.890774000000000,,0x80,0x00
16.893747600000001,,0x79,0xF0
16.929938199999999,,0xB0,0x0B
16.932407600000001,,0x00,0x07
16.935381599999999,,0x20,0x0E
16.938355399999999,,0x06,0x28
16.941329400000001,,0x0E,0x0F
16.944303399999999,,0x31,0x20
16.947277199999998,,0x07,0x24
16.950251000000002,,0x80,0x00
16.953224800000001,,0xF1,0xF0
16.989330400000000,,0xB0,0x0B
16.991883000000001,,0x00,0x07
16.994856800000001,,0x20,0x0E
16.997830600000000,,0x8E,0x28
17.000804400000000,,0x0E,0x0F
17.003778199999999,,0x31,0x20
17.006751800000000,,0x07,0x24
17.009725599999999,,0x80,0x00
17.012699600000001,,0x79,0xF0
17.049273199999998,,0xB0,0x0B
17.051360400000000,,0x00,0x07
17.054334399999998,,0x20,0x0E
17.057308200000001,,0x06,0x28
17.060282200000000,,0x0E,0x0F
17.063255999999999,,0x31,0x20
17.066229799999999,,0x07,0x24
17.069203600000002,,0x80,0x00
17.072177400000001,,0xF1,0xF0
17.108631800000001,,0xB0,0x0B
17.110837199999999,,0x00,0x07
17.113810999999998,,0x20,0x0E
17.116785000000000,,0x8E,0x28
17.119758800000000,,0x0E,0x0F
17.122732599999999,,0x31,0x20
17.125706399999999,,0x07,0x24
17.128680200000002,,0x80,0x00
17.131654200000000,,0x79,0xF0
17.168010200000001,,0xB0,0x0B
17.170314200000000,,0x00,0x07
17.173288199999998,,0x20,0x0E
17.176262000000001,,0x06,0x28
17.179235800000001,,0x0E,0x0F
17.182209799999999,,0x31,0x20
17.185183400000000,,0x07,0x24
17.188157400000001,,0x80,0x00
17.191131200000001,,0xF1,0xF0
17.227405800000000,,0xB0,0x0B
17.229791599999999,,0x00,0x07
17.232765400000002,,0x20,0x0E
17.235739200000001,,0x8E,0x28
17.238713000000001,,0x0E,0x0F
17.241686800000000,,0x31,0x20
17.244660600000000,,0x07,0x24
17.247634399999999,,0x80,0x00
17.250608400000001,,0x79,0xF0
17.286813400000000,,0xB0,0x0B
17.289269399999998,,0x00,0x07
17.292243400000000,,0x20,0x0E
17.295217399999999,,0x06,0x28
17.298191200000002,,0x0E,0x0F
17.301165200000000,,0x31,0x20
17.304139200000002,,0x07,0x24
17.307113000000001,,0x80,0x00
17.310086800000001,,0xF1,0xF0
17.346519199999999,,0xB0,0x0B
17.348747400000001,,0x00,0x07
17.351721399999999,,0x20,0x0E
17.354695199999998,,0x8E,0x28
17.357669000000001,,0x0E,0x0F
17.360643000000000,,0x31,0x20
17.363616799999999,,0x08,0x24
17.366590599999999,,0x80,0x00
17.369564400000002,,0x7A,0xF0
17.405913999999999,,0xB0,0x0B
17.408224400000002,,0x00,0x07
17.411197999999999,,0x20,0x0E
17.414172000000001,,0x06,0x28
17.417145800000000,,0x0E,0x0F
17.420119600000000,,0x31,0x20
17.423093600000001,,0x08,0x24
17.426067400000001,,0x80,0x00
17.429041399999999,,0xF2,0xF0
17.465292600000001,,0xB0,0x0B
17.467701200000000,,0x00,0x07
17.470675000000000,,0x20,0x0E
17.473648799999999,,0x8E,0x28
17.476622400000000,,0x0E,0x0F
17.479596200000000,,0x31,0x20
17.482569999999999,,0x08,0x24
17.485544000000001,,0x80,0x00
17.488517800000000,,0x7A,0xF0
17.524688999999999,,0xB0,0x0B
17.527177399999999,,0x00,0x07
17.530151199999999,,0x20,0x0E
17.533125200000001,,0x06,0x28
17.536099000000000,,0x0E,0x0F
17.539072999999998,,0x31,0x20
17.542046800000001,,0x08,0x24
17.545020600000001,,0x80,0x00
17.547994599999999,,0xF2,0xF0
17.584089400000000,,0xB0,0x0B
17.586653999999999,,0x00,0x07
17.589627799999999,,0x20,0x0E
17.592601400000000,,0x8E,0x28
17.595575199999999,,0x0E,0x0F
17.598548800000000,,0x31,0x20
17.601522599999999,,0x08,0x24
17.604496399999999,,0x80,0x00
17.607469999999999,,0x7A,0xF0
17.644032599999999,,0xB0,0x0B
17.646131600000000,,0x00,0x07
17.649105400000000,,0x20,0x0E
17.652079199999999,,0x06,0x28
17.655052800000000,,0x0E,0x0F
17.658026400000001,,0x31,0x20
17.661000200000000,,0x08,0x24
17.663974000000000,,0x80,0x00
17.666947600000000,,0xF2,0xF0
17.703388000000000,,0xB0,0x0B
17.705605599999998,,0x00,0x07
17.708579400000001,,0x20,0x0E
17.711553200000001,,0x8E,0x28
17.714526800000002,,0x0E,0x0F
17.717500600000001,,0x31,0x20
17.720474599999999,,0x08,0x24
17.723448600000001,,0x80,0x00
17.726422400000001,,0x7A,0xF0
17.762766800000001,,0xB0,0x0B
17.765081599999998,,0x00,0x07
17.768055400000001,,0x20,0x0E
17.771029400000000,,0x06,0x28
17.774003199999999,,0x0E,0x0F
17.776976800000000,,0x31,0x20
17.779950599999999,,0x08,0x24
17.782924399999999,,0x80,0x00
17.785898000000000,,0xF2,0xF0
17.822158999999999,,0xB0,0x0B
17.824556800000000,,0x00,0x07
17.827530599999999,,0x20,0x0E
17.830504399999999,,0x8E,0x28
17.833478199999998,,0x0E,0x0F
17.836452000000001,,0x31,0x20
17.839425800000001,,0x08,0x24
17.842399600000000,,0x80,0x00
17.845373400000000,,0x7A,0xF0
17.881552400000000,,0xB0,0x0B
17.884032600000001,,0x00,0x07
17.887006199999998,,0x20,0x0E
17.889980000000001,,0x06,0x28
17.892953599999998,,0x0E,0x0F
17.895927199999999,,0x31,0x20
17.898900999999999,,0x08,0x24
17.901874800000002,,0x80,0x00
17.904848399999999,,0xF2,0xF0
17.940928799999998,,0xB0,0x0B
17.943507199999999,,0x00,0x07
17.946480800000000,,0x20,0x0E
17.949454599999999,,0x8E,0x28
17.952428200000000,,0x0E,0x0F
17.955401999999999,,0x31,0x20
17.958375799999999,,0x08,0x24
17.961349599999998,,0x80,0x00
17.964323199999999,,0x7A,0xF0
18.000888799999998,,0xB0,0x0B
18.002984000000001,,0x00,0x07
18.005957800000001,,0x20,0x0E
18.008931799999999,,0x06,0x28
18.011905599999999,,0x0E,0x0F
18.014879400000002,,0x31,0x20
18.017853200000001,,0x08,0x24
18.020827199999999,,0x80,0x00
18.023800999999999,,0xF2,0xF0
18.060233199999999,,0xB0,0x0B
18.062461400000000,,0x00,0x07
18.065435200000000,,0x20,0x0E
18.068408999999999,,0x8E,0x28
18.071382799999999,,0x0E,0x0F
18.074356600000002,,0x31,0x20
18.077330199999999,,0x08,0x24
18.080304200000000,,0x80,0x00
18.083278000000000,,0x7A,0xF0
18.119628599999999,,0xB0,0x0B
18.121939200000000,,0x00,0x07
18.124913200000002,,0x20,0x0E
18.127887200000000,,0x06,0x28
18.130861199999998,,0x0E,0x0F
18.133835200000000,,0x31,0x20
18.136809000000000,,0x08,0x24
18.139783000000001,,0x80,0x00
18.142757000000000,,0xF2,0xF0
18.179024999999999,,0xB0,0x0B
18.181418000000001,,0x00,0x07
18.184391800000000,,0x20,0x0E
18.187365799999998,,0x8E,0x28
18.190339600000001,,0x0E,0x0F
18.193313600000000,,0x31,0x20
18.196287399999999,,0x08,0x24
18.199261400000001,,0x80,0x00
18.202235200000001,,0x7A,0xF0
18.238406800000000,,0xB0,0x0B
18.240894999999998,,0x00,0x07
18.243868599999999,,0x20,0x0E
18.246842399999998,,0x06,0x28
18.249816200000001,,0x0E,0x0F
18.252789799999999,,0x31,0x20
18.255763399999999,,0x08,0x24
18.258737199999999,,0x80,0x00
18.261710799999999,,0xF2,0xF0
18.298127399999998,,0xB0,0x0B
18.300368599999999,,0x00,0x07
18.303342199999999,,0x20,0x0E
18.306315800000000,,0x8E,0x28
18.309289400000001,,0x0E,0x0F
18.312263200000000,,0x31,0x20
18.315236800000001,,0x09,0x24
18.318210600000000,,0x80,0x00
18.321184200000001,,0x7B,0xF0
18.357503399999999,,0xB0,0x0B
18.359842799999999,,0x00,0x07
18.362816400000000,,0x20,0x0E
18.365790000000001,,0x06,0x28
18.368763600000001,,0x0E,0x0F
18.371737400000001,,0x31,0x20
18.374711000000001,,0x09,0x24
18.377684800000001,,0x80,0x00
18.380658600000000,,0xF3,0xF0
18.416895199999999,,0xB0,0x0B
18.419318400000002,,0x00,0x07
18.422292400000000,,0x20,0x0E
18.425266199999999,,0x8E,0x28
18.428239999999999,,0x0E,0x0F
18.431214000000001,,0x31,0x20
18.434187800000000,,0x09,0x24
18.437161600000000,,0x80,0x00
18.440135399999999,,0x7B,0xF0
18.476290800000001,,0xB0,0x0B
18.478795000000002,,0x00,0x07
18.481768800000001,,0x20,0x0E
18.484742600000001,,0x06,0x28
18.487716400000000,,0x0E,0x0F
18.490690200000000,,0x31,0x20
18.493663999999999,,0x09,0x24
18.496637799999998,,0x80,0x00
18.499611600000001,,0xF3,0xF0
18.535670000000000,,0xB0,0x0B
18.538270799999999,,0x00,0x07
18.541244599999999,,0x20,0x0E
18.544218399999998,,0x8E,0x28
18.547191999999999,,0x0E,0x0F
18.550165799999998,,0x31,0x20
18.553139600000002,,0x09,0x24
18.556113199999999,,0x80,0x00
18.559087000000002,,0x7B,0xF0
18.595637000000000,,0xB0,0x0B
18.597749600000000,,0x00,0x07
18.600723599999998,,0x20,0x0E
18.603697400000001,,0x06,0x28
18.606670999999999,,0x0E,0x0F
18.609644800000002,,0x31,0x20
18.612618399999999,,0x09,0x24
18.615592199999998,,0x80,0x00
18.618566000000001,,0xF3,0xF0
18.655017399999998,,0xB0,0x0B
18.657225799999999,,0x00,0x07
18.660199800000001,,0x20,0x0E
18.663173600000000,,0x8E,0x28
18.666147400000000,,0x0E,0x0F
18.669121199999999,,0x31,0x20
18.672094999999999,,0x09,0x24
18.675068799999998,,0x80,0x00
18.678042399999999,,0x7B,0xF0
18.714410000000001,,0xB0,0x0B
18.716700400000001,,0x00,0x07
18.719674000000001,,0x20,0x0E
18.722647800000001,,0x06,0x28
18.725621400000001,,0x0E,0x0F
18.728594999999999,,0x31,0x20
18.731568599999999,,0x09,0x24
18.734542200000000,,0x80,0x00
18.737515800000001,,0xF3,0xF0
18.773803200000000,,0xB0,0x0B
18.776174399999999,,0x00,0x07
18.779148200000002,,0x20,0x0E
18.782121799999999,,0x8E,0x28
18.785095399999999,,0x0E,0x0F
18.788069199999999,,0x31,0x20
18.791042800000000,,0x09,0x24
18.794016599999999,,0x80,0x00
18.796990399999999,,0x7B,0xF0
18.833182799999999,,0xB0,0x0B
18.835648599999999,,0x00,0x07
18.838622200000000,,0x20,0x0E
18.841595999999999,,0x06,0x28
18.844569799999999,,0x0E,0x0F
18.847543600000002,,0x31,0x20
18.850517600000000,,0x09,0x24
18.853491399999999,,0x80,0x00
18.856465199999999,,0xF3,0xF0
18.892576600000002,,0xB0,0x0B
18.895125400000001,,0x00,0x07
18.898099400000000,,0x20,0x0E
18.901073400000001,,0x8E,0x28
18.904047200000001,,0x0E,0x0F
18.907021000000000,,0x31,0x20
18.909994999999999,,0x09,0x24
18.912969000000000,,0x80,0x00
18.915942800000000,,0x7B,0xF0
18.952524400000001,,0xB0,0x0B
18.954603599999999,,0x00,0x07
18.957577400000002,,0x20,0x0E
18.960551400000000,,0x06,0x28
18.963525199999999,,0x0E,0x0F
18.966498999999999,,0x31,0x20
18.969472799999998,,0x09,0x24
18.972446800000000,,0x80,0x00
18.975420600000000,,0xF3,0xF0
19.011881400000000,,0xB0,0x0B
19.014080000000000,,0x00,0x07
19.017053600000001,,0x20,0x0E
19.020027599999999,,0x8E,0x28
19.023001399999998,,0x0E,0x0F
19.025975200000001,,0x31,0x20
19.028949200000000,,0x09,0x24
19.031923200000001,,0x80,0x00
19.034897000000001,,0x7B,0xF0
19.071276999999998,,0xB0,0x0B
19.073556400000001,,0x00,0x07
19.076530200000001,,0x20,0x0E
19.079504199999999,,0x06,0x28
19.082477999999998,,0x0E,0x0F
19.085452000000000,,0x31,0x20
19.088425800000000,,0x09,0x24
19.091399800000001,,0x80,0x00
19.094373800000000,,0xF3,0xF0
19.130659600000001,,0xB0,0x0B
19.133035400000001,,0x00,0x07
19.136009399999999,,0x20,0x0E
19.138983199999998,,0x8E,0x28
19.141957200000000,,0x0E,0x0F
19.144931199999998,,0x31,0x20
19.147905000000002,,0x09,0x24
19.150879000000000,,0x80,0x00
19.153852799999999,,0x7B,0xF0
19.190055399999999,,0xB0,0x0B
19.192513600000002,,0x00,0x07
19.195487600000000,,0x20,0x0E
19.198461399999999,,0x06,0x28
19.201435400000001,,0x0E,0x0F
19.204409200000001,,0x31,0x20
19.207383000000000,,0x09,0x24
19.210356800000000,,0x80,0x00
19.213330599999999,,0xF3,0xF0
19.249431999999999,,0xB0,0x0B
19.251990200000002,,0x00,0x07
19.254964000000001,,0x20,0x0E
19.257937800000001,,0x8E,0x28
19.260911600000000,,0x0E,0x0F
19.263885399999999,,0x31,0x20
19.266859199999999,,0x09,0x24
19.269832999999998,,0x80,0x00
19.272806800000001,,0x7B,0xF0
19.309161799999998,,0xB0,0x0B
19.311467400000002,,0x00,0x07
19.314441400000000,,0x20,0x0E
19.317415400000002,,0x06,0x28
19.320389400000000,,0x0E,0x0F
19.323363400000002,,0x31,0x20
19.326337200000001,,0x0A,0x24
19.329311199999999,,0x80,0x00
19.332284999999999,,0xF4,0xF0
19.368557800000001,,0xB0,0x0B
19.370944999999999,,0x00,0x07
19.373918799999998,,0x20,0x0E
19.376892600000001,,0x8E,0x28
19.379866400000001,,0x0E,0x0F
19.382840200000000,,0x31,0x20
19.385814000000000,,0x0A,0x24
19.388788000000002,,0x80,0x00
19.391761599999999,,0x7C,0xF0
19.427937199999999,,0xB0,0x0B
19.430420399999999,,0x00,0x07
19.433394199999999,,0x20,0x0E
19.436367799999999,,0x06,0x28
19.439341599999999,,0x0E,0x0F
19.442315399999998,,0x31,0x20
19.445288999999999,,0x0A,0x24
19.448262799999998,,0x80,0x00
19.451236800000000,,0xF4,0xF0
19.487332599999998,,0xB0,0x0B
19.489895799999999,,0x00,0x07
19.492869599999999,,0x20,0x0E
19.495843199999999,,0x8E,0x28
19.498816999999999,,0x0E,0x0F
19.501790799999998,,0x31,0x20
19.504764399999999,,0x0A,0x24
19.507738199999999,,0x80,0x00
19.510711799999999,,0x7C,0xF0
19.547276799999999,,0xB0,0x0B
19.549372000000002,,0x00,0x07
19.552345800000001,,0x20,0x0E
19.555319600000001,,0x06,0x28
19.558293200000001,,0x0E,0x0F
19.561267000000001,,0x31,0x20
19.564240600000002,,0x0A,0x24
19.567214600000000,,0x80,0x00
19.570188399999999,,0xF4,0xF0
19.606641199999999,,0xB0,0x0B
19.608847000000001,,0x00,0x07
19.611820800000000,,0x20,0x0E
19.614794600000000,,0x8E,0x28
19.617768200000000,,0x0E,0x0F
19.620742000000000,,0x31,0x20
19.623715600000001,,0x0A,0x24
19.626689400000000,,0x80,0x00
19.629663000000001,,0x7C,0xF0
19.666035800000000,,0xB0,0x0B
19.668323399999998,,0x00,0x07
19.671297400000000,,0x20,0x0E
19.674271200000000,,0x06,0x28
19.677244999999999,,0x0E,0x0F
19.680218799999999,,0x31,0x20
19.683192600000002,,0x0A,0x24
19.686166400000001,,0x80,0x00
19.689140200000001,,0xF4,0xF0
19.725413000000000,,0xB0,0x0B
19.727799600000001,,0x00,0x07
19.730773599999999,,0x20,0x0E
19.733747399999999,,0x8E,0x28
19.736721200000002,,0x0E,0x0F
19.739695000000001,,0x31,0x20
19.742668800000001,,0x0A,0x24
19.745642600000000,,0x80,0x00
19.748616400000000,,0x7C,0xF0
19.784808600000002,,0xB0,0x0B
19.787275999999999,,0x00,0x07
19.790249800000002,,0x20,0x0E
19.793223600000001,,0x06,0x28
19.796197400000000,,0x0E,0x0F
19.799171200000000,,0x31,0x20
19.802145199999998,,0x0A,0x24
19.805119000000001,,0x80,0x00
19.808092599999998,,0xF4,0xF0
19.844185000000000,,0xB0,0x0B
19.846751600000001,,0x00,0x07
19.849725400000001,,0x20,0x0E
19.852699200000000,,0x8E,0x28
19.855672999999999,,0x0E,0x0F
19.858646600000000,,0x31,0x20
19.861620400000000,,0x0A,0x24
19.864594400000001,,0x80,0x00
19.867568200000001,,0x7C,0xF0
19.904147800000001,,0xB0,0x0B
19.906226799999999,,0x00,0x07
19.909200599999998,,0x20,0x0E
19.912174400000001,,0x06,0x28
19.915148200000001,,0x0E,0x0F
19.918121800000002,,0x31,0x20
19.921095600000001,,0x0A,0x24
19.924069599999999,,0x80,0x00
19.927043200000000,,0xF4,0xF0
19.963502999999999,,0xB0,0x0B
19.965703000000001,,0x00,0x07
19.968676599999998,,0x20,0x0E
19.971650600000000,,0x8E,0x28
19.974624400000000,,0x0E,0x0F
19.977598199999999,,0x31,0x24
19.980571999999999,,0x0A,0x24
19.983545800000002,,0x80,0x00
19.986519600000001,,0x7C,0xF4
20.022880600000001,,0xB0,0x0B
20.025178400000001,,0x00,0x07
20.028152200000001,,0x20,0x0E
20.031125800000002,,0x06,0x28
20.034099600000001,,0x0E,0x0F
20.037073400000001,,0x31,0x24
20.040047000000001,,0x0A,0x24
20.043021000000000,,0x80,0x00
20.045994600000000,,0xF4,0xF4
20.082271400000000,,0xB0,0x0B
20.084652999999999,,0x00,0x07
20.087626600000000,,0x20,0x0E
20.090600400000000,,0x8E,0x28
20.093574000000000,,0x0E,0x0F
20.096547600000001,,0x31,0x24
20.099521200000002,,0x0A,0x24
20.102495000000001,,0x80,0x00
20.105468599999998,,0x7C,0xF4
20.141645799999999,,0xB0,0x0B
20.144127600000001,,0x00,0x07
20.147101400000000,,0x20,0x0E
20.150075200000000,,0x06,0x28
20.153048999999999,,0x0E,0x0F
20.156022799999999,,0x31,0x24
20.158996399999999,,0x0A,0x24
20.161970199999999,,0x80,0x00
20.164943999999998,,0xF4,0xF4
20.201035800000000,,0xB0,0x0B
20.203602400000001,,0x00,0x07
20.206575999999998,,0x20,0x0E
20.209549599999999,,0x8E,0x28
20.212523200000000,,0x0E,0x0F
20.215496800000000,,0x31,0x24
20.218470600000000,,0x0A,0x24
20.221444399999999,,0x80,0x00
20.224418000000000,,0x7C,0xF4
20.261011400000001,,0xB0,0x0B
20.263076999999999,,0x00,0x07
20.266050600000000,,0x20,0x0E
20.269024399999999,,0x06,0x28
20.271998000000000,,0x0E,0x0F
20.274971600000001,,0x31,0x24
20.277945400000000,,0x0A,0x24
20.280919399999998,,0x80,0x00
20.283892999999999,,0xF4,0xF4
20.320104799999999,,0xB0,0x0B
20.322552800000000,,0x00,0x07
20.325526600000000,,0x20,0x0E
20.328500399999999,,0x8E,0x28
20.331474400000001,,0x0E,0x0F
20.334448200000001,,0x31,0x24
20.337422199999999,,0x0B,0x24
20.340395999999998,,0x80,0x00
20.343370000000000,,0x7D,0xF4
20.379499800000001,,0xB0,0x0B
20.382029400000000,,0x00,0x07
20.385003200000000,,0x20,0x0E
20.387976800000001,,0x06,0x28
20.390950600000000,,0x0E,0x0F
20.393924400000000,,0x31,0x24
20.396898199999999,,0x0B,0x24
20.399871999999998,,0x80,0x00
20.402845800000001,,0xF5,0xF4
20.438877600000001,,0xB0,0x0B
20.441504999999999,,0x00,0x07
20.444478799999999,,0x20,0x0E
20.447452599999998,,0x8E,0x28
20.450426400000001,,0x0E,0x0F
20.453400400000000,,0x31,0x24
20.456374199999999,,0x0B,0x24
20.459347999999999,,0x80,0x00
20.462321800000002,,0x7D,0xF4
20.498841599999999,,0xB0,0x0B
20.500981199999998,,0x00,0x07
20.503955200000000,,0x20,0x0F
20.506929000000000,,0x06,0x28
20.509902799999999,,0x0E,0x0F
20.512876599999998,,0x31,0x24
20.515850400000001,,0x0B,0x24
20.518824200000001,,0x80,0x00
20.521798000000000,,0xF5,0xF5
20.558244200000001,,0xB0,0x0B
20.560458000000001,,0x00,0x07
20.563431999999999,,0x20,0x0F
20.566406000000001,,0x8E,0x28
20.569379800000000,,0x0E,0x0F
20.572353600000000,,0x31,0x24
20.575327399999999,,0x0B,0x24
20.578301199999999,,0x80,0x00
20.581275000000002,,0x7D,0xF5
20.617622600000001,,0xB0,0x0B
20.619934600000001,,0x00,0x07
20.622908400000000,,0x20,0x0F
20.625882200000000,,0x06,0x28
20.628855999999999,,0x0E,0x0F
20.631829799999998,,0x31,0x24
20.634803600000001,,0x0B,0x24
20.637777600000000,,0x80,0x00
20.640751399999999,,0xF5,0xF5
20.677017200000002,,0xB0,0x0B
20.679411800000000,,0x00,0x07
20.682385799999999,,0x20,0x0F
20.685359800000001,,0x8E,0x28
20.688333400000001,,0x0E,0x0F
20.691307399999999,,0x31,0x24
20.694281199999999,,0x0B,0x24
20.697255200000001,,0x80,0x00
20.700229000000000,,0x7D,0xF5
20.736396200000001,,0xB0,0x0B
20.738890600000001,,0x00,0x07
20.741864600000000,,0x20,0x0F
20.744838399999999,,0x06,0x28
20.747812400000001,,0x0E,0x0F
20.750786399999999,,0x31,0x24
20.753760000000000,,0x0B,0x24
20.756733799999999,,0x80,0x00
20.759707800000001,,0xF5,0xF5
20.795789800000001,,0xB0,0x0B
20.798367800000001,,0x00,0x07
20.801341600000001,,0x20,0x0F
20.804315599999999,,0x8E,0x28
20.807289399999998,,0x0E,0x0F
20.810263400000000,,0x31,0x24
20.813237200000000,,0x0B,0x24
20.816211200000001,,0x80,0x00
20.819185200000000,,0x7D,0xF5
20.855751399999999,,0xB0,0x0B
20.857846599999998,,0x00,0x07
20.860820600000000,,0x20,0x0F
20.863794400000000,,0x06,0x28
20.866768199999999,,0x0E,0x0F
20.869742200000001,,0x31,0x24
20.872716000000000,,0x0B,0x24
20.875689800000000,,0x80,0x00
20.878663599999999,,0xF5,0xF5
20.915093599999999,,0xB0,0x0B
20.917323799999998,,0x00,0x07
20.920297600000001,,0x20,0x0F
20.923271400000001,,0x8E,0x28
20.926245200000000,,0x0E,0x0F
20.929219199999999,,0x31,0x24
20.932193000000002,,0x0B,0x24
20.935166800000001,,0x80,0x00
20.938140600000001,,0x7D,0xF5
20.974488000000001,,0xB0,0x0B
20.976800000000001,,0x00,0x07
20.979773800000000,,0x20,0x0F
20.982747400000001,,0x06,0x28
20.985721200000000,,0x0E,0x0F
20.988694800000001,,0x31,0x24
20.991668399999998,,0x0B,0x24
20.994642200000001,,0x80,0x00
20.997616000000001,,0xF5,0xF5
21.033862200000002,,0xB0,0x0B
21.036274800000001,,0x00,0x07
21.039248600000001,,0x20,0x0F
21.042222400000000,,0x8E,0x28
21.045196199999999,,0x0E,0x0F
21.048169999999999,,0x31,0x24
21.051143799999998,,0x0B,0x24
21.054117600000001,,0x80,0x00
21.057091199999999,,0x7D,0xF5
21.093255400000000,,0xB0,0x0B
21.095749800000000,,0x00,0x07
21.098723600000000,,0x20,0x0F
21.101697600000001,,0x06,0x28
21.104671600000000,,0x0E,0x0F
21.107645399999999,,0x31,0x24
21.110619400000001,,0x0B,0x24
21.113593200000000,,0x80,0x00
21.116567199999999,,0xF5,0xF5
21.152651800000001,,0xB0,0x0B
21.155227000000000,,0x00,0x07
21.158200799999999,,0x20,0x0F
21.161174599999999,,0x8E,0x28
21.164148399999998,,0x0E,0x0F
21.167122200000001,,0x31,0x24
21.170096000000001,,0x0B,0x24
21.173069800000000,,0x80,0x00
21.176043600000000,,0x7D,0xF5
21.212597200000001,,0xB0,0x0B
21.214706000000000,,0x00,0x07
21.217679799999999,,0x20,0x0F
21.220653800000001,,0x06,0x28
21.223627799999999,,0x0E,0x0F
21.226601800000001,,0x31,0x24
21.229575799999999,,0x0B,0x24
21.232549599999999,,0x80,0x00
21.235523799999999,,0xF5,0xF5
21.271760199999999,,0xB0,0x0B
21.274185800000001,,0x00,0x07
21.277159800000000,,0x20,0x0F
21.280133800000002,,0x8E,0x28
21.283107600000001,,0x0E,0x0F
21.286081599999999,,0x31,0x24
21.289055399999999,,0x0C,0x24
21.292029400000001,,0x80,0x00
21.295003600000001,,0x7E,0xF5
21.331140000000001,,0xB0,0x0B
21.333665400000001,,0x00,0x07
21.336639399999999,,0x20,0x0F
21.339613400000001,,0x06,0x28
21.342587399999999,,0x0E,0x0F
21.345561400000001,,0x31,0x24
21.348535200000001,,0x0C,0x24
21.351509199999999,,0x80,0x00
21.354483200000001,,0xF6,0xF5
21.390538599999999,,0xB0,0x0B
21.393144199999998,,0x00,0x07
21.396118200000000,,0x20,0x0F
21.399092199999998,,0x8E,0x28
21.402066000000001,,0x0E,0x0F
21.405040000000000,,0x31,0x24
21.408014000000001,,0x0C,0x24
21.410988000000000,,0x80,0x00
21.413961799999999,,0x7E,0xF5
21.450500399999999,,0xB0,0x0B
21.452621000000001,,0x00,0x07
21.455594800000000,,0x20,0x0F
21.458568600000000,,0x06,0x28
21.461542399999999,,0x0E,0x0F
21.464516199999998,,0x31,0x20
21.467490000000002,,0x0C,0x24
21.470463800000001,,0x80,0x00
21.473437600000000,,0xF6,0xF1
21.509876999999999,,0xB0,0x0B
21.512096400000001,,0x00,0x07
21.515070200000000,,0x20,0x0F
21.518044000000000,,0x8E,0x28
21.521017799999999,,0x0E,0x0F
21.523991800000001,,0x31,0x20
21.526965600000000,,0x0C,0x24
21.529939599999999,,0x80,0x00
21.532913400000002,,0x7E,0xF1
21.569278199999999,,0xB0,0x0B
21.571573600000001,,0x00,0x07
21.574547599999999,,0x20,0x0F
21.577521200000000,,0x06,0x28
21.580494999999999,,0x0E,0x0F
21.583469000000001,,0x31,0x20
21.586442800000000,,0x0C,0x24
21.589416600000000,,0x80,0x00
21.592390600000002,,0xF6,0xF1
21.628658399999999,,0xB0,0x0B
21.631050200000001,,0x00,0x07
21.634024000000000,,0x20,0x0F
21.636997800000000,,0x8E,0x28
21.639971800000001,,0x0E,0x0F
21.642945800000000,,0x31,0x20
21.645919599999999,,0x0C,0x24
21.648893600000001,,0x80,0x00
21.651867599999999,,0x7E,0xF1
21.688056799999998,,0xB0,0x0B
21.690529399999999,,0x00,0x07
21.693503400000001,,0x20,0x0F
21.696477200000000,,0x06,0x28
21.699451000000000,,0x0E,0x0F
21.702425000000002,,0x31,0x20
21.705398800000001,,0x0C,0x24
21.708372799999999,,0x80,0x00
21.711346800000001,,0xF6,0xF1
21.747451999999999,,0xB0,0x0B
21.750006599999999,,0x00,0x07
21.752980399999998,,0x20,0x0F
21.755953999999999,,0x8E,0x28
21.758927799999999,,0x0E,0x0F
21.761901600000002,,0x31,0x20
21.764875199999999,,0x0C,0x24
21.767848799999999,,0x80,0x00
21.770822599999999,,0x7E,0xF1
21.807396199999999,,0xB0,0x0B
21.809483400000001,,0x00,0x07
21.812457200000001,,0x20,0x0F
21.815431199999999,,0x06,0x28
21.818404800000000,,0x0E,0x0F
21.821378800000002,,0x31,0x20
21.824352600000001,,0x0C,0x24
21.827326400000000,,0x80,0x00
21.830300000000001,,0xF6,0xF1
21.866754600000000,,0xB0,0x0B
21.868960000000001,,0x00,0x07
21.871933800000001,,0x20,0x0F
21.874907799999999,,0x8E,0x28
21.877881599999998,,0x0E,0x0F
21.880855400000002,,0x31,0x20
21.883829200000001,,0x0C,0x24
21.886803199999999,,0x80,0x00
21.889777200000001,,0x7E,0xF1
21.926134000000001,,0xB0,0x0B
21.928438000000000,,0x00,0x07
21.931412000000002,,0x20,0x0F
21.934385800000001,,0x06,0x28
21.937359600000001,,0x0E,0x0F
21.940333599999999,,0x31,0x20
21.943307600000001,,0x0C,0x24
21.946281599999999,,0x80,0x00
21.949255600000001,,0xF6,0xF1
21.985530600000001,,0xB0,0x0B
21.987916400000000,,0x00,0x07
21.990890199999999,,0x20,0x0F
21.993863999999999,,0x8E,0x28
21.996837800000002,,0x0E,0x0F
21.999811800000000,,0x31,0x20
22.002785599999999,,0x0C,0x24
22.005759200000000,,0x80,0x00
22.008732999999999,,0x7E,0xF1
22.044923000000001,,0xB0,0x0B
22.047392400000000,,0x00,0x07
22.050366199999999,,0x20,0x0F
22.053339999999999,,0x06,0x28
22.056314000000000,,0x0E,0x0F
22.059287800000000,,0x31,0x20
22.062261599999999,,0x0C,0x24
22.065235600000001,,0x80,0x00
22.068209400000001,,0xF6,0xF1
22.104299999999999,,0xB0,0x0B
22.106868599999999,,0x00,0x07
22.109842600000000,,0x20,0x0F
22.112816400000000,,0x8E,0x28
22.115790199999999,,0x0E,0x0F
22.118763999999999,,0x31,0x20
22.121737799999998,,0x0C,0x24
22.124711800000000,,0x80,0x00
22.127685600000000,,0x7E,0xF1
22.164262799999999,,0xB0,0x0B
22.166346000000001,,0x00,0x07
22.169319600000001,,0x20,0x0F
22.172293400000001,,0x06,0x28
22.175267200000000,,0x0E,0x0F
22.178240800000001,,0x31,0x20
22.181214600000001,,0x0C,0x24
22.184188400000000,,0x80,0x00
22.187162000000001,,0xF6,0xF1
22.223601599999999,,0xB0,0x0B
22.225820800000001,,0x00,0x07
22.228794600000001,,0x20,0x0F
22.231768400000000,,0x8E,0x28
22.234742000000001,,0x0E,0x0F
22.237715800000000,,0x31,0x20
22.240689400000001,,0x0C,0x24
22.243663000000002,,0x80,0x00
22.246636599999999,,0x7E,0xF1
22.282762200000001,,0xB0,0x0B
22.285294799999999,,0x00,0x07
22.288268400000000,,0x20,0x0F
22.291242199999999,,0x06,0x28
22.294215999999999,,0x0E,0x0F
22.297189599999999,,0x31,0x20
22.300163200000000,,0x0D,0x24
22.303137000000000,,0x80,0x00
22.306110799999999,,0xF7,0xF1
22.342155800000000,,0xB0,0x0B
22.344769800000002,,0x00,0x07
22.347743600000001,,0x20,0x0F
22.350717400000001,,0x8E,0x28
22.353691200000000,,0x0E,0x0F
22.356665000000000,,0x31,0x20
22.359638600000000,,0x0D,0x24
22.362612400000000,,0x80,0x00
22.365586000000000,,0x7F,0xF1
22.402100200000000,,0xB0,0x0B
22.404243999999998,,0x00,0x07
22.407217599999999,,0x20,0x0F
22.410191399999999,,0x06,0x28
22.413165200000002,,0x0E,0x0F
22.416138799999999,,0x31,0x20
22.419112399999999,,0x0D,0x24
22.422086000000000,,0x80,0x00
22.425059800000000,,0xF7,0xF1
22.461492799999998,,0xB0,0x0B
22.463718199999999,,0x00,0x07
22.466691999999998,,0x20,0x0F
22.469665800000001,,0x8E,0x28
22.472639600000001,,0x0E,0x0F
22.475613400000000,,0x31,0x20
22.478587200000000,,0x0D,0x24
22.481560999999999,,0x80,0x00
22.484534799999999,,0x7F,0xF1
22.520871799999998,,0xB0,0x0B
22.523193599999999,,0x00,0x07
22.526167399999999,,0x20,0x0F
22.529141200000002,,0x06,0x28
22.532115000000001,,0x0E,0x0F
22.535088999999999,,0x31,0x20
22.538062600000000,,0x0D,0x24
22.541036399999999,,0x80,0x00
22.544010199999999,,0xF7,0xF1
22.580271199999999,,0xB0,0x0B
22.582668800000000,,0x00,0x07
22.585642600000000,,0x20,0x0F
22.588616399999999,,0x8E,0x28
22.591590199999999,,0x0E,0x0F
22.594564200000001,,0x31,0x20
22.597538000000000,,0x0D,0x24
22.600511800000000,,0x80,0x00
22.603485599999999,,0x7F,0xF1
22.639665000000001,,0xB0,0x0B
22.642145400000000,,0x00,0x07
22.645119200000000,,0x20,0x0F
22.648092999999999,,0x06,0x28
22.651066799999999,,0x0E,0x0F
22.654040599999998,,0x31,0x20
22.657014199999999,,0x0D,0x24
22.659987999999998,,0x80,0x00
22.662961800000001,,0xF7,0xF1
22.699042800000001,,0xB0,0x0B
22.701621599999999,,0x00,0x07
22.704595600000001,,0x20,0x0F
22.707569400000001,,0x8E,0x28
22.710543200000000,,0x0E,0x0F
22.713517000000000,,0x31,0x20
22.716490600000000,,0x0D,0x24
22.719464400000000,,0x80,0x00
22.722438199999999,,0x7F,0xF1
22.759003600000000,,0xB0,0x0B
22.761098799999999,,0x00,0x07
22.764072599999999,,0x20,0x0F
22.767046400000002,,0x06,0x28
22.770020200000001,,0x0E,0x0F
22.772994000000001,,0x31,0x20
22.775967600000001,,0x0D,0x24
22.778941400000001,,0x80,0x00
22.781915200000000,,0xF7,0xF1
22.818345600000001,,0xB0,0x0B
22.820573799999998,,0x00,0x07
22.823547600000001,,0x20,0x0F
22.826521400000001,,0x8E,0x28
22.829495200000000,,0x0E,0x0F
22.832469000000000,,0x31,0x20
22.835442799999999,,0x0D,0x24
22.838416400000000,,0x80,0x00
22.841390199999999,,0x7F,0xF1
22.877739800000001,,0xB0,0x0B
22.880050399999998,,0x00,0x07
22.883023999999999,,0x20,0x0F
22.885997799999998,,0x06,0x28
22.888971399999999,,0x0E,0x0F
22.891945199999999,,0x31,0x20
22.894918799999999,,0x0D,0x24
22.897892400000000,,0x80,0x00
22.900866199999999,,0xF7,0xF1
22.937132600000002,,0xB0,0x0B
22.939525400000001,,0x00,0x07
22.942499000000002,,0x20,0x0F
22.945472800000001,,0x8E,0x28
22.948446600000000,,0x0E,0x0F
22.951420400000000,,0x31,0x20
22.954394000000001,,0x0D,0x24
22.957367800000000,,0x80,0x00
22.960341600000000,,0x7F,0xF1
22.996512200000002,,0xB0,0x0B
22.999000400000000,,0x00,0x07
23.001974199999999,,0x20,0x0F
23.004947600000001,,0x06,0x28
23.007921199999998,,0x0E,0x0F
23.010894799999999,,0x31,0x20
23.013868400000000,,0x0D,0x24
23.016842000000000,,0x80,0x00
23.019815800000000,,0xF7,0xF1
23.055903000000001,,0xB0,0x0B
23.058473599999999,,0x00,0x07
23.061447200000000,,0x20,0x0F
23.064420599999998,,0x8E,0x28
23.067394199999999,,0x0E,0x0F
23.070367800000000,,0x31,0x20
23.073341599999999,,0x0D,0x24
23.076315200000000,,0x80,0x00
23.079288800000000,,0x7F,0xF1
23.115846800000000,,0xB0,0x0B
23.117945599999999,,0x00,0x07
23.120919199999999,,0x20,0x0F
23.123892800000000,,0x06,0x28
23.126866199999998,,0x0E,0x0F
23.129839600000000,,0x31,0x20
23.132812999999999,,0x0D,0x24
23.135786599999999,,0x80,0x00
23.138760200000000,,0xF7,0xF1
23.175197199999999,,0xB0,0x0B
23.177417800000001,,0x00,0x07
23.180391600000000,,0x20,0x0F
23.183365400000000,,0x8E,0x28
23.186339000000000,,0x0E,0x0F
23.189312800000000,,0x31,0x20
23.192286400000000,,0x0D,0x24
23.195260200000000,,0x80,0x00
23.198233800000001,,0x7F,0xF1
23.234600400000001,,0xB0,0x0B
23.236891199999999,,0x00,0x07
23.239864600000001,,0x20,0x0F
23.242838200000001,,0x06,0x28
23.245811600000000,,0x0E,0x0F
23.248785200000000,,0x31,0x20
23.251758800000001,,0x0D,0x24
23.254732400000002,,0x80,0x00
23.257705999999999,,0xF7,0xF1
23.293822200000001,,0xB0,0x0B
23.296363800000002,,0x00,0x07
23.299337399999999,,0x20,0x0F
23.302311000000000,,0x8E,0x28
23.305284600000000,,0x0E,0x0F
23.308258200000001,,0x31,0x20
23.311231599999999,,0x0E,0x24
23.314205399999999,,0x80,0x00
23.317178999999999,,0x80,0xF1
23.353212599999999,,0xB0,0x0B
23.355835800000001,,0x00,0x07
23.358809399999998,,0x20,0x0F
23.361782999999999,,0x06,0x28
23.364756600000000,,0x0E,0x0F
23.367730000000002,,0x31,0x20
23.370703400000000,,0x0E,0x24
23.373677000000001,,0x80,0x00
23.376650600000001,,0xF8,0xF1
23.413149199999999,,0xB0,0x0B
23.415306999999999,,0x00,0x07
23.418280400000000,,0x20,0x0F
23.421254200000000,,0x8E,0x28
23.424227800000001,,0x0E,0x0F
23.427201400000001,,0x31,0x20
23.430175200000001,,0x0E,0x24
23.433149000000000,,0x80,0x00
23.436122600000001,,0x80,0xF1
23.472538400000001,,0xB0,0x0B
23.474779999999999,,0x00,0x07
23.477753600000000,,0x20,0x0F
23.480727200000000,,0x06,0x28
23.483700800000001,,0x0E,0x0F
23.486674200000000,,0x31,0x20
23.489647800000000,,0x0E,0x24
23.492621600000000,,0x80,0x00
23.495595200000000,,0xF8,0xF1
23.531932000000001,,0xB0,0x0B
23.534251200000000,,0x00,0x07
23.537224599999998,,0x20,0x0F
23.540198199999999,,0x8E,0x28
23.543171600000001,,0x0E,0x0F
23.546144999999999,,0x31,0x20
23.549118600000000,,0x0E,0x24
23.552092200000001,,0x80,0x00
23.555065800000001,,0x80,0xF1
23.591306400000001,,0xB0,0x0B
23.593722400000001,,0x00,0x07
23.596696000000001,,0x20,0x0F
23.599669599999999,,0x06,0x28
23.602643400000002,,0x0E,0x0F
23.605616999999999,,0x31,0x20
23.608590599999999,,0x0E,0x24
23.611564200000000,,0x80,0x00
23.614538000000000,,0xF8,0xF1
23.650697000000001,,0xB0,0x0B
23.653195400000001,,0x00,0x07
23.656169200000001,,0x20,0x0F
23.659143000000000,,0x8E,0x28
23.662116600000001,,0x0E,0x0F
23.665090200000002,,0x31,0x20
23.668063799999999,,0x0E,0x24
23.671037599999998,,0x80,0x00
23.674011199999999,,0x80,0xF1
23.710075199999999,,0xB0,0x0B
23.712668000000001,,0x00,0x07
23.715641600000001,,0x20,0x0F
23.718615199999999,,0x06,0x28
23.721588799999999,,0x0E,0x0F
23.724562400000000,,0x31,0x20
23.727536000000001,,0x0E,0x24
23.730509600000001,,0x80,0x00
23.733483199999998,,0xF8,0xF1
23.770031599999999,,0xB0,0x0B
23.772140000000000,,0x00,0x07
23.775113999999999,,0x20,0x0F
23.778087800000002,,0x8E,0x28
23.781061600000001,,0x0E,0x0F
23.784035599999999,,0x31,0x20
23.787009200000000,,0x0E,0x24
23.789982999999999,,0x80,0x00
23.792956600000000,,0x80,0xF1
23.829423800000001,,0xB0,0x0B
23.831613999999998,,0x00,0x07
23.834587599999999,,0x20,0x0F
23.837561200000000,,0x06,0x28
23.840534800000000,,0x0E,0x0F
23.843508600000000,,0x31,0x20
23.846482399999999,,0x0E,0x24
23.849456000000000,,0x80,0x00
23.852429600000001,,0xF8,0xF1
23.888796800000001,,0xB0,0x0B
23.891087200000001,,0x00,0x07
23.894061000000001,,0x20,0x0F
23.897034600000001,,0x8E,0x28
23.900008199999998,,0x0E,0x0F
23.902982000000002,,0x31,0x20
23.905955599999999,,0x0E,0x24
23.908929199999999,,0x80,0x00
23.911902800000000,,0x80,0xF1
23.948186799999998,,0xB0,0x0B
23.950559999999999,,0x00,0x07
23.953533600000000,,0x20,0x0F
23.956507200000001,,0x06,0x28
23.959480800000001,,0x0E,0x0F
23.962454399999999,,0x31,0x20
23.965427800000001,,0x0E,0x24
23.968401600000000,,0x80,0x00
23.971375200000001,,0xF8,0xF1
24.007560999999999,,0xB0,0x0B
24.010032200000001,,0x00,0x07
24.013005799999998,,0x20,0x0F
24.015979399999999,,0x8E,0x28
24.018953000000000,,0x0E,0x0F
24.021926799999999,,0x31,0x20
24.024900400000000,,0x0E,0x24
24.027874000000001,,0x80,0x00
24.030847600000001,,0x80,0xF1
24.066951599999999,,0xB0,0x0B
24.069504800000001,,0x00,0x07
24.072478400000001,,0x20,0x0F
24.075452200000001,,0x06,0x28
24.078426000000000,,0x0E,0x0F
24.081399800000000,,0x31,0x20
24.084373599999999,,0x0E,0x24
24.087347200000000,,0x80,0x00
24.090320999999999,,0xF8,0xF1
24.126907599999999,,0xB0,0x0B
24.128979200000000,,0x00,0x07
24.131952999999999,,0x20,0x0F
24.134926799999999,,0x8E,0x28
24.137900399999999,,0x0E,0x0F
24.140874199999999,,0x31,0x20
24.143847999999998,,0x0E,0x24
24.146821599999999,,0x80,0x00
24.149795399999999,,0x80,0xF1
24.186248800000001,,0xB0,0x0B
24.188455000000001,,0x00,0x07
24.191428800000001,,0x20,0x00
24.194402600000000,,0x06,0x28
24.197376400000000,,0x0E,0x0F
24.200350000000000,,0x31,0x20
24.203323800000000,,0x0E,0x24
24.206297800000002,,0x80,0x00
24.209271399999999,,0xF8,0xE2
24.245307000000000,,0xB0,0x0B
24.247929800000001,,0x00,0x07
24.250903600000001,,0x20,0x00
24.253877400000000,,0x8E,0x28
24.256851000000001,,0x0E,0x0F
24.259824800000001,,0x31,0x20
24.262798600000000,,0x0F,0x24
24.265772599999998,,0x80,0x00
24.268746400000001,,0x81,0xE2
24.304800600000000,,0xB0,0x0B
24.307404999999999,,0x00,0x07
24.310378600000000,,0x20,0x00
24.313352399999999,,0x06,0x28
24.316326000000000,,0x0E,0x0F
24.319299800000000,,0x31,0x20
24.322273599999999,,0x0F,0x24
24.325247399999999,,0x80,0x00
24.328220999999999,,0xF9,0xE2
24.364310799999998,,0xB0,0x0B
24.366878199999999,,0x00,0x07
24.369852000000002,,0x20,0x00
24.372825400000000,,0x8E,0x28
24.375799000000001,,0x0E,0x0F
24.378772399999999,,0x31,0x20
24.381746000000000,,0x0F,0x24
24.384719600000000,,0x80,0x00
24.387693200000001,,0x81,0xE2
24.423818399999998,,0xB0,0x0B
24.426350200000002,,0x00,0x07
24.429323799999999,,0x20,0x00
24.432297399999999,,0x06,0x28
24.435271199999999,,0x0E,0x0F
24.438244800000000,,0x31,0x20
24.441218400000000,,0x0F,0x24
24.444192200000000,,0x80,0x00
24.447165999999999,,0xF9,0xE2
24.483311000000000,,0xB0,0x0B
24.485824200000000,,0x00,0x07
24.488797800000000,,0x20,0x00
24.491771600000000,,0x8E,0x28
24.494745200000001,,0x0E,0x0F
24.497718800000001,,0x31,0x20
24.500692600000001,,0x0F,0x24
24.503666200000001,,0x80,0x00
24.506639799999999,,0x81,0xE2
24.542828199999999,,0xB0,0x0B
24.545298200000001,,0x00,0x07
24.548272000000001,,0x20,0x00
24.551245600000001,,0x06,0x28
24.554219400000001,,0x0E,0x0F
24.557193200000000,,0x31,0x20
24.560167000000000,,0x0F,0x24
24.563140799999999,,0x80,0x00
24.566114599999999,,0xF9,0xE2
24.602322000000001,,0xB0,0x0B
24.604772799999999,,0x00,0x07
24.607746400000000,,0x20,0x00
24.610720000000001,,0x8E,0x28
24.613693600000001,,0x0E,0x0F
24.616667400000001,,0x31,0x20
24.619641000000001,,0x0F,0x24
24.622614599999999,,0x80,0x00
24.625588400000002,,0x81,0xE2
24.661832000000000,,0xB0,0x0B
24.664245800000000,,0x00,0x07
24.667219400000000,,0x20,0x00
24.670193000000001,,0x06,0x28
24.673166800000001,,0x0E,0x0F
24.676140600000000,,0x31,0x20
24.679114200000001,,0x0F,0x24
24.682088000000000,,0x80,0x00
24.685061800000000,,0xF9,0xE2
24.721340999999999,,0xB0,0x0B
24.723718999999999,,0x00,0x07
24.726692600000000,,0x20,0x00
24.729666399999999,,0x8E,0x28
24.732640000000000,,0x0E,0x0F
24.735613600000001,,0x31,0x20
24.738587200000001,,0x0F,0x24
24.741561000000001,,0x80,0x00
24.744534800000000,,0x81,0xE2
24.780837200000001,,0xB0,0x0B
24.783193000000001,,0x00,0x07
24.786166800000000,,0x20,0x00
24.789140600000000,,0x06,0x28
24.792114399999999,,0x0E,0x0F
24.795088199999999,,0x31,0x20
24.798062000000002,,0x0F,0x24
24.801035800000001,,0x80,0x00
24.804009600000001,,0xF9,0xE2
24.840346199999999,,0xB0,0x0B
24.842669200000000,,0x00,0x07
24.845642999999999,,0x20,0x00
24.848616799999999,,0x8E,0x28
24.851590399999999,,0x0E,0x0F
24.854564199999999,,0x31,0x20
24.857538000000002,,0x0F,0x24
24.860511800000001,,0x80,0x00
24.863485600000001,,0x81,0xE2
24.899844200000000,,0xB0,0x0B
24.902144799999999,,0x00,0x07
24.905118800000000,,0x20,0x00
24.908092400000001,,0x06,0x28
24.911066200000000,,0x0E,0x0F
24.914040199999999,,0x31,0x20
24.917014000000002,,0x0F,0x24
24.919987800000001,,0x80,0x00
24.922961600000001,,0xF9,0xE2
24.959354399999999,,0xB0,0x0B
24.961619800000001,,0x00,0x07
24.964593600000001,,0x20,0x00
24.967567200000001,,0x8E,0x28
24.970541000000001,,0x0E,0x0F
24.973514800000000,,0x31,0x20
24.976488400000001,,0x0F,0x24
24.979462200000000,,0x80,0x00
24.982435800000001,,0x81,0xE2
25.018862800000001,,0xB0,0x0B
25.021094999999999,,0x00,0x07
25.024068799999998,,0x20,0x00
25.027042800000000,,0x06,0x28
25.030016600000000,,0x0E,0x0F
25.032990399999999,,0x31,0x20
25.035964199999999,,0x0F,0x24
25.038938000000002,,0x80,0x00
25.041911800000001,,0xF9,0xE2
25.077954600000002,,0xB0,0x0B
25.080570000000002,,0x00,0x07
25.083543599999999,,0x20,0x00
25.086517400000002,,0x8E,0x28
25.089490999999999,,0x0E,0x0F
25.092464799999998,,0x31,0x20
25.095438399999999,,0x0F,0x24
25.098412000000000,,0x80,0x00
25.101385799999999,,0x81,0xE2
25.137461200000001,,0xB0,0x0B
25.140042200000000,,0x00,0x07
25.143015999999999,,0x20,0x00
25.145989600000000,,0x06,0x28
25.148963200000001,,0x0E,0x0F
25.151936800000001,,0x31,0x20
25.154910200000000,,0x0F,0x24
25.157883800000000,,0x80,0x00
25.160857199999999,,0xF9,0xE2
25.196951599999998,,0xB0,0x0B
25.199513600000000,,0x00,0x07
25.202487399999999,,0x20,0x00
25.205461199999998,,0x8E,0x28
25.208434600000000,,0x0E,0x0F
25.211408400000000,,0x31,0x20
25.214382000000001,,0x0F,0x24
25.217355800000000,,0x80,0x00
25.220329400000001,,0x81,0xE2
25.256564800000000,,0xB0,0x0B
25.258986400000001,,0x00,0x07
25.261959999999998,,0x20,0x00
25.264933599999999,,0x06,0x28
25.267907200000000,,0x0E,0x0F
25.270880800000000,,0x31,0x20
25.273854400000001,,0x10,0x24
25.276828200000001,,0x80,0x00
25.279802000000000,,0xFA,0xE2
25.316070000000000,,0xB0,0x0B
25.318459600000001,,0x00,0x07
25.321433200000001,,0x20,0x00
25.324407000000001,,0x8E,0x28
25.327380600000001,,0x0E,0x0F
25.330354400000001,,0x31,0x20
25.333328000000002,,0x10,0x24
25.336301800000001,,0x80,0x00
25.339275600000001,,0x82,0xE2
25.375565399999999,,0xB0,0x0B
25.377934600000000,,0x00,0x07
25.380908600000001,,0x20,0x00
25.383882400000001,,0x06,0x28
25.386856200000000,,0x0E,0x0F
25.389830000000000,,0x31,0x20
25.392803799999999,,0x10,0x24
25.395777599999999,,0x80,0x00
25.398751399999998,,0xFA,0xE2
25.435076800000001,,0xB0,0x0B
25.437411000000001,,0x00,0x07
25.440384999999999,,0x20,0x00
25.443358799999999,,0x8E,0x28
25.446332600000002,,0x0E,0x0F
25.449306400000001,,0x31,0x20
25.452280200000001,,0x10,0x24
25.455254199999999,,0x80,0x00
25.458227999999998,,0x82,0xE2
25.494571799999999,,0xB0,0x0B
25.496886199999999,,0x00,0x07
25.499859799999999,,0x20,0x00
25.502833400000000,,0x06,0x28
25.505807000000001,,0x0E,0x0F
25.508780600000001,,0x31,0x20
25.511754199999999,,0x10,0x24
25.514728000000002,,0x80,0x00
25.517701800000001,,0xFA,0xE2
25.554085199999999,,0xB0,0x0B
25.556360399999999,,0x00,0x07
25.559334199999999,,0x20,0x00
25.562308200000000,,0x8E,0x28
25.565282000000000,,0x0E,0x0F
25.568255799999999,,0x31,0x20
25.571229599999999,,0x10,0x24
25.574203399999998,,0x80,0x00
25.577177200000001,,0x82,0xE2
25.613601800000001,,0xB0,0x0B
25.615836999999999,,0x00,0x07
25.618811000000001,,0x20,0x00
25.621784999999999,,0x06,0x28
25.624759000000001,,0x0E,0x0F
25.627732999999999,,0x31,0x20
25.630706799999999,,0x10,0x24
25.633680600000002,,0x80,0x00
25.636654400000001,,0xFA,0xE2
25.672694400000001,,0xB0,0x0B
25.675313200000002,,0x00,0x07
25.678287000000001,,0x20,0x00
25.681260800000000,,0x8E,0x28
25.684234600000000,,0x0E,0x0F
25.687208399999999,,0x31,0x20
25.690182000000000,,0x10,0x24
25.693155800000000,,0x80,0x00
25.696129400000000,,0x82,0xE2
25.732206399999999,,0xB0,0x0B
25.734788999999999,,0x00,0x07
25.737762799999999,,0x20,0x00
25.740736800000001,,0x06,0x28
25.743710600000000,,0x0E,0x0F
25.746684399999999,,0x31,0x20
25.749658199999999,,0x10,0x24
25.752631999999998,,0x80,0x00
25.755605800000001,,0xFA,0xE2
25.791702799999999,,0xB0,0x0B
25.794264800000001,,0x00,0x07
25.797238600000000,,0x20,0x00
25.800212399999999,,0x8E,0x28
25.803186000000000,,0x0E,0x0F
25.806159800000000,,0x31,0x20
25.809133400000000,,0x10,0x24
25.812107399999999,,0x80,0x00
25.815081200000002,,0x82,0xE2
25.851215600000000,,0xB0,0x0B
25.853740400000000,,0x00,0x07
25.856714199999999,,0x20,0x00
25.859687800000000,,0x06,0x28
25.862661800000001,,0x0E,0x0F
25.865635600000001,,0x31,0x20
25.868609200000002,,0x10,0x24
25.871583200000000,,0x80,0x00
25.874556999999999,,0xFA,0xE2
25.910726199999999,,0xB0,0x0B
25.913216200000001,,0x00,0x07
25.916190199999999,,0x20,0x00
25.919164200000001,,0x8E,0x28
25.922138000000000,,0x0E,0x0F
25.925111999999999,,0x31,0x20
25.928085800000002,,0x10,0x24
25.931059800000000,,0x80,0x00
25.934034000000000,,0x82,0xE2
25.970224600000002,,0xB0,0x0B
25.972694600000001,,0x00,0x07
25.975668599999999,,0x20,0x00
25.978642399999998,,0x06,0x28
25.981616400000000,,0x0E,0x0F
25.984590399999998,,0x31,0x20
25.987564200000001,,0x10,0x24
25.990538000000001,,0x80,0x00
25.993511800000000,,0xFA,0xE2
26.029736199999999,,0xB0,0x0B
26.032170600000001,,0x00,0x07
26.035144400000000,,0x20,0x00
26.038118399999998,,0x8E,0x28
26.041092200000001,,0x0E,0x0F
26.044066000000001,,0x31,0x20
26.047039600000002,,0x10,0x24
26.050013600000000,,0x80,0x00
26.052987399999999,,0x82,0xE2
26.089230199999999,,0xB0,0x0B
26.091646799999999,,0x00,0x07
26.094620599999999,,0x20,0x00
26.097594399999998,,0x06,0x28
26.100568400000000,,0x0E,0x0F
26.103542200000000,,0x31,0x20
26.106515999999999,,0x10,0x24
26.109489799999999,,0x80,0x00
26.112463600000002,,0xFA,0xE2
26.148744000000001,,0xB0,0x0B
26.151124400000000,,0x00,0x07
26.154098600000001,,0x20,0x00
26.157072400000001,,0x8E,0x28
26.160046200000000,,0x0E,0x0F
26.163020199999998,,0x31,0x20
26.165994000000001,,0x10,0x24
26.168968000000000,,0x80,0x00
26.171942000000001,,0x82,0xE2
26.208269600000001,,0xB0,0x0B
26.210602600000001,,0x00,0x07
26.213576400000001,,0x20,0x00
26.216550399999999,,0x06,0x28
26.219524400000001,,0x0E,0x0F
26.222498399999999,,0x31,0x20
26.225472400000001,,0x10,0x24
26.228446399999999,,0x80,0x00
26.231420400000001,,0xFA,0xE2
26.267454000000001,,0xB0,0x0B
26.270081399999999,,0x00,0x07
26.273055400000001,,0x20,0x00
26.276029399999999,,0x8E,0x28
26.279003400000001,,0x0E,0x0F
26.281977399999999,,0x31,0x20
26.284951400000001,,0x11,0x24
26.287925200000000,,0x80,0x00
26.290899199999998,,0x83,0xE2
26.326969200000001,,0xB0,0x0B
26.329559400000001,,0x00,0x07
26.332533200000000,,0x20,0x00
26.335507000000000,,0x06,0x28
26.338480600000000,,0x0E,0x0F
26.341454599999999,,0x31,0x20
26.344428199999999,,0x11,0x24
26.347401999999999,,0x80,0x00
26.350376000000001,,0xFB,0xE2
26.386464000000000,,0xB0,0x0B
26.389037200000001,,0x00,0x07
26.392011000000000,,0x20,0x00
26.394984999999998,,0x8E,0x28
26.397958800000001,,0x0E,0x0F
26.400932600000001,,0x31,0x20
26.403906599999999,,0x11,0x24
26.406880399999999,,0x80,0x00
26.409853999999999,,0x83,0xE2
26.445974799999998,,0xB0,0x0B
26.448513999999999,,0x00,0x07
26.451488000000001,,0x20,0x00
26.454461999999999,,0x06,0x28
26.457435600000000,,0x0E,0x0F
26.460409400000000,,0x31,0x20
26.463383400000001,,0x11,0x24
26.466357200000001,,0x80,0x00
26.469331000000000,,0xFB,0xE2
26.505491800000001,,0xB0,0x0B
26.507989999999999,,0x00,0x07
26.510963799999999,,0x20,0x00
26.513937599999998,,0x8E,0x28
26.516911400000001,,0x0E,0x0F
26.519885200000001,,0x31,0x20
26.522859199999999,,0x11,0x24
26.525833200000001,,0x80,0x00
26.528807000000000,,0x83,0xE2
26.564988199999998,,0xB0,0x0B
26.567467600000001,,0x00,0x07
26.570441599999999,,0x20,0x00
26.573415600000001,,0x06,0x28
26.576389400000000,,0x0E,0x0F
26.579363000000001,,0x31,0x20
26.582336800000000,,0x11,0x24
26.585310799999998,,0x80,0x00
26.588284600000001,,0xFB,0xE2
26.624500600000001,,0xB0,0x0B
26.626945400000000,,0x00,0x07
26.629919200000000,,0x20,0x00
26.632892999999999,,0x8E,0x28
26.635867000000001,,0x0E,0x0F
26.638840800000001,,0x31,0x20
26.641814600000000,,0x11,0x24
26.644788399999999,,0x80,0x00
26.647762199999999,,0x83,0xE2
26.683996400000002,,0xB0,0x0B
26.686422000000000,,0x00,0x07
26.689395800000000,,0x20,0x00
26.692369599999999,,0x06,0x28
26.695343399999999,,0x0E,0x0F
26.698317200000002,,0x31,0x20
26.701291000000001,,0x11,0x24
26.704264800000001,,0x80,0x00
26.707238600000000,,0xFB,0xE2
26.743507200000000,,0xB0,0x0B
26.745898600000000,,0x00,0x07
26.748872400000000,,0x20,0x00
26.751846600000000,,0x8E,0x28
26.754820400000000,,0x0E,0x0F
26.757794199999999,,0x31,0x20
26.760767999999999,,0x11,0x24
26.763742199999999,,0x80,0x00
26.766715999999999,,0x83,0xE2
26.803022800000001,,0xB0,0x0B
26.805375999999999,,0x00,0x07
26.808349799999998,,0x20,0x00
26.811323800000000,,0x06,0x28
26.814297400000001,,0x0E,0x0F
26.817271200000000,,0x31,0x20
26.820244800000001,,0x11,0x24
26.823218799999999,,0x80,0x00
26.826192599999999,,0xFB,0xE2
26.862518200000000,,0xB0,0x0B
26.864851600000001,,0x00,0x07
26.867825400000001,,0x20,0x00
26.870799200000000,,0x8E,0x28
26.873773199999999,,0x0E,0x0F
26.876747000000002,,0x31,0x20
26.879720599999999,,0x11,0x24
26.882694399999998,,0x80,0x00
26.885668400000000,,0x83,0xE2
26.922030800000002,,0xB0,0x0B
26.924329400000001,,0x00,0x07
26.927303200000001,,0x20,0x00
26.930277199999999,,0x06,0x28
26.933251200000001,,0x0E,0x0F
26.936225000000000,,0x31,0x20
26.939198800000000,,0x11,0x24
26.942172599999999,,0x80,0x00
26.945146399999999,,0xFB,0xE2
26.981528000000001,,0xB0,0x0B
26.983805600000000,,0x00,0x07
26.986779400000000,,0x20,0x00
26.989753400000001,,0x8E,0x28
26.992727400000000,,0x0E,0x0F
26.995701400000002,,0x31,0x20
26.998674999999999,,0x11,0x24
27.001649000000000,,0x80,0x00
27.004622999999999,,0x83,0xE2
27.041040200000001,,0xB0,0x0B
27.043282999999999,,0x00,0x07
27.046256600000000,,0x20,0x00
27.049230200000000,,0x06,0x28
27.052204199999998,,0x0E,0x0F
27.055178000000002,,0x31,0x20
27.058151599999999,,0x11,0x24
27.061125400000002,,0x80,0x00
27.064098999999999,,0xFB,0xE2
27.100145399999999,,0xB0,0x0B
27.102756800000002,,0x00,0x07
27.105730600000001,,0x20,0x00
27.108704400000001,,0x8E,0x28
27.111678200000000,,0x0E,0x0F
27.114652000000000,,0x31,0x20
27.117625799999999,,0x11,0x24
27.120599599999998,,0x80,0x00
27.123573199999999,,0x83,0xE2
27.159641400000002,,0xB0,0x0B
27.162231400000000,,0x00,0x07
27.165205000000000,,0x20,0x00
27.168178800000000,,0x06,0x28
27.171152400000000,,0x0E,0x0F
27.174126000000001,,0x31,0x20
27.177099800000001,,0x11,0x24
27.180073600000000,,0x80,0x00
27.183047400000000,,0xFB,0xE2
27.219251799999999,,0xB0,0x0B
27.221704599999999,,0x00,0x07
27.224678399999998,,0x20,0x00
27.227651999999999,,0x8E,0x28
27.230625600000000,,0x0E,0x0F
27.233599399999999,,0x31,0x20
27.236573000000000,,0x12,0x24
27.239546799999999,,0x80,0x00
27.242520599999999,,0x84,0xE2
27.278746800000000,,0xB0,0x0B
27.281180400000000,,0x00,0x07
27.284154200000000,,0x20,0x00
27.287127999999999,,0x06,0x28
27.290101799999999,,0x0E,0x0F
27.293075800000000,,0x31,0x20
27.296049799999999,,0x12,0x24
27.299023600000002,,0x80,0x00
27.301997400000001,,0xFC,0xE2
27.338257200000001,,0xB0,0x0B
27.340657400000001,,0x00,0x07
27.343631200000001,,0x20,0x00
27.346605000000000,,0x8E,0x28
27.349578600000001,,0x0E,0x0F
27.352552400000000,,0x31,0x20
27.355526000000001,,0x12,0x24
27.358499800000001,,0x80,0x00
27.361473600000000,,0x84,0xE2
27.397765199999998,,0xB0,0x0B
27.400131999999999,,0x00,0x07
27.403105799999999,,0x20,0x00
27.406079600000002,,0x06,0x28
27.409053400000001,,0x0E,0x0F
27.412027200000001,,0x31,0x20
27.415000800000001,,0x12,0x24
27.417974600000001,,0x80,0x00
27.420948400000000,,0xFC,0xE2
27.457259199999999,,0xB0,0x0B
27.459608599999999,,0x00,0x07
27.462582399999999,,0x20,0x00
27.465556200000002,,0x8E,0x28
27.468529799999999,,0x0E,0x0F
27.471503599999998,,0x31,0x20
27.474477400000001,,0x12,0x24
27.477451400000000,,0x80,0x00
27.480425199999999,,0x84,0xE2
27.516778400000000,,0xB0,0x0B
27.519084200000002,,0x00,0x07
27.522058200000000,,0x20,0x00
27.525031999999999,,0x06,0x28
27.528005799999999,,0x0E,0x0F
27.530979599999998,,0x31,0x20
27.533953400000001,,0x12,0x24
27.536927400000000,,0x80,0x00
27.539901199999999,,0xFC,0xE2
27.576273000000000,,0xB0,0x0B
27.578560599999999,,0x00,0x07
27.581534399999999,,0x20,0x00
27.584508199999998,,0x8E,0x28
27.587482000000001,,0x0E,0x0F
27.590455800000001,,0x31,0x20
27.593429600000000,,0x12,0x24
27.596403400000000,,0x80,0x00
27.599377000000000,,0x84,0xE2
27.635784399999999,,0xB0,0x0B
27.638035400000000,,0x00,0x07
27.641009000000000,,0x20,0x00
27.643982600000001,,0x06,0x28
27.646956400000001,,0x0E,0x0F
27.649930000000001,,0x31,0x20
27.652903800000001,,0x12,0x24
27.655877400000001,,0x80,0x00
27.658851200000001,,0xFC,0xE2
27.694891999999999,,0xB0,0x0B
27.697509799999999,,0x00,0x07
27.700483400000000,,0x20,0x00
27.703457199999999,,0x8E,0x28
27.706430800000000,,0x0E,0x0F
27.709404400000000,,0x31,0x20
27.712378000000001,,0x12,0x24
27.715351600000002,,0x80,0x00
27.718325199999999,,0x84,0xE2
27.754384399999999,,0xB0,0x0B
27.756982799999999,,0x00,0x07
27.759956400000000,,0x20,0x00
27.762930399999998,,0x06,0x28
27.765904200000001,,0x0E,0x0F
27.768877799999999,,0x31,0x20
27.771851600000002,,0x12,0x24
27.774825400000001,,0x80,0x00
27.777799200000000,,0xFC,0xE2
27.813891800000000,,0xB0,0x0B
27.816455999999999,,0x00,0x07
27.819429599999999,,0x20,0x00
27.822403200000000,,0x8E,0x28
27.825376800000001,,0x0E,0x0F
27.828350400000001,,0x31,0x20
27.831323999999999,,0x12,0x24
27.834297800000002,,0x80,0x00
27.837271399999999,,0x84,0xE2
27.873383600000000,,0xB0,0x0B
27.875928200000001,,0x00,0x07
27.878902000000000,,0x20,0x00
27.881875600000001,,0x06,0x28
27.884849400000000,,0x0E,0x0F
27.887823200000000,,0x31,0x20
27.890796800000000,,0x12,0x24
27.893770600000000,,0x80,0x00
27.896744200000001,,0xFC,0xE2
27.932895400000000,,0xB0,0x0B
27.935403800000000,,0x00,0x07
27.938377599999999,,0x20,0x00
27.941351600000001,,0x8E,0x28
27.944325400000000,,0x0E,0x0F
27.947299399999999,,0x31,0x20
27.950273200000002,,0x12,0x24
27.953247200000000,,0x80,0x00
27.956220999999999,,0x84,0xE2
27.992410000000000,,0xB0,0x0B
27.994880999999999,,0x00,0x07
27.997854799999999,,0x20,0x00
28.000828599999998,,0x06,0x28
28.003802400000001,,0x0E,0x0F
28.006775999999999,,0x31,0x20
28.009749800000002,,0x12,0x24
28.012723800000000,,0x80,0x00
28.015697599999999,,0xFC,0xE2
28.051905999999999,,0xB0,0x0B
28.054357000000000,,0x00,0x07
28.057330799999999,,0x20,0x00
28.060304800000001,,0x8E,0x28
28.063278600000000,,0x0E,0x0F
28.066252200000001,,0x31,0x20
28.069226000000000,,0x12,0x24
28.072199999999999,,0x80,0x00
28.075173800000002,,0x84,0xE2
28.111420200000001,,0xB0,0x0B
28.113833799999998,,0x00,0x07
28.116807600000001,,0x20,0x00
28.119781199999998,,0x06,0x28
28.122755000000002,,0x0E,0x0F
28.125728599999999,,0x31,0x20
28.128702400000002,,0x12,0x24
28.131676200000001,,0x80,0x00
28.134649799999998,,0xFC,0xE2
28.170915800000000,,0xB0,0x0B
28.173310000000001,,0x00,0x07
28.176284200000001,,0x20,0x00
28.179258000000001,,0x8E,0x28
28.182231800000000,,0x0E,0x0F
28.185205799999999,,0x31,0x20
28.188179600000002,,0x12,0x24
28.191153600000000,,0x80,0x00
28.194127399999999,,0x84,0xE2
28.230533200000000,,0xB0,0x0B
28.232787800000001,,0x00,0x07
28.235761600000000,,0x20,0x00
28.238735599999998,,0x06,0x28
28.241709400000001,,0x0E,0x0F
28.244683200000001,,0x31,0x20
28.247657000000000,,0x13,0x24
28.250630800000000,,0x80,0x00
28.253604599999999,,0xFD,0xE2
28.289641400000001,,0xB0,0x0B
28.292264200000002,,0x00,0x07
28.295238000000001,,0x20,0x00
28.298211800000001,,0x8E,0x28
28.301185600000000,,0x0E,0x0F
28.304159400000000,,0x31,0x20
28.307133199999999,,0x13,0x24
28.310106999999999,,0x80,0x00
28.313081000000000,,0x85,0xE2
28.349135799999999,,0xB0,0x0B
28.351740400000001,,0x00,0x07
28.354714200000000,,0x20,0x00
28.357688000000000,,0x06,0x28
28.360661600000000,,0x0E,0x0F
28.363635400000000,,0x31,0x20
28.366609000000000,,0x13,0x24
28.369582600000001,,0x80,0x00
28.372556599999999,,0xFD,0xE2
28.408647999999999,,0xB0,0x0B
28.411215800000001,,0x00,0x07
28.414189799999999,,0x20,0x00
28.417163599999999,,0x8E,0x28
28.420137600000000,,0x0E,0x0F
28.423111400000000,,0x31,0x20
28.426085199999999,,0x13,0x24
28.429059200000001,,0x80,0x00
28.432033000000001,,0x85,0xE2
28.468144800000001,,0xB0,0x0B
28.470692600000000,,0x00,0x07
28.473666399999999,,0x20,0x00
28.476640199999999,,0x06,0x28
28.479614000000002,,0x0E,0x0F
28.482587800000001,,0x31,0x20
28.485561600000000,,0x13,0x24
28.488535200000001,,0x80,0x00
28.491509199999999,,0xFD,0xE2
28.527663000000000,,0xB0,0x0B
28.530168799999998,,0x00,0x07
28.533142800000000,,0x20,0x00
28.536116600000000,,0x8E,0x28
28.539090399999999,,0x0E,0x0F
28.542064400000001,,0x31,0x20
28.545038399999999,,0x13,0x24
28.548012199999999,,0x80,0x00
28.550986000000002,,0x85,0xE2
28.587175599999998,,0xB0,0x0B
28.589644600000000,,0x00,0x07
28.592618399999999,,0x20,0x00
28.595592199999999,,0x06,0x28
28.598566000000002,,0x0E,0x0F
28.601539800000001,,0x31,0x20
28.604513600000001,,0x13,0x24
28.607487400000000,,0x80,0x00
28.610461200000000,,0xFD,0xE2
28.646668999999999,,0xB0,0x0B
28.649120000000000,,0x00,0x07
28.652094000000002,,0x20,0x00
28.655067800000001,,0x8E,0x28
28.658041399999998,,0x0E,0x0F
28.661015200000001,,0x31,0x20
28.663989000000001,,0x13,0x24
28.666962600000002,,0x80,0x00
28.669936400000001,,0x85,0xE2
28.706182200000001,,0xB0,0x0B
28.708595800000001,,0x00,0x07
28.711569600000001,,0x20,0x00
28.714543400000000,,0x06,0x28
28.717517200000000,,0x0E,0x0F
28.720490800000000,,0x31,0x20
28.723464600000000,,0x13,0x24
28.726438399999999,,0x80,0x00
28.729412000000000,,0xFD,0xE2
28.765677600000000,,0xB0,0x0B
28.768071599999999,,0x00,0x07
28.771045399999998,,0x20,0x00
28.774019200000001,,0x8E,0x28
28.776992799999999,,0x0E,0x0F
28.779966600000002,,0x31,0x20
28.782940199999999,,0x13,0x24
28.785913999999998,,0x80,0x00
28.788887800000001,,0x85,0xE2
28.825185999999999,,0xB0,0x0B
28.827546800000000,,0x00,0x07
28.830520600000000,,0x20,0x00
28.833494399999999,,0x06,0x28
28.836468000000000,,0x0E,0x0F
28.839441799999999,,0x31,0x20
28.842415599999999,,0x13,0x24
28.845389399999998,,0x80,0x00
28.848362999999999,,0xFD,0xE2
28.884696800000000,,0xB0,0x0B
28.887022200000001,,0x00,0x07
28.889996000000000,,0x20,0x00
28.892969799999999,,0x8E,0x28
28.895943599999999,,0x0E,0x0F
28.898917399999998,,0x31,0x20
28.901891400000000,,0x13,0x24
28.904865200000000,,0x80,0x00
28.907838800000000,,0x85,0xE2
28.944195000000001,,0xB0,0x0B
28.946498399999999,,0x00,0x07
28.949472199999999,,0x20,0x00
28.952445999999998,,0x06,0x28
28.955419800000001,,0x0E,0x0F
28.958393399999999,,0x31,0x20
28.961367200000002,,0x13,0x24
28.964341000000001,,0x80,0x00
28.967314800000000,,0xFD,0xE2
29.003701000000000,,0xB0,0x0B
29.005973000000001,,0x00,0x07
29.008946800000000,,0x20,0x00
29.011920400000001,,0x8E,0x28
29.014894200000001,,0x0E,0x0F
29.017867800000001,,0x31,0x20
29.020841600000001,,0x13,0x24
29.023815200000001,,0x80,0x00
29.026789000000001,,0x85,0xE2
29.063196000000001,,0xB0,0x0B
29.065446999999999,,0x00,0x07
29.068420600000000,,0x20,0x00
29.071394200000000,,0x06,0x28
29.074368000000000,,0x0E,0x0F
29.077341600000000,,0x31,0x20
29.080315200000001,,0x13,0x24
29.083288799999998,,0x80,0x00
29.086262399999999,,0xFD,0xE2
29.122300599999999,,0xB0,0x0B
29.124919400000000,,0x00,0x07
29.127892800000001,,0x20,0x00
29.130866600000001,,0x8E,0x28
29.133839999999999,,0x0E,0x0F
29.136813600000000,,0x31,0x20
29.139787200000001,,0x13,0x24
29.142760800000001,,0x80,0x00
29.145734399999998,,0x85,0xE2
29.181822799999999,,0xB0,0x0B
29.184391600000001,,0x00,0x07
29.187365199999999,,0x20,0x00
29.190338600000000,,0x06,0x28
29.193312200000001,,0x0E,0x0F
29.196285799999998,,0x31,0x20
29.199259399999999,,0x13,0x24
29.202232800000001,,0x80,0x00
29.205206400000002,,0xFD,0xE2
29.241402200000000,,0xB0,0x0B
29.243862000000000,,0x00,0x07
29.246835600000001,,0x20,0x00
29.249808999999999,,0x8E,0x28
29.252782600000000,,0x0E,0x0F
29.255756200000000,,0x31,0x20
29.258729800000001,,0x14,0x24
29.261703399999998,,0x80,0x00
29.264676999999999,,0x86,0xE2
29.300909600000001,,0xB0,0x0B
29.303335199999999,,0x00,0x07
29.306308800000000,,0x20,0x00
29.309282400000001,,0x06,0x28
29.312256200000000,,0x0E,0x0F
29.315229800000001,,0x31,0x20
29.318203400000002,,0x14,0x24
29.321177200000001,,0x80,0x00
29.324151000000001,,0xFE,0xE2
29.360402600000000,,0xB0,0x0B
29.362809800000001,,0x00,0x07
29.365783600000000,,0x20,0x00
29.368757200000001,,0x8E,0x28
29.371731000000000,,0x0E,0x0F
29.374704800000000,,0x31,0x20
29.377678599999999,,0x14,0x24
29.380652399999999,,0x80,0x00
29.383626199999998,,0x86,0xE2
29.419916000000001,,0xB0,0x0B
29.422285200000001,,0x00,0x07
29.425259199999999,,0x20,0x00
29.428232800000000,,0x06,0x28
29.431206599999999,,0x0E,0x0F
29.434180399999999,,0x31,0x20
29.437154000000000,,0x14,0x24
29.440127799999999,,0x80,0x00
29.443101599999999,,0xFE,0xE2
29.479431999999999,,0xB0,0x0B
29.481760399999999,,0x00,0x07
29.484734199999998,,0x20,0x00
29.487708000000001,,0x8E,0x28
29.490681800000001,,0x0E,0x0F
29.493655600000000,,0x31,0x20
29.496629200000001,,0x14,0x24
29.499603000000000,,0x80,0x00
29.502576600000001,,0x86,0xE2
29.538924800000000,,0xB0,0x0B
29.541234599999999,,0x00,0x07
29.544208200000000,,0x20,0x00
29.547181999999999,,0x06,0x28
29.550155600000000,,0x0E,0x0F
29.553129400000000,,0x31,0x20
29.556103000000000,,0x14,0x24
29.559076600000001,,0x80,0x00
29.562050200000002,,0xFE,0xE2
29.598433600000000,,0xB0,0x0B
29.600708600000001,,0x00,0x07
29.603682200000002,,0x20,0x00
29.606656000000001,,0x8E,0x28
29.609629399999999,,0x0E,0x0F
29.612603199999999,,0x31,0x20
29.615576999999998,,0x14,0x24
29.618550599999999,,0x80,0x00
29.621524200000000,,0x86,0xE2
29.657930400000001,,0xB0,0x0B
29.660181399999999,,0x00,0x07
29.663155000000000,,0x20,0x00
29.666128600000000,,0x06,0x28
29.669102200000001,,0x0E,0x0F
29.672075799999998,,0x31,0x20
29.675049600000001,,0x14,0x24
29.678023400000001,,0x80,0x00
29.680997000000001,,0xFE,0xE2
29.717035800000001,,0xB0,0x0B
29.719654800000001,,0x00,0x07
29.722628600000000,,0x20,0x00
29.725602400000000,,0x8E,0x28
29.728576000000000,,0x0E,0x0F
29.731549800000000,,0x31,0x20
29.734523400000000,,0x14,0x24
29.737497200000000,,0x80,0x00
29.740470800000001,,0x86,0xE2
29.776546400000001,,0xB0,0x0B
29.779128799999999,,0x00,0x07
29.782102600000002,,0x20,0x00
29.785076400000001,,0x06,0x28
29.788050200000001,,0x0E,0x0F
29.791023800000001,,0x31,0x20
29.793997600000001,,0x14,0x24
29.796971400000000,,0x80,0x00
29.799945000000001,,0xFE,0xE2
29.836041000000002,,0xB0,0x0B
29.838602999999999,,0x00,0x07
29.841576799999999,,0x20,0x00
29.844550399999999,,0x8E,0x28
29.847524000000000,,0x0E,0x0F
29.850497600000001,,0x31,0x20
29.853471400000000,,0x14,0x24
29.856445000000001,,0x80,0x00
29.859418600000001,,0x86,0xE2
29.895552400000000,,0xB0,0x0B
29.898077000000001,,0x00,0x07
29.901050800000000,,0x20,0x00
29.904024600000000,,0x06,0x28
29.906998200000000,,0x0E,0x0F
29.909971800000001,,0x31,0x20
29.912945600000000,,0x14,0x24
29.915919400000000,,0x80,0x00
29.918893199999999,,0xFE,0xE2
29.955045200000001,,0xB0,0x0B
29.957550999999999,,0x00,0x07
29.960524800000002,,0x20,0x00
29.963498600000001,,0x8E,0x28
29.966472400000001,,0x0E,0x0F
29.969446200000000,,0x31,0x20
29.972420000000000,,0x14,0x24
29.975394000000001,,0x80,0x00
29.978367800000001,,0x86,0xE2
30.014559800000001,,0xB0,0x0B
30.017028199999999,,0x00,0x07
30.020002000000002,,0x20,0x00
30.022975800000001,,0x06,0x28
30.025949799999999,,0x0E,0x0F
30.028923599999999,,0x31,0x20
30.031897399999998,,0x14,0x24
30.034871200000001,,0x80,0x00
30.037845000000001,,0xFE,0xE2
30.074072000000001,,0xB0,0x0B
30.076504400000001,,0x00,0x07
30.079478000000002,,0x20,0x00
30.082452000000000,,0x8E,0x28
30.085425799999999,,0x0E,0x0F
30.088399599999999,,0x31,0x20
30.091373399999998,,0x14,0x24
30.094347200000001,,0x80,0x00
30.097321000000001,,0x86,0xE2
30.133564199999999,,0xB0,0x0B
30.135981000000001,,0x00,0x07
30.138954800000000,,0x20,0x00
30.141928799999999,,0x06,0x28
30.144902800000001,,0x0E,0x0F
30.147876400000001,,0x31,0x20
30.150850200000001,,0x14,0x24
30.153824000000000,,0x80,0x00
30.156797800000000,,0xFE,0xE2
30.193179000000001,,0xB0,0x0B
30.195456400000001,,0x00,0x07
30.198429999999998,,0x20,0x00
30.201403800000001,,0x8E,0x28
30.204377600000001,,0x0E,0x0F
30.207351200000002,,0x31,0x20
30.210324799999999,,0x15,0x24
30.213298600000002,,0x80,0x00
30.216272199999999,,0x87,0xE2
30.252671800000002,,0xB0,0x0B
30.254932600000000,,0x00,0x07
30.257906599999998,,0x20,0x00
30.260880600000000,,0x06,0x28
30.263854400000000,,0x0E,0x0F
30.266828400000001,,0x31,0x20
30.269801999999999,,0x15,0x24
30.272776000000000,,0x80,0x00
30.275749999999999,,0xFF,0xE2
30.311780200000001,,0xB0,0x0B
30.314409200000000,,0x00,0x07
30.317383000000000,,0x20,0x00
30.320356799999999,,0x8E,0x28
30.323330599999998,,0x0E,0x0F
30.326304400000001,,0x31,0x20
30.329278200000001,,0x15,0x24
30.332251800000002,,0x80,0x00
30.335225600000001,,0x87,0xE2
30.371291400000000,,0xB0,0x0B
30.373884400000001,,0x00,0x07
30.376858200000001,,0x20,0x00
30.379832000000000,,0x06,0x28
30.382805600000001,,0x0E,0x0F
30.385779400000001,,0x31,0x20
30.388753000000001,,0x15,0x24
30.391726800000001,,0x80,0x00
30.394700400000001,,0xFF,0xE2
30.430785799999999,,0xB0,0x0B
30.433358999999999,,0x00,0x07
30.436332799999999,,0x20,0x00
30.439306599999998,,0x8E,0x28
30.442280400000001,,0x0E,0x0F
30.445254200000001,,0x31,0x20
30.448227800000002,,0x15,0x24
30.451201600000001,,0x80,0x00
30.454175599999999,,0x87,0xE2
30.490304800000001,,0xB0,0x0B
30.492835400000001,,0x00,0x07
30.495809200000000,,0x20,0x00
30.498783000000000,,0x06,0x28
30.501757000000001,,0x0E,0x0F
30.504730800000001,,0x31,0x20
30.507704600000000,,0x15,0x24
30.510678400000000,,0x80,0x00
30.513652400000002,,0xFF,0xE2
30.549797600000002,,0xB0,0x0B
30.552311000000000,,0x00,0x07
30.555284799999999,,0x20,0x00
30.558258599999998,,0x8E,0x28
30.561232600000000,,0x0E,0x0F
30.564206400000000,,0x31,0x20
30.567180199999999,,0x15,0x24
30.570154200000001,,0x80,0x00
30.573128000000001,,0x87,0xE2
30.609313199999999,,0xB0,0x0B
30.611788199999999,,0x00,0x07
30.614762200000001,,0x20,0x00
30.617736000000001,,0x06,0x28
30.620709800000000,,0x0E,0x0F
30.623683600000000,,0x31,0x20
30.626657399999999,,0x15,0x24
30.629631199999999,,0x80,0x00
30.632605000000002,,0xFF,0xE2
30.668825999999999,,0xB0,0x0B
30.671264000000001,,0x00,0x07
30.674237600000001,,0x20,0x00
30.677211400000001,,0x8E,0x28
30.680185000000002,,0x0E,0x0F
30.683158800000001,,0x31,0x20
30.686132400000002,,0x15,0x24
30.689106200000001,,0x80,0x00
30.692079799999998,,0x87,0xE2
30.728319599999999,,0xB0,0x0B
30.730738800000001,,0x00,0x07
30.733712799999999,,0x20,0x00
30.736686599999999,,0x06,0x28
30.739660400000002,,0x0E,0x0F
30.742634200000001,,0x31,0x20
30.745608000000001,,0x15,0x24
30.748581999999999,,0x80,0x00
30.751555799999998,,0xFF,0xE2
30.787831799999999,,0xB0,0x0B
30.790216000000001,,0x00,0x07
30.793189800000000,,0x20,0x00
30.796163799999999,,0x8E,0x28
30.799137600000002,,0x0E,0x0F
30.802111400000001,,0x31,0x20
30.805085200000001,,0x15,0x24
30.808059000000000,,0x80,0x00
30.811032800000000,,0x87,0xE2
30.847330199999998,,0xB0,0x0B
30.849693599999998,,0x00,0x07
30.852667400000001,,0x20,0x00
30.855641400000000,,0x06,0x28
30.858615400000001,,0x0E,0x0F
30.861589200000001,,0x31,0x20
30.864563000000000,,0x15,0x24
30.867536999999999,,0x80,0x00
30.870510800000002,,0xFF,0xE2
30.906842600000001,,0xB0,0x0B
30.909171400000002,,0x00,0x07
30.912145400000000,,0x20,0x00
30.915119399999998,,0x8E,0x28
30.918093400000000,,0x0E,0x0F
30.921067200000000,,0x31,0x20
30.924040999999999,,0x15,0x24
30.927015000000001,,0x80,0x00
30.929988800000000,,0x87,0xE2
30.966354200000001,,0xB0,0x0B
30.968648200000001,,0x00,0x07
30.971622199999999,,0x20,0x00
30.974596200000001,,0x06,0x28
30.977570199999999,,0x0E,0x0F
30.980543999999998,,0x31,0x20
30.983518000000000,,0x15,0x24
30.986491999999998,,0x80,0x00
30.989465800000001,,0xFF,0xE2
31.025851599999999,,0xB0,0x0B
31.028126600000000,,0x00,0x07
31.031100400000000,,0x20,0x00
31.034074199999999,,0x8E,0x28
31.037047999999999,,0x0E,0x0F
31.040021800000002,,0x31,0x20
31.042995600000001,,0x15,0x24
31.045969599999999,,0x80,0x00
31.048943399999999,,0x87,0xE2
31.084959600000001,,0xB0,0x0B
31.087602400000002,,0x00,0x07
31.090576400000000,,0x20,0x00
31.093550400000002,,0x06,0x28
31.096524200000001,,0x0E,0x0F
31.099498000000001,,0x31,0x20
31.102471600000001,,0x15,0x24
31.105445599999999,,0x80,0x00
31.108419399999999,,0xFF,0xE2
31.144453400000000,,0xB0,0x0B
31.147078400000002,,0x00,0x07
31.150052200000001,,0x20,0x00
31.153025800000002,,0x8E,0x28
31.155999399999999,,0x0E,0x0F
31.158973199999998,,0x31,0x20
31.161946799999999,,0x15,0x24
31.164920599999999,,0x80,0x00
31.167894400000002,,0x87,0xE2
31.204068400000001,,0xB0,0x0B
31.206553000000000,,0x00,0x07
31.209526799999999,,0x20,0x00
31.212500599999998,,0x06,0x28
31.215474400000002,,0x0E,0x0F
31.218448200000001,,0x31,0x20
31.221421800000002,,0x16,0x24
31.224395600000001,,0x80,0x00
31.227369199999998,,0x00,0xE2
31.263579400000001,,0xB0,0x0B
31.266027999999999,,0x00,0x07
31.269001599999999,,0x20,0x00
31.271975399999999,,0x8E,0x28
31.274948999999999,,0x0E,0x0F
31.277922799999999,,0x31,0x20
31.280896599999998,,0x16,0x24
31.283870400000001,,0x80,0x00
31.286844200000001,,0x88,0xE2
31.323074999999999,,0xB0,0x0B
31.325503000000001,,0x00,0x07
31.328476800000001,,0x20,0x00
31.331450600000000,,0x06,0x28
31.334424599999998,,0x0E,0x0F
31.337398400000001,,0x31,0x20
31.340371999999999,,0x16,0x24
31.343346000000000,,0x80,0x00
31.346319800000000,,0x00,0xE2
31.382588200000001,,0xB0,0x0B
31.384979399999999,,0x00,0x07
31.387953199999998,,0x20,0x00
31.390927000000001,,0x8E,0x28
31.393901000000000,,0x0E,0x0F
31.396874799999999,,0x31,0x20
31.399848599999999,,0x16,0x24
31.402822400000002,,0x80,0x00
31.405796200000001,,0x88,0xE2
31.442085800000001,,0xB0,0x0B
31.444455000000001,,0x00,0x07
31.447428599999999,,0x20,0x00
31.450402199999999,,0x06,0x28
31.453375999999999,,0x0E,0x0F
31.456349599999999,,0x31,0x20
31.459323399999999,,0x16,0x24
31.462297000000000,,0x80,0x00
31.465270799999999,,0x00,0xE2
31.501601200000000,,0xB0,0x0B
31.503930199999999,,0x00,0x07
31.506903800000000,,0x20,0x00
31.509877599999999,,0x8E,0x28
31.512851600000001,,0x0E,0x0F
31.515825400000001,,0x31,0x20
31.518798799999999,,0x16,0x24
31.521772599999998,,0x80,0x00
31.524746400000002,,0x88,0xE2
31.561111199999999,,0xB0,0x0B
31.563405199999998,,0x00,0x07
31.566379000000001,,0x20,0x00
31.569352599999998,,0x06,0x28
31.572326400000001,,0x0E,0x0F
31.575299999999999,,0x31,0x20
31.578273599999999,,0x16,0x24
31.581247399999999,,0x80,0x00
31.584221200000002,,0x00,0xE2
31.620604400000001,,0xB0,0x0B
31.622879399999999,,0x00,0x07
31.625852999999999,,0x20,0x00
31.628826799999999,,0x8E,0x28
31.631800599999998,,0x0E,0x0F
31.634774400000001,,0x31,0x20
31.637748200000001,,0x16,0x24
31.640722199999999,,0x80,0x00
31.643695999999998,,0x88,0xE2
31.679711999999999,,0xB0,0x0B
31.682354799999999,,0x00,0x07
31.685328400000000,,0x20,0x00
31.688302000000000,,0x06,0x28
31.691275600000001,,0x0E,0x0F
31.694249200000002,,0x31,0x20
31.697223000000001,,0x16,0x24
31.700196600000002,,0x80,0x00
31.703170199999999,,0x00,0xE2
31.739203600000000,,0xB0,0x0B
31.741828600000002,,0x00,0x07
31.744802400000001,,0x20,0x00
31.747776200000001,,0x8E,0x28
31.750749800000001,,0x0E,0x0F
31.753723600000001,,0x31,0x20
31.756697599999999,,0x16,0x24
31.759671399999998,,0x80,0x00
31.762645400000000,,0x88,0xE2
31.798717199999999,,0xB0,0x0B
31.801303600000001,,0x00,0x07
31.804277400000000,,0x20,0x00
31.807251200000000,,0x06,0x28
31.810224800000000,,0x0E,0x0F
31.813198600000000,,0x31,0x20
31.816172399999999,,0x16,0x24
31.819146199999999,,0x80,0x00
31.822119799999999,,0x00,0xE2
31.858229600000001,,0xB0,0x0B
31.860778199999999,,0x00,0x07
31.863751799999999,,0x20,0x00
31.866725599999999,,0x8E,0x28
31.869699199999999,,0x0E,0x0F
31.872672800000000,,0x31,0x20
31.875646400000001,,0x16,0x24
31.878620200000000,,0x80,0x00
31.881594000000000,,0x88,0xE2
31.917723599999999,,0xB0,0x0B
31.920252800000000,,0x00,0x07
31.923226600000000,,0x20,0x00
31.926200200000000,,0x06,0x28
31.929174000000000,,0x0E,0x0F
31.932147600000000,,0x31,0x20
31.935121200000001,,0x16,0x24
31.938095000000001,,0x80,0x00
31.941068800000000,,0x00,0xE2
31.977232000000001,,0xB0,0x0B
31.979727199999999,,0x00,0x07
31.982701200000001,,0x20,0x00
31.985675000000001,,0x8E,0x28
31.988648800000000,,0x0E,0x0F
31.991622599999999,,0x31,0x20
31.994596399999999,,0x16,0x24
31.997570199999998,,0x80,0x00
32.000544200000000,,0x88,0xE2
32.036728599999996,,0xB0,0x0B
32.039203399999998,,0x00,0x07
32.042177199999998,,0x20,0x00
32.045150800000002,,0x06,0x28
32.048124600000001,,0x0E,0x0F
32.051098400000001,,0x31,0x20
32.054072200000000,,0x16,0x24
32.057046000000000,,0x80,0x00
32.060019599999997,,0x00,0xE2
32.096238800000002,,0xB0,0x0B
32.098678399999997,,0x00,0x07
32.101652199999997,,0x20,0x00
32.104625800000001,,0x8E,0x28
32.107599800000003,,0x0E,0x0F
32.110573600000002,,0x31,0x20
32.113547199999999,,0x16,0x24
32.116520999999999,,0x80,0x00
32.119494799999998,,0x88,0xE2
32.155766600000000,,0xB0,0x0B
32.158154799999998,,0x00,0x07
32.161128599999998,,0x20,0x00
32.164102399999997,,0x06,0x28
32.167076199999997,,0x0E,0x0F
32.170050000000003,,0x31,0x20
32.173023800000003,,0x16,0x24
32.175997799999998,,0x80,0x00
32.178971599999997,,0x00,0xE2
32.214984399999999,,0xB0,0x0B
32.217629799999997,,0x20,0x07
32.220603400000002,,0x20,0x00
32.223577200000001,,0x8E,0x28
32.226551000000001,,0x0E,0x0F
32.229524599999998,,0x31,0x20
32.232498399999997,,0x17,0x24
32.235472199999997,,0x81,0x00
32.238445800000001,,0xAA,0xE2
32.274564800000000,,0xB0,0x0B
32.277104399999999,,0x20,0x07
32.280078199999998,,0x20,0x00
32.283051800000003,,0x06,0x28
32.286025400000000,,0x0E,0x0F
32.288998999999997,,0x31,0x20
32.291972600000001,,0x17,0x24
32.294946199999998,,0x81,0x00
32.297919800000003,,0x22,0xE2
32.334131800000002,,0xB0,0x0B
32.336576999999998,,0x00,0x07
32.339550600000003,,0x20,0x00
32.342524200000000,,0x8E,0x00
32.345497799999997,,0x0E,0x0F
32.348471600000003,,0x31,0x20
32.351445200000001,,0x17,0x04
32.354418799999998,,0x80,0x00
32.357392400000002,,0x89,0x9A
32.396587799999999,,0xB0,0x0B
32.399021599999998,,0x00,0x07
32.401995399999997,,0x20,0x00
32.404969000000001,,0x06,0x00
32.407942599999998,,0x0E,0x0F
32.410916200000003,,0x31,0x20
32.413889800000000,,0x17,0x04
32.416863599999999,,0x80,0x00
32.419837200000003,,0x01,0x9A
32.452979599999999,,0xB0,0x0B
32.455521800000000,,0x00,0x07
32.458495200000002,,0x20,0x00
32.461469000000001,,0x8E,0x00
32.464442599999998,,0x0E,0x0F
32.467416399999998,,0x31,0x20
32.470390000000002,,0x17,0x04
32.473363599999999,,0x80,0x00
32.476337200000003,,0x89,0x9A
32.512639200000002,,0xB0,0x0B
32.514996600000003,,0x00,0x07
32.517970200000001,,0x20,0x00
32.520944000000000,,0x06,0x00
32.523917800000000,,0x0E,0x0F
32.526891599999999,,0x31,0x20
32.529865200000003,,0x17,0x04
32.532839000000003,,0x80,0x00
32.535812800000002,,0x01,0x9A
32.571845799999998,,0xB0,0x0B
32.574471199999998,,0x00,0x07
32.577444999999997,,0x20,0x00
32.580418799999997,,0x8E,0x00
32.583392600000003,,0x0E,0x0F
32.586366200000001,,0x31,0x20
32.589339799999998,,0x17,0x04
32.592313799999999,,0x80,0x00
32.595287599999999,,0x89,0x9A
32.631606599999998,,0xB0,0x0B
32.633946999999999,,0x00,0x07
32.636921000000001,,0x20,0x00
32.639894599999998,,0x06,0x00
32.642868200000002,,0x0E,0x0F
32.645842000000002,,0x31,0x20
32.648815599999999,,0x17,0x04
32.651789399999998,,0x80,0x00
32.654763199999998,,0x01,0x9A
32.690812200000003,,0xB0,0x0B
32.693421200000003,,0x00,0x07
32.696394800000000,,0x20,0x00
32.699368399999997,,0x8E,0x00
32.702342000000002,,0x0E,0x0F
32.705315599999999,,0x31,0x20
32.708289200000003,,0x17,0x04
32.711263000000002,,0x80,0x00
32.714236600000000,,0x89,0x9A
32.750587199999998,,0xB0,0x0B
32.752895199999998,,0x00,0x07
32.755868800000002,,0x20,0x00
32.758842600000001,,0x06,0x00
32.761816199999998,,0x0E,0x0F
32.764789999999998,,0x31,0x20
32.767763400000000,,0x17,0x04
32.770736999999997,,0x80,0x00
32.773710800000003,,0x01,0x9A
32.809774800000000,,0xB0,0x0B
32.812368599999999,,0x00,0x07
32.815342200000003,,0x20,0x00
32.818315800000001,,0x8E,0x00
32.821289399999998,,0x0E,0x0F
32.824263199999997,,0x31,0x20
32.827236999999997,,0x17,0x04
32.830210600000001,,0x80,0x00
32.833184400000000,,0x89,0x9A
32.869549599999999,,0xB0,0x0B
32.871842000000001,,0x00,0x07
32.874815599999998,,0x20,0x00
32.877789399999997,,0x06,0x00
32.880763000000002,,0x0E,0x0F
32.883736800000001,,0x31,0x20
32.886710399999998,,0x17,0x04
32.889684199999998,,0x80,0x00
32.892657999999997,,0x01,0x9A
32.928736200000003,,0xB0,0x0B
32.931315800000000,,0x00,0x07
32.934289399999997,,0x20,0x00
32.937263000000002,,0x8E,0x00
32.940236599999999,,0x0E,0x0F
32.943210399999998,,0x31,0x20
32.946184199999998,,0x17,0x04
32.949157999999997,,0x80,0x00
32.952131799999997,,0x89,0x9A
32.988509600000000,,0xB0,0x0B
32.990789999999997,,0x00,0x07
32.993763800000004,,0x20,0x00
32.996737600000003,,0x06,0x00
32.999711599999998,,0x0E,0x0F
33.002685399999997,,0x31,0x20
33.005659199999997,,0x17,0x04
33.008633000000003,,0x80,0x00
33.011606800000003,,0x01,0x9A
33.047715599999997,,0xB0,0x0B
33.050265600000003,,0x00,0x07
33.053239400000002,,0x20,0x00
33.056213200000002,,0x8E,0x00
33.059186799999999,,0x0E,0x0F
33.062160599999999,,0x31,0x20
33.065134399999998,,0x17,0x04
33.068108199999998,,0x80,0x00
33.071082199999999,,0x89,0x9A
33.107476599999998,,0xB0,0x0B
33.109741600000000,,0x00,0x07
33.112715600000001,,0x20,0x00
33.115689400000001,,0x06,0x00
33.118663200000000,,0x0E,0x0F
33.121637000000000,,0x31,0x20
33.124610599999997,,0x17,0x04
33.127584400000003,,0x80,0x00
33.130558000000001,,0x01,0x9A
33.166997000000002,,0xB0,0x0B
33.169216200000001,,0x00,0x07
33.172190000000001,,0x20,0x00
33.175163800000000,,0x8E,0x00
33.178137599999999,,0x0E,0x0F
33.181111199999997,,0x31,0x20
33.184085000000003,,0x18,0x04
33.187058800000003,,0x80,0x00
33.190032600000002,,0x8A,0x9A
33.226187000000003,,0xB0,0x0B
33.228691800000000,,0x00,0x07
33.231665800000002,,0x20,0x00
33.234639600000001,,0x06,0x00
33.237613400000001,,0x0E,0x0F
33.240587200000000,,0x31,0x20
33.243561000000000,,0x18,0x04
33.246534799999999,,0x80,0x00
33.249508599999999,,0x02,0x9A
33.285963799999998,,0xB0,0x0B
33.288167399999999,,0x00,0x07
33.291141400000001,,0x20,0x00
33.294115200000000,,0x8E,0x00
33.297089000000000,,0x0E,0x0F
33.300063000000002,,0x31,0x20
33.303036800000001,,0x18,0x04
33.306010800000003,,0x80,0x00
33.308984600000002,,0x8A,0x9A
33.345168399999999,,0xB0,0x0B
33.347642600000000,,0x00,0x07
33.350616199999997,,0x20,0x00
33.353589800000002,,0x06,0x00
33.356563600000001,,0x0E,0x0F
33.359537199999998,,0x31,0x20
33.362510999999998,,0x18,0x04
33.365484799999997,,0x80,0x00
33.368458400000002,,0x02,0x9A
