Time [s],Packet ID,MOSI,MISO
7.073655400000000,0,0xB0,0x00
7.076250000000000,,0x40,0x00
7.079227200000000,,0x21,0x00
7.082204400000000,,0x06,0x00
7.085181600000000,,0x15,0x00
7.088158800000000,,0x0B,0x00
7.091136000000000,,0x37,0x00
7.094113200000000,,0x82,0x00
7.097090400000000,,0x45,0x00
7.133260800000000,,0xB0,0x00
7.135792800000000,,0x40,0x00
7.138769800000000,,0x21,0x00
7.141747000000000,,0x8E,0x00
7.144724000000000,,0x15,0x00
7.147701200000000,,0x0B,0x00
7.150678400000000,,0x37,0x00
7.153655800000000,,0x82,0x00
7.156633000000000,,0xCD,0x00
7.192850600000000,,0xB0,0x00
7.195336200000000,,0x40,0x00
7.198313600000000,,0x21,0x00
7.201290800000000,,0x06,0x00
7.204268000000000,,0x15,0x00
7.207245400000000,,0x0B,0x00
7.210222800000000,,0x37,0x00
7.213200200000000,,0x82,0x00
7.216177400000000,,0x45,0x00
7.252456800000000,,0xB0,0x00
7.254881200000000,,0x40,0xFF
7.257858600000000,,0x21,0x00
7.260835800000000,,0x8E,0x00
7.263813000000000,,0x15,0x00
7.266790200000000,,0x0B,0x00
7.269767600000000,,0x37,0x00
7.272745000000000,,0x82,0x00
7.275722200000000,,0xCD,0x00
7.312063600000000,,0xB0,0x00
7.314427000000000,,0x40,0x00
7.317404400000000,,0x21,0x00
7.320381400000000,,0x06,0x00
7.323358800000000,,0x15,0x00
7.326336000000000,,0x0B,0x00
7.329313200000000,,0x37,0x00
7.332290400000000,,0x82,0x00
7.335267800000000,,0x45,0x00
7.371371200000000,,0xB0,0x0B
7.373971000000000,,0x40,0x0D
7.376948200000000,,0x21,0x00
7.379925200000000,,0x8E,0x00
7.382902600000000,,0x15,0x47
7.385879600000000,,0x0B,0x66
7.388857000000000,,0x37,0x00
7.391834200000000,,0x82,0x00
7.394811600000000,,0xCD,0x1A
7.431201000000000,,0xB0,0x0B
7.433516600000000,,0x40,0x0D
7.436493600000000,,0x21,0x00
7.439470600000000,,0x06,0x00
7.442447800000000,,0x15,0x47
7.445425000000000,,0x0B,0x66
7.448402000000000,,0x37,0x00
7.451379200000000,,0x82,0x00
7.454356400000000,,0x45,0x1A
7.490803800000000,,0xB0,0x0B
7.493060000000000,,0x40,0x0D
7.496037200000000,,0x21,0x00
7.499014400000000,,0x8E,0x00
7.501991800000000,,0x15,0x47
7.504969000000000,,0x0B,0x66
7.507946400000000,,0x37,0x00
7.510923800000000,,0x82,0x00
7.513901000000000,,0xCD,0x1A
7.550023800000000,,0xB0,0x0B
7.552606400000000,,0x40,0x0D
7.555583600000000,,0x21,0x00
7.558561000000000,,0x06,0x00
7.561538400000000,,0x15,0x47
7.564515800000000,,0x0B,0x66
7.567493200000000,,0x37,0x00
7.570470400000000,,0x82,0x00
7.573447800000000,,0x45,0x1A
7.609766200000000,,0xB0,0x0B
7.612152400000000,,0x40,0x0D
7.615129800000000,,0x21,0x00
7.618107000000000,,0x8E,0x00
7.621084200000000,,0x15,0x47
7.624061400000000,,0x0B,0x66
7.627038800000000,,0x37,0x00
7.630016000000000,,0x82,0x00
7.632993200000000,,0xCD,0x1A
7.669488400000000,,0xB0,0x0B
7.671697200000000,,0x40,0x0D
7.674674600000000,,0x21,0x00
7.677651800000000,,0x06,0x00
7.680629000000000,,0x15,0x47
7.683606400000000,,0x0B,0x66
7.686583600000000,,0x37,0x00
7.689561000000000,,0x82,0x00
7.692538200000000,,0x45,0x1A
7.728683800000000,,0xB0,0x0B
7.731243000000000,,0x40,0x0D
7.734220200000000,,0x21,0x00
7.737197400000000,,0x8E,0x00
7.740174600000000,,0x15,0x47
7.743152000000000,,0x0B,0x66
7.746129400000000,,0x38,0x00
7.749106600000000,,0x82,0x00
7.752084000000000,,0xCE,0x1A
7.788409600000000,,0xB0,0x0B
7.790788800000000,,0x40,0x0D
7.793766200000000,,0x21,0x00
7.796743600000000,,0x06,0x00
7.799721000000000,,0x15,0x47
7.802698400000000,,0x0B,0x66
7.805675600000000,,0x38,0x00
7.808653000000000,,0x82,0x00
7.811630000000000,,0x46,0x1A
7.848148800000000,,0xB0,0x0B
7.850333600000000,,0x40,0x0D
7.853310800000000,,0x21,0x00
7.856288000000000,,0x8E,0x00
7.859265200000000,,0x15,0x47
7.862242200000000,,0x0B,0x66
7.865219400000000,,0x38,0x00
7.868196600000000,,0x82,0x00
7.871173600000000,,0xCE,0x1A
7.907354600000000,,0xB0,0x0B
7.909876800000000,,0x40,0x0D
7.912854000000000,,0x21,0x00
7.915831400000000,,0x06,0x00
7.918808600000000,,0x15,0x47
7.921786000000000,,0x0B,0x66
7.924763400000000,,0x38,0x00
7.927740400000000,,0x82,0x00
7.930717600000000,,0x46,0x1A
7.967078600000000,,0xB0,0x0B
7.969422200000000,,0x40,0x0D
7.972399400000000,,0x21,0x00
7.975376600000000,,0x8E,0x00
7.978354000000000,,0x15,0x47
7.981331200000000,,0x0B,0x66
7.984308600000000,,0x38,0x00
7.987285600000000,,0x82,0x00
7.990262800000000,,0xCE,0x1A
8.026825799999999,,0xB0,0x0B
8.028966799999999,,0x40,0x0D
8.031943999999999,,0x21,0x00
8.034921000000001,,0x06,0x00
8.037898200000001,,0x15,0x47
8.040875399999999,,0x0B,0x66
8.043852599999999,,0x38,0x00
8.046830000000000,,0x82,0x00
8.049807200000000,,0x46,0x1A
8.086017600000000,,0xB0,0x0B
8.088512000000000,,0x40,0x0D
8.091489200000000,,0x21,0x00
8.094466600000001,,0x8E,0x00
8.097443800000001,,0x15,0x47
8.100421000000001,,0x0B,0x66
8.103398200000001,,0x38,0x00
8.106375600000000,,0x82,0x00
8.109353000000000,,0xCE,0x1A
8.145757800000000,,0xB0,0x0B
8.148056400000000,,0x40,0x20
8.151033399999999,,0x21,0x00
8.154010599999999,,0x06,0x14
8.156987800000000,,0x15,0x47
8.159964799999999,,0x0B,0x66
8.162942200000000,,0x38,0x05
8.165919400000000,,0x82,0x00
8.168896600000000,,0x46,0x46
8.205055600000000,,0xB0,0x0B
8.207600400000000,,0x40,0x20
8.210577600000001,,0x21,0x00
8.213554999999999,,0x8E,0x14
8.216532400000000,,0x15,0x47
8.219509800000001,,0x0B,0x66
8.222487200000000,,0x38,0x05
8.225464600000000,,0x82,0x00
8.228442200000000,,0xCE,0x46
8.264645800000000,,0xB0,0x0B
8.267148600000001,,0x40,0x20
8.270125999999999,,0x21,0x00
8.273103400000000,,0x06,0x13
8.276080800000001,,0x15,0x47
8.279058400000000,,0x0B,0x66
8.282035799999999,,0x38,0x05
8.285013400000000,,0x82,0x00
8.287991000000000,,0x46,0x45
8.324216000000000,,0xB0,0x0B
8.326697400000000,,0x40,0x20
8.329674799999999,,0x21,0x00
8.332652200000000,,0x8E,0x12
8.335629600000001,,0x15,0x47
8.338607000000000,,0x0B,0x66
8.341584400000000,,0x38,0x05
8.344561799999999,,0x82,0x00
8.347538999999999,,0xCE,0x44
8.383872800000001,,0xB0,0x0B
8.386243800000001,,0x40,0x20
8.389221200000000,,0x21,0x00
8.392198400000000,,0x06,0x12
8.395175800000001,,0x15,0x47
8.398153199999999,,0x0B,0x66
8.401130600000000,,0x38,0x05
8.404108000000001,,0x82,0x00
8.407085199999999,,0x46,0x44
8.443200600000001,,0xB0,0x0B
8.445790600000000,,0x40,0x20
8.448767800000001,,0x21,0x00
8.451745200000000,,0x8E,0x11
8.454722400000000,,0x15,0x47
8.457699600000000,,0x0B,0x66
8.460676800000000,,0x38,0x05
8.463654200000001,,0x82,0x00
8.466631400000001,,0xCE,0x43
8.502869600000000,,0xB0,0x0B
8.505334200000000,,0x40,0x20
8.508311400000000,,0x21,0x00
8.511288199999999,,0x06,0x11
8.514265399999999,,0x15,0x47
8.517242400000001,,0x0B,0x66
8.520219400000000,,0x38,0x05
8.523196600000000,,0x82,0x00
8.526173600000000,,0x46,0x43
8.562524600000000,,0xB0,0x0B
8.564877200000000,,0x40,0x20
8.567854400000000,,0x21,0x00
8.570831399999999,,0x8E,0x10
8.573808600000000,,0x15,0x47
8.576785800000000,,0x0B,0x66
8.579762799999999,,0x38,0x05
8.582739999999999,,0x82,0x00
8.585717400000000,,0xCE,0x42
8.621846400000001,,0xB0,0x0B
8.624420000000001,,0x40,0x20
8.627397000000000,,0x21,0x00
8.630374200000000,,0x06,0x0F
8.633351400000000,,0x15,0x47
8.636328799999999,,0x0B,0x66
8.639305999999999,,0x38,0x05
8.642283200000000,,0x82,0x00
8.645260400000000,,0x46,0x41
8.681530600000000,,0xB0,0x0B
8.683964000000000,,0x40,0x20
8.686941200000000,,0x21,0x00
8.689918400000000,,0x8E,0x0F
8.692895600000000,,0x15,0x47
8.695873000000001,,0x0B,0x66
8.698850000000000,,0x38,0x05
8.701827200000000,,0x82,0x00
8.704804400000000,,0xCE,0x41
8.741156399999999,,0xB0,0x0B
8.743508400000000,,0x40,0x20
8.746485399999999,,0x21,0x00
8.749462599999999,,0x06,0x0E
8.752439799999999,,0x15,0x47
8.755417000000000,,0x0B,0x66
8.758394200000000,,0x39,0x05
8.761371600000000,,0x82,0x00
8.764348800000000,,0x47,0x40
8.800755600000000,,0xB0,0x0B
8.803053200000001,,0x40,0x20
8.806030399999999,,0x21,0x00
8.809007599999999,,0x8E,0x0E
8.811984799999999,,0x15,0x47
8.814962200000000,,0x0B,0x66
8.817939400000000,,0x39,0x05
8.820916600000000,,0x82,0x00
8.823893800000000,,0xCF,0x40
8.859988800000000,,0xB0,0x0B
8.862599400000001,,0x40,0x20
8.865576600000001,,0x21,0x00
8.868554000000000,,0x06,0x0D
8.871531200000000,,0x15,0x47
8.874508600000000,,0x0B,0x66
8.877485999999999,,0x39,0x05
8.880463400000000,,0x82,0x00
8.883440600000000,,0x47,0x3F
8.919589800000001,,0xB0,0x0B
8.922144800000000,,0x40,0x20
8.925122000000000,,0x21,0x00
8.928099200000000,,0x8E,0x0D
8.931076400000000,,0x15,0x47
8.934053600000000,,0x0B,0x66
8.937030800000000,,0x39,0x05
8.940008000000001,,0x82,0x00
8.942985400000000,,0xCF,0x3F
8.979173200000000,,0xB0,0x0B
8.981689400000000,,0x40,0x20
8.984666600000001,,0x21,0x00
8.987644000000000,,0x06,0x0C
8.990621200000000,,0x15,0x47
8.993598400000000,,0x0B,0x66
8.996575600000000,,0x39,0x05
8.999552800000000,,0x82,0x00
9.002530000000000,,0x47,0x3E
9.038777800000000,,0xB0,0x0B
9.041234200000000,,0x40,0x20
9.044211400000000,,0x21,0x00
9.047188600000000,,0x8E,0x0B
9.050165800000000,,0x15,0x47
9.053143000000000,,0x0B,0x66
9.056120000000000,,0x39,0x05
9.059097000000000,,0x82,0x00
9.062074200000000,,0xCF,0x3D
9.098343200000000,,0xB0,0x0B
9.100776400000001,,0x40,0x20
9.103753599999999,,0x21,0x00
9.106730799999999,,0x06,0x0B
9.109707999999999,,0x15,0x47
9.112685000000001,,0x0B,0x66
9.115662199999999,,0x39,0x05
9.118639200000000,,0x82,0x00
9.121616200000000,,0x47,0x3D
9.157995600000000,,0xB0,0x0B
9.160319599999999,,0x40,0x20
9.163296799999999,,0x21,0x00
9.166274000000000,,0x8E,0x0A
9.169251200000000,,0x15,0x47
9.172228199999999,,0x0B,0x66
9.175205200000001,,0x39,0x05
9.178182400000001,,0x82,0x00
9.181159400000000,,0xCF,0x3C
9.217318000000001,,0xB0,0x0B
9.219862400000000,,0x40,0x20
9.222839600000000,,0x21,0x00
9.225816600000000,,0x06,0x0A
9.228793599999999,,0x15,0x47
9.231770800000000,,0x0B,0x66
9.234747799999999,,0x39,0x05
9.237724999999999,,0x82,0x00
9.240702000000001,,0x47,0x3C
9.276969400000000,,0xB0,0x0B
9.279404599999999,,0x40,0x20
9.282381800000000,,0x21,0x00
9.285358799999999,,0x8E,0x09
9.288335800000000,,0x15,0x47
9.291312800000000,,0x0B,0x66
9.294290000000000,,0x39,0x05
9.297267200000000,,0x82,0x00
9.300244200000000,,0xCF,0x3B
9.336632800000000,,0xB0,0x0B
9.338946200000001,,0x40,0x20
9.341923400000001,,0x21,0x00
9.344900400000000,,0x06,0x08
9.347877400000000,,0x15,0x47
9.350854399999999,,0x0B,0x66
9.353831400000001,,0x39,0x05
9.356808400000000,,0x82,0x00
9.359785600000000,,0x47,0x3A
9.395951000000000,,0xB0,0x0B
9.398488199999999,,0x40,0x20
9.401465399999999,,0x21,0x00
9.404442599999999,,0x8E,0x08
9.407419800000000,,0x15,0x47
9.410397000000000,,0x0B,0x66
9.413374200000000,,0x39,0x05
9.416351400000000,,0x82,0x00
9.419328600000000,,0xCF,0x3A
9.455602400000000,,0xB0,0x0B
9.458032200000000,,0x40,0x20
9.461009400000000,,0x21,0x00
9.463986600000000,,0x06,0x07
9.466963800000000,,0x15,0x47
9.469940800000000,,0x0B,0x66
9.472917799999999,,0x39,0x05
9.475894800000001,,0x82,0x00
9.478871800000000,,0x47,0x39
9.514949200000000,,0xB0,0x0B
9.517574800000000,,0x40,0x20
9.520551800000000,,0x21,0x00
9.523529000000000,,0x8E,0x07
9.526506200000000,,0x15,0x47
9.529483200000000,,0x0B,0x66
9.532460199999999,,0x39,0x05
9.535437399999999,,0x82,0x00
9.538414400000001,,0xCF,0x39
9.574530800000000,,0xB0,0x0B
9.577116600000000,,0x40,0x20
9.580093600000000,,0x21,0x00
9.583070800000000,,0x06,0x06
9.586048000000000,,0x15,0x47
9.589024999999999,,0x0B,0x66
9.592002200000000,,0x39,0x05
9.594979400000000,,0x82,0x00
9.597956600000000,,0x47,0x38
9.634128400000000,,0xB0,0x0B
9.636660400000000,,0x40,0x20
9.639637400000000,,0x21,0x00
9.642614399999999,,0x8E,0x05
9.645591400000001,,0x15,0x47
9.648568600000001,,0x0B,0x66
9.651545600000000,,0x39,0x05
9.654522800000001,,0x82,0x00
9.657500000000001,,0xCF,0x37
9.693739799999999,,0xB0,0x0B
9.696202599999999,,0x40,0x20
9.699179800000000,,0x21,0x00
9.702157000000000,,0x06,0x05
9.705133999999999,,0x15,0x47
9.708111000000001,,0x0B,0x66
9.711088000000000,,0x39,0x05
9.714065400000001,,0x82,0x00
9.717042599999999,,0x47,0x37
9.753334600000001,,0xB0,0x0B
9.755746600000000,,0x40,0x20
9.758723800000000,,0x21,0x00
9.761701199999999,,0x8E,0x04
9.764678200000001,,0x15,0x47
9.767655400000001,,0x0B,0x66
9.770632600000001,,0x3A,0x05
9.773609600000000,,0x82,0x00
9.776586800000000,,0xD0,0x36
9.812934400000000,,0xB0,0x0B
9.815291400000000,,0x40,0x20
9.818268600000000,,0x21,0x00
9.821245599999999,,0x06,0x04
9.824223000000000,,0x15,0x47
9.827200200000000,,0x0B,0x66
9.830177400000000,,0x3A,0x05
9.833154600000000,,0x82,0x00
9.836131800000000,,0x48,0x36
9.872517800000001,,0xB0,0x0B
9.874836000000000,,0x40,0x20
9.877813200000000,,0x21,0x00
9.880790400000000,,0x8E,0x03
9.883767600000001,,0x15,0x47
9.886744800000001,,0x0B,0x66
9.889721800000000,,0x3A,0x05
9.892698800000000,,0x82,0x00
9.895676000000000,,0xD0,0x35
9.931923400000001,,0xB0,0x0B
9.934377599999999,,0x40,0x20
9.937354600000001,,0x21,0x00
9.940331600000000,,0x06,0x02
9.943308800000001,,0x15,0x47
9.946286199999999,,0x0B,0x66
9.949263400000000,,0x3A,0x05
9.952240600000000,,0x82,0x00
9.955217599999999,,0x48,0x34
9.991361400000001,,0xB0,0x0B
9.993918200000000,,0x40,0x20
9.996895200000001,,0x21,0x00
9.999872200000000,,0x8E,0x02
10.002849200000000,,0x15,0x47
10.005826000000001,,0x0B,0x66
10.008803000000000,,0x3A,0x05
10.011780000000000,,0x82,0x00
10.014756999999999,,0xD0,0x34
10.051117000000000,,0xB0,0x0B
10.053459000000000,,0x40,0x20
10.056436200000000,,0x21,0x00
10.059413200000000,,0x06,0x01
10.062390199999999,,0x15,0x47
10.065367200000001,,0x0B,0x66
10.068344200000000,,0x3A,0x05
10.071321400000000,,0x82,0x00
10.074298400000000,,0x48,0x33
10.110545000000000,,0xB0,0x0B
10.112999600000000,,0x40,0x20
10.115976600000000,,0x21,0x00
10.118953400000001,,0x8E,0x01
10.121930400000000,,0x15,0x47
10.124907600000000,,0x0B,0x66
10.127884800000000,,0x3A,0x05
10.130862000000000,,0x82,0x00
10.133839000000000,,0xD0,0x33
10.169962999999999,,0xB0,0x0B
10.172542399999999,,0x40,0x20
10.175519599999999,,0x21,0x00
10.178496800000000,,0x06,0x00
10.181473799999999,,0x15,0x47
10.184450800000000,,0x0B,0x66
10.187428000000001,,0x3A,0x05
10.190405200000001,,0x82,0x00
10.193382400000001,,0x48,0x32
10.229680999999999,,0xB0,0x0B
10.232086199999999,,0x40,0x20
10.235063200000001,,0x21,0x00
10.238040000000000,,0x8E,0x00
10.241017200000000,,0x15,0x47
10.243994199999999,,0x0B,0x66
10.246971000000000,,0x3A,0x05
10.249947799999999,,0x82,0x00
10.252924600000000,,0xD0,0x32
10.289185399999999,,0xB0,0x0B
10.291625200000000,,0x40,0x20
10.294602200000000,,0x21,0x00
10.297579199999999,,0x06,0x00
10.300556200000001,,0x15,0x47
10.303533200000000,,0x0B,0x66
10.306510400000001,,0x3A,0x05
10.309487200000000,,0x82,0x00
10.312464400000000,,0x48,0x32
10.348673000000000,,0xB0,0x0B
10.351164600000001,,0x40,0x20
10.354141600000000,,0x21,0x00
10.357118600000000,,0x8E,0x00
10.360095599999999,,0x15,0x47
10.363072600000001,,0x0B,0x66
10.366049600000000,,0x3A,0x05
10.369026800000000,,0x82,0x00
10.372004199999999,,0xD0,0x32
10.408179000000001,,0xB0,0x0B
10.410705000000000,,0x40,0x20
10.413682000000000,,0x21,0x00
10.416658999999999,,0x06,0x00
10.419636000000001,,0x15,0x47
10.422613200000001,,0x0B,0x66
10.425590200000000,,0x3A,0x05
10.428567400000000,,0x82,0x00
10.431544400000000,,0x48,0x32
10.467667600000000,,0xB0,0x0B
10.470244800000000,,0x40,0x20
10.473221799999999,,0x21,0x00
10.476198800000001,,0x8E,0x00
10.479175800000000,,0x15,0x47
10.482152599999999,,0x0B,0x66
10.485129400000000,,0x3A,0x05
10.488106600000000,,0x82,0x00
10.491083400000001,,0xD0,0x32
10.527168800000000,,0xB0,0x0B
10.529783399999999,,0x40,0x20
10.532760400000001,,0x21,0x00
10.535737400000000,,0x06,0x00
10.538714400000000,,0x15,0x47
10.541691399999999,,0x0B,0x66
10.544668200000000,,0x3A,0x05
10.547645200000000,,0x82,0x00
10.550622400000000,,0x48,0x32
10.587172000000001,,0xB0,0x0B
10.589324000000000,,0x40,0x20
10.592301200000000,,0x21,0x00
10.595278199999999,,0x8E,0x00
10.598255399999999,,0x15,0x47
10.601232400000001,,0x0B,0x66
10.604209400000000,,0x3A,0x05
10.607186600000000,,0x82,0x00
10.610163800000000,,0xD0,0x32
10.646660600000001,,0xB0,0x0B
10.648865400000000,,0x40,0x20
10.651842400000000,,0x21,0x00
10.654819600000000,,0x06,0x00
10.657796800000000,,0x15,0x47
10.660773799999999,,0x0B,0x66
10.663750800000001,,0x3A,0x05
10.666728000000001,,0x82,0x00
10.669705199999999,,0x48,0x32
10.705791800000000,,0xB0,0x0B
10.708407200000000,,0x40,0x20
10.711384400000000,,0x21,0x00
10.714361400000000,,0x8E,0x00
10.717338399999999,,0x15,0x47
10.720315400000000,,0x0B,0x66
10.723292400000000,,0x3B,0x05
10.726269600000000,,0x82,0x00
10.729246800000000,,0xD1,0x32
10.765780200000000,,0xB0,0x0B
10.767947400000001,,0x40,0x20
10.770924400000000,,0x21,0x00
10.773901400000000,,0x06,0x00
10.776878399999999,,0x15,0x47
10.779855400000001,,0x0B,0x66
10.782832400000000,,0x3B,0x05
10.785809400000000,,0x82,0x00
10.788786399999999,,0x49,0x32
10.825286999999999,,0xB0,0x0B
10.827488199999999,,0x40,0x20
10.830465200000001,,0x21,0x00
10.833442399999999,,0x8E,0x00
10.836419400000000,,0x15,0x47
10.839396400000000,,0x0B,0x66
10.842373400000000,,0x3B,0x05
10.845350600000000,,0x82,0x00
10.848327599999999,,0xD1,0x32
10.884791800000000,,0xB0,0x0B
10.887029399999999,,0x40,0x20
10.890006400000001,,0x21,0x00
10.892983400000000,,0x06,0x00
10.895960400000000,,0x15,0x47
10.898937200000001,,0x0B,0x66
10.901914200000000,,0x3B,0x05
10.904891400000000,,0x82,0x00
10.907868400000000,,0x49,0x32
10.944279399999999,,0xB0,0x0B
10.946569800000001,,0x40,0x20
10.949546800000000,,0x21,0x00
10.952524000000000,,0x8E,0x00
10.955501000000000,,0x15,0x47
10.958478200000000,,0x0B,0x66
10.961455200000000,,0x3B,0x05
10.964432199999999,,0x82,0x00
10.967409399999999,,0xD1,0x32
11.003791800000000,,0xB0,0x0B
11.006111199999999,,0x40,0x20
11.009088400000000,,0x21,0x00
11.012065600000000,,0x06,0x00
11.015042800000000,,0x15,0x47
11.018019799999999,,0x0B,0x66
11.020996800000001,,0x3B,0x05
11.023973800000000,,0x82,0x00
11.026950800000000,,0x49,0x32
11.063278600000000,,0xB0,0x0B
11.065651799999999,,0x40,0x20
11.068629000000000,,0x21,0x00
11.071605800000000,,0x8E,0x00
11.074582800000000,,0x15,0x47
11.077559800000000,,0x0B,0x66
11.080536600000000,,0x3B,0x05
11.083513800000000,,0x82,0x00
11.086491000000001,,0xD1,0x32
11.122782800000000,,0xB0,0x0B
11.125192600000000,,0x40,0x20
11.128169600000000,,0x21,0x00
11.131146599999999,,0x06,0x00
11.134123600000001,,0x15,0x47
11.137100600000000,,0x0B,0x66
11.140077800000000,,0x3B,0x05
11.143054800000000,,0x82,0x00
11.146031799999999,,0x49,0x32
11.182286800000000,,0xB0,0x0B
11.184734000000001,,0x40,0x20
11.187711200000001,,0x21,0x00
11.190688200000000,,0x8E,0x00
11.193665400000000,,0x15,0x47
11.196642400000000,,0x0B,0x66
11.199619600000000,,0x3B,0x05
11.202596800000000,,0x82,0x00
11.205574000000000,,0xD1,0x32
11.241777600000001,,0xB0,0x0B
11.244277200000001,,0x40,0x20
11.247254399999999,,0x21,0x00
11.250231599999999,,0x06,0x00
11.253208600000001,,0x15,0x47
11.256185800000001,,0x0B,0x66
11.259162999999999,,0x3B,0x05
11.262140400000000,,0x82,0x00
11.265117600000000,,0x49,0x32
11.301283600000000,,0xB0,0x0B
11.303821400000000,,0x40,0x20
11.306798600000000,,0x21,0x00
11.309775800000001,,0x8E,0x00
11.312753000000001,,0x15,0x47
11.315730200000001,,0x0B,0x66
11.318707399999999,,0x3B,0x05
11.321684599999999,,0x82,0x00
11.324662000000000,,0xD1,0x32
11.360774599999999,,0xB0,0x0B
11.363366200000000,,0x40,0x20
11.366343400000000,,0x21,0x00
11.369320600000000,,0x06,0x00
11.372297600000000,,0x15,0x47
11.375274800000000,,0x0B,0x66
11.378252000000000,,0x3B,0x05
11.381229200000000,,0x82,0x00
11.384206400000000,,0x49,0x32
11.420284199999999,,0xB0,0x0B
11.422911400000000,,0x40,0x20
11.425888600000000,,0x21,0x00
11.428865999999999,,0x8E,0x00
11.431843199999999,,0x15,0x47
11.434820400000000,,0x0B,0x66
11.437797600000000,,0x3B,0x05
11.440774800000000,,0x82,0x00
11.443752000000000,,0xD1,0x32
11.480292000000000,,0xB0,0x0B
11.482455000000000,,0x40,0x20
11.485432200000000,,0x21,0x00
11.488409400000000,,0x06,0x00
11.491386400000000,,0x15,0x47
11.494363600000000,,0x0B,0x66
11.497340800000000,,0x3B,0x05
11.500318000000000,,0x82,0x00
11.503295200000000,,0x49,0x32
11.539782000000001,,0xB0,0x0B
11.541998200000000,,0x40,0x20
11.544975400000000,,0x21,0x00
11.547952600000000,,0x8E,0x00
11.550929800000000,,0x15,0x47
