Time [s],Packet ID,MOSI,MISO
5.514451000000000,,0xB0,0x00
5.517025600000000,,0x80,0x00
5.520002800000000,,0x30,0x00
5.522979800000000,,0x06,0x00
5.525957000000000,,0x15,0x00
5.528934000000000,,0x0E,0x00
5.531911200000000,,0x0B,0x00
5.534888200000000,,0x82,0x00
5.537865400000000,,0x6B,0x00
5.574053000000000,,0xB0,0x00
5.576569000000000,,0x80,0x00
5.579546400000000,,0x30,0x00
5.582523600000000,,0x8E,0x00
5.585500800000000,,0x15,0x00
5.588478000000000,,0x0E,0x00
5.591455400000000,,0x0B,0x00
5.594432800000000,,0x82,0x00
5.597410000000000,,0xF3,0x00
5.633645400000000,,0xB0,0x00
5.636114200000000,,0x80,0x00
5.639091200000000,,0x30,0x00
5.642068400000000,,0x06,0x00
5.645045400000000,,0x15,0x00
5.648022400000000,,0x0E,0x00
5.650999800000000,,0x0B,0x00
5.653976800000000,,0x82,0x00
5.656954000000000,,0x6B,0x00
5.693250600000000,,0xB0,0x00
5.695656600000000,,0x80,0x00
5.698633800000000,,0x30,0x00
5.701611200000000,,0x8E,0x00
5.704588200000000,,0x15,0x00
5.707565400000000,,0x0E,0x00
5.710542600000000,,0x0B,0xFF
5.713519600000000,,0x82,0x00
5.716496800000000,,0xF3,0x00
5.752573600000000,,0xB0,0x00
5.755199000000000,,0x80,0x00
5.758176200000000,,0x30,0x00
5.761153600000000,,0x06,0x00
5.764130800000000,,0x15,0x00
5.767108200000000,,0x0E,0x00
5.770085400000000,,0x0B,0x00
5.773062600000000,,0x82,0x00
5.776039800000000,,0x6B,0x00
5.812163600000000,,0xB0,0x0B
5.814742600000000,,0x80,0x0D
5.817719800000000,,0x30,0x00
5.820696800000000,,0x8E,0x00
5.823674200000000,,0x15,0x47
5.826651400000000,,0x0E,0x66
5.829628600000000,,0x0B,0x00
5.832605800000000,,0x82,0x00
5.835583000000000,,0xF3,0x1A
5.871703600000000,,0xB0,0x0B
5.874285000000000,,0x80,0x0D
5.877262200000000,,0x30,0x00
5.880239400000000,,0x06,0x00
5.883216400000000,,0x15,0x47
5.886193600000000,,0x0E,0x66
5.889170800000000,,0x0B,0x00
5.892148000000000,,0x82,0x00
5.895125200000000,,0x6B,0x1A
5.931310400000000,,0xB0,0x0B
5.933829000000000,,0x80,0x0D
5.936805800000000,,0x30,0x00
5.939783000000000,,0x8E,0x00
5.942760200000000,,0x15,0x47
5.945737200000000,,0x0E,0x66
5.948714400000000,,0x0B,0x00
5.951691400000000,,0x82,0x00
5.954668600000000,,0xF3,0x1A
5.991051400000000,,0xB0,0x0B
5.993370800000000,,0x80,0x0D
5.996348000000000,,0x30,0x00
5.999325200000000,,0x06,0x00
6.002302400000000,,0x15,0x47
6.005279400000000,,0x0E,0x66
6.008256600000000,,0x0B,0x00
6.011233800000000,,0x82,0x00
6.014210800000000,,0x6B,0x1A
6.050787200000000,,0xB0,0x0B
6.052914000000000,,0x80,0x0D
6.055891200000000,,0x30,0x00
6.058868400000000,,0x8E,0x00
6.061845600000000,,0x15,0x47
6.064822600000000,,0x0E,0x66
6.067799600000000,,0x0B,0x00
6.070776600000000,,0x82,0x00
6.073753800000000,,0xF3,0x1A
6.109975400000000,,0xB0,0x0B
6.112455600000000,,0x80,0x0D
6.115432800000000,,0x30,0x00
6.118409800000000,,0x06,0x00
6.121387000000000,,0x15,0x47
6.124364200000000,,0x0E,0x66
6.127341400000000,,0x0B,0x00
6.130318200000000,,0x82,0x00
6.133295400000000,,0x6B,0x1A
6.169693800000000,,0xB0,0x0B
6.171997800000000,,0x80,0x0D
6.174974800000000,,0x30,0x00
6.177951800000000,,0x8E,0x00
6.180928600000000,,0x15,0x47
6.183905600000000,,0x0E,0x66
6.186882600000000,,0x0C,0x00
6.189859600000000,,0x82,0x00
6.192836600000000,,0xF4,0x1A
6.229413200000000,,0xB0,0x0B
6.231540000000000,,0x80,0x0D
6.234517000000000,,0x30,0x00
6.237494000000000,,0x06,0x00
6.240471000000000,,0x15,0x47
6.243448000000000,,0x0E,0x66
6.246425000000000,,0x0C,0x00
6.249402000000000,,0x82,0x00
6.252379000000000,,0x6C,0x1A
6.288610200000000,,0xB0,0x0B
6.291079400000000,,0x80,0x0D
6.294056200000000,,0x30,0x00
6.297033400000000,,0x8E,0x00
6.300010400000000,,0x15,0x47
6.302987400000000,,0x0E,0x66
6.305964400000000,,0x0C,0x00
6.308941600000000,,0x82,0x00
6.311918800000000,,0xF4,0x1A
6.348345200000000,,0xB0,0x0B
6.350621200000000,,0x80,0x0D
6.353598400000000,,0x30,0x00
6.356575600000000,,0x06,0x00
6.359552600000000,,0x15,0x47
6.362529800000000,,0x0E,0x66
6.365506800000000,,0x0C,0x00
6.368484200000000,,0x82,0x00
6.371461200000000,,0x6C,0x1A
6.407535400000000,,0xB0,0x0B
6.410163800000000,,0x80,0x0D
6.413141000000000,,0x30,0x00
6.416118400000000,,0x8E,0x00
6.419095600000000,,0x15,0x47
6.422072600000000,,0x0E,0x66
6.425049800000000,,0x0C,0x00
6.428027000000000,,0x82,0x00
6.431004200000000,,0xF4,0x1A
6.467279400000000,,0xB0,0x0B
6.469707400000000,,0x80,0x0D
6.472684600000000,,0x30,0x00
6.475661800000000,,0x06,0x00
6.478638800000000,,0x15,0x47
6.481616000000000,,0x0E,0x66
6.484593200000000,,0x0C,0x00
6.487570600000000,,0x82,0x00
6.490547800000000,,0x6C,0x1A
6.527003600000000,,0xB0,0x0B
6.529252000000000,,0x80,0x0D
6.532229000000000,,0x30,0x00
6.535206000000000,,0x8E,0x00
6.538183200000000,,0x15,0x47
6.541160200000000,,0x0E,0x66
6.544137400000000,,0x0C,0x00
6.547114600000000,,0x82,0x00
6.550091800000000,,0xF4,0x1A
6.586211600000000,,0xB0,0x0B
6.588794000000000,,0x80,0x0D
6.591771000000000,,0x30,0x00
6.594748000000000,,0x06,0x00
6.597725000000000,,0x15,0x47
6.600702200000000,,0x0E,0x66
6.603679400000000,,0x0C,0x00
6.606656400000000,,0x82,0x00
6.609633600000000,,0x6C,0x1A
6.645945600000000,,0xB0,0x0B
6.648336000000000,,0x80,0x21
6.651313200000000,,0x30,0x01
6.654290400000000,,0x8E,0x14
6.657267600000000,,0x15,0x47
6.660244600000000,,0x0E,0x66
6.663222000000000,,0x0C,0x05
6.666199000000000,,0x82,0x00
6.669176200000000,,0xF4,0x48
6.705535800000000,,0xB0,0x0B
6.707881800000000,,0x80,0x21
6.710859000000000,,0x30,0x01
6.713836200000000,,0x06,0x13
6.716813400000000,,0x15,0x47
6.719790600000000,,0x0E,0x66
6.722767800000000,,0x0C,0x05
6.725744800000000,,0x82,0x00
6.728722000000000,,0x6C,0x47
6.765024000000000,,0xB0,0x0B
6.767423800000000,,0x80,0x21
6.770401000000000,,0x30,0x01
6.773378000000000,,0x8E,0x13
6.776355000000000,,0x15,0x47
6.779332000000000,,0x0E,0x66
6.782309000000000,,0x0C,0x05
6.785286000000000,,0x82,0x00
6.788263000000000,,0xF4,0x47
6.824597400000000,,0xB0,0x0B
6.826964800000000,,0x80,0x21
6.829941800000000,,0x30,0x01
6.832918800000000,,0x06,0x12
6.835896000000000,,0x15,0x47
6.838873000000000,,0x0E,0x66
6.841850200000000,,0x0C,0x05
6.844827400000000,,0x82,0x00
6.847804600000000,,0x6C,0x46
6.884185800000000,,0xB0,0x0B
6.886507400000000,,0x80,0x21
6.889484600000000,,0x30,0x01
6.892462000000000,,0x8E,0x11
6.895439200000000,,0x15,0x47
6.898416400000000,,0x0E,0x66
6.901393600000000,,0x0C,0x05
6.904370800000000,,0x82,0x00
6.907348000000000,,0xF4,0x45
6.943428800000000,,0xB0,0x0B
6.946051800000000,,0x80,0x21
6.949029200000000,,0x30,0x01
6.952006600000000,,0x06,0x11
6.954984000000000,,0x15,0x47
6.957961400000000,,0x0E,0x66
6.960938600000000,,0x0C,0x45
6.963915800000000,,0x82,0x43
6.966893000000000,,0x6C,0xC8
7.003187400000000,,0xB0,0x0B
7.005596200000000,,0x80,0x21
7.008573200000000,,0x30,0x01
7.011550400000000,,0x8E,0x10
7.014527400000000,,0x15,0x47
7.017504400000000,,0x0E,0x66
7.020481600000000,,0x0C,0x45
7.023458800000000,,0x82,0x43
7.026436200000000,,0xF4,0xC7
7.062639400000000,,0xB0,0x0B
7.065140000000000,,0x80,0x21
7.068117000000000,,0x30,0x01
7.071094200000000,,0x06,0x10
7.074071400000000,,0x15,0x47
7.077048400000000,,0x0E,0x66
7.080025600000000,,0x0C,0x45
7.083003000000000,,0x82,0x43
7.085980200000000,,0x6C,0xC7
7.122077200000000,,0xB0,0x0B
7.124684800000000,,0x80,0x21
7.127662000000000,,0x30,0x02
7.130639200000000,,0x8E,0x0F
7.133616400000000,,0x15,0x47
7.136593600000000,,0x0E,0x66
7.139570800000000,,0x0C,0x45
7.142548200000000,,0x82,0x43
7.145525200000000,,0xF4,0xC7
7.181837000000000,,0xB0,0x0B
7.184229400000000,,0x80,0x21
7.187206600000000,,0x30,0x02
7.190183800000000,,0x06,0x0E
7.193161000000000,,0x15,0x47
7.196138400000000,,0x0E,0x66
7.199115800000000,,0x0D,0x45
7.202093000000000,,0x82,0x43
7.205070400000000,,0x6D,0xC6
7.241155200000000,,0xB0,0x0B
7.243775200000000,,0x80,0x21
7.246752400000000,,0x30,0x02
7.249730000000000,,0x8E,0x0E
7.252707400000000,,0x15,0x47
7.255684600000000,,0x0E,0x66
7.258661800000000,,0x0D,0x45
7.261639200000000,,0x82,0x43
7.264616400000000,,0xF5,0xC6
7.300823800000000,,0xB0,0x0B
7.303320600000000,,0x80,0x21
7.306298000000000,,0x30,0x02
7.309275200000000,,0x06,0x0D
7.312252600000000,,0x15,0x47
7.315229800000000,,0x0E,0x66
7.318207200000000,,0x0D,0x45
7.321184400000000,,0x82,0x43
7.324161800000000,,0x6D,0xC5
7.360509200000000,,0xB0,0x0B
7.362866800000000,,0x80,0x21
7.365844000000000,,0x30,0x02
7.368821200000000,,0x8E,0x0D
7.371798400000000,,0x15,0x47
7.374775600000000,,0x0E,0x66
7.377752800000000,,0x0D,0x45
7.380730000000000,,0x82,0x43
7.383707200000000,,0xF5,0xC5
7.419808800000000,,0xB0,0x0B
7.422411800000000,,0x80,0x21
7.425388800000000,,0x30,0x02
7.428366000000000,,0x06,0x0C
7.431343200000000,,0x15,0x47
7.434320600000000,,0x0E,0x66
7.437298000000000,,0x0D,0x45
7.440275400000000,,0x82,0x43
7.443252400000000,,0x6D,0xC4
7.479501600000000,,0xB0,0x0B
7.481956200000000,,0x80,0x21
7.484933400000000,,0x30,0x02
7.487910600000000,,0x8E,0x0B
7.490888000000000,,0x15,0x47
7.493865200000000,,0x0E,0x66
7.496842600000000,,0x0D,0x45
7.499820000000000,,0x82,0x43
7.502797200000000,,0xF5,0xC3
7.539186800000000,,0xB0,0x0B
7.541502000000000,,0x80,0x21
7.544479000000000,,0x30,0x02
7.547456200000000,,0x06,0x0B
7.550433400000000,,0x15,0x47
7.553410600000000,,0x0E,0x66
7.556387800000000,,0x0D,0x45
7.559365000000000,,0x82,0x43
7.562342200000000,,0x6D,0xC3
7.598621200000000,,0xB0,0x0B
7.601045000000000,,0x80,0x21
7.604022000000000,,0x30,0x02
7.606999000000000,,0x8E,0x0A
7.609976200000000,,0x15,0x47
7.612953200000000,,0x0E,0x66
7.615930400000000,,0x0D,0x45
7.618907600000000,,0x82,0x43
7.621884800000000,,0xF5,0xC2
7.658073600000000,,0xB0,0x0B
7.660588400000000,,0x80,0x21
7.663565800000000,,0x30,0x02
7.666543200000000,,0x06,0x0A
7.669520400000000,,0x15,0x47
7.672497400000000,,0x0E,0x66
7.675474800000000,,0x0D,0x45
7.678452200000000,,0x82,0x43
7.681429400000000,,0x6D,0xC2
7.717510600000000,,0xB0,0x0B
7.720133600000000,,0x80,0x21
7.723110800000000,,0x30,0x02
7.726087800000000,,0x8E,0x09
7.729064800000000,,0x15,0x47
7.732041800000000,,0x0E,0x66
7.735019000000000,,0x0D,0x45
7.737996000000000,,0x82,0x43
7.740973200000000,,0xF5,0xC1
7.777323600000000,,0xB0,0x0B
7.779675600000000,,0x80,0x21
7.782652600000000,,0x30,0x02
7.785629600000000,,0x06,0x08
7.788606600000000,,0x15,0x47
7.791583800000000,,0x0E,0x66
7.794560800000000,,0x0D,0x45
7.797537800000000,,0x82,0x43
7.800515000000000,,0x6D,0xC0
7.836774400000000,,0xB0,0x0B
7.839217600000000,,0x80,0x21
7.842194600000000,,0x30,0x02
7.845171800000000,,0x8E,0x08
7.848148800000000,,0x15,0x47
7.851126000000000,,0x0E,0x66
7.854103000000000,,0x0D,0x45
7.857080000000000,,0x82,0x43
7.860057000000000,,0xF5,0xC0
7.896209800000000,,0xB0,0x0B
7.898760000000000,,0x80,0x21
7.901737000000000,,0x30,0x02
7.904714200000000,,0x06,0x07
7.907691400000000,,0x15,0x47
7.910668800000000,,0x0E,0x66
7.913646000000000,,0x0D,0x45
7.916623200000000,,0x82,0x43
7.919600200000000,,0x6D,0xBF
7.955657400000000,,0xB0,0x0B
7.958303400000000,,0x80,0x21
7.961280400000000,,0x30,0x02
7.964257600000000,,0x8E,0x07
7.967234600000000,,0x15,0x47
7.970211600000000,,0x0E,0x66
7.973188800000000,,0x0D,0x45
7.976166000000000,,0x82,0x43
7.979143000000000,,0xF5,0xBF
8.015323000000000,,0xB0,0x0B
8.017845200000000,,0x80,0x21
8.020822200000000,,0x30,0x02
8.023799199999999,,0x06,0x06
8.026776200000000,,0x15,0x47
8.029753200000000,,0x0E,0x66
8.032730200000000,,0x0D,0x45
8.035707400000000,,0x82,0x43
8.038684600000000,,0x6D,0xBE
8.075003199999999,,0xB0,0x0B
8.077387000000000,,0x80,0x21
8.080364200000000,,0x30,0x02
8.083341400000000,,0x8E,0x06
8.086318400000000,,0x15,0x47
8.089295399999999,,0x0E,0x66
8.092272599999999,,0x0D,0x45
8.095249600000001,,0x82,0x43
8.098226800000001,,0xF5,0xBE
8.134330200000001,,0xB0,0x0B
8.136928599999999,,0x80,0x21
8.139905600000001,,0x30,0x02
8.142882800000001,,0x06,0x05
8.145859800000000,,0x15,0x47
8.148837000000000,,0x0E,0x66
8.151814200000000,,0x0D,0x45
8.154791200000000,,0x82,0x43
8.157768600000001,,0x6D,0xBD
8.193906000000000,,0xB0,0x0B
8.196471600000001,,0x80,0x21
8.199448600000000,,0x30,0x02
8.202426000000001,,0x8E,0x04
8.205403199999999,,0x15,0x47
8.208380200000001,,0x0E,0x66
8.211357400000001,,0x0E,0x45
8.214334400000000,,0x82,0x43
8.217311400000000,,0xF6,0xBC
8.253588000000001,,0xB0,0x0B
8.256013200000000,,0x80,0x21
8.258990200000000,,0x30,0x02
8.261967200000001,,0x06,0x04
8.264944200000000,,0x15,0x47
8.267921200000000,,0x0E,0x66
8.270898200000000,,0x0E,0x45
8.273875200000001,,0x82,0x43
8.276852399999999,,0x6E,0xBC
8.313253800000000,,0xB0,0x0B
8.315554799999999,,0x80,0x21
8.318531999999999,,0x30,0x02
8.321509199999999,,0x8E,0x03
8.324486200000001,,0x15,0x47
8.327463200000000,,0x0E,0x66
8.330440200000000,,0x0E,0x45
8.333417000000001,,0x82,0x43
8.336393800000000,,0xF6,0xBB
8.372780000000001,,0xB0,0x0B
8.375093800000000,,0x80,0x21
8.378070800000000,,0x30,0x02
8.381047799999999,,0x06,0x03
8.384024600000000,,0x15,0x47
8.387001400000001,,0x0E,0x66
8.389978200000000,,0x0E,0x45
8.392955199999999,,0x82,0x43
8.395932000000000,,0x6E,0xBB
8.432007000000000,,0xB0,0x0B
8.434631200000000,,0x80,0x21
8.437608200000000,,0x30,0x02
8.440585199999999,,0x8E,0x02
8.443562000000000,,0x15,0x47
8.446538800000001,,0x0E,0x66
8.449515600000000,,0x0E,0x45
8.452492400000001,,0x82,0x43
8.455469400000000,,0xF6,0xBA
8.491574000000000,,0xB0,0x0B
8.494168800000001,,0x80,0x21
8.497145800000000,,0x30,0x02
8.500122800000000,,0x06,0x01
8.503099600000001,,0x15,0x47
8.506076400000000,,0x0E,0x66
8.509053200000000,,0x0E,0x45
8.512030200000000,,0x82,0x43
8.515007199999999,,0x6E,0xB9
8.551158400000000,,0xB0,0x0B
8.553707200000000,,0x80,0x21
8.556684199999999,,0x30,0x02
8.559661000000000,,0x8E,0x01
8.562637799999999,,0x15,0x47
8.565614600000000,,0x0E,0x66
8.568591600000000,,0x0E,0x45
8.571568400000000,,0x82,0x43
8.574545400000000,,0xF6,0xB9
8.610723999999999,,0xB0,0x0B
8.613244800000000,,0x80,0x21
8.616221599999999,,0x30,0x02
8.619198400000000,,0x06,0x00
8.622175400000000,,0x15,0x47
8.625152000000000,,0x0E,0x66
8.628128800000001,,0x0E,0x45
8.631105800000000,,0x82,0x43
8.634082599999999,,0x6E,0xB8
8.670366400000001,,0xB0,0x0B
8.672780400000001,,0x80,0x21
8.675757200000000,,0x30,0x02
8.678734000000000,,0x8E,0x00
8.681710799999999,,0x15,0x47
8.684687600000000,,0x0E,0x66
8.687664600000000,,0x0E,0x45
8.690641400000001,,0x82,0x43
8.693618400000000,,0xF6,0xB8
8.729882200000000,,0xB0,0x0B
8.732319400000000,,0x80,0x21
8.735296399999999,,0x30,0x02
8.738273400000001,,0x06,0x00
8.741250600000001,,0x15,0x47
8.744227600000000,,0x0E,0x66
8.747204600000000,,0x0E,0x45
8.750181599999999,,0x82,0x43
8.753158600000001,,0x6E,0xB8
8.789385599999999,,0xB0,0x0B
8.791860000000000,,0x80,0x21
8.794836999999999,,0x30,0x02
8.797814000000001,,0x8E,0x00
8.800791000000000,,0x15,0x47
8.803767799999999,,0x0E,0x66
8.806744800000001,,0x0E,0x45
8.809721600000000,,0x82,0x43
8.812698599999999,,0xF6,0xB8
8.848904800000000,,0xB0,0x0B
8.851399400000000,,0x80,0x21
8.854376400000000,,0x30,0x02
8.857353399999999,,0x06,0x00
8.860330599999999,,0x15,0x47
8.863307600000001,,0x0E,0x66
8.866284600000000,,0x0E,0x45
8.869261600000000,,0x82,0x43
8.872238599999999,,0x6E,0xB8
8.908406599999999,,0xB0,0x0B
8.910939000000001,,0x80,0x21
8.913916000000000,,0x30,0x02
8.916893000000000,,0x8E,0x00
8.919869800000001,,0x15,0x47
8.922846600000000,,0x0E,0x66
8.925823400000001,,0x0E,0x45
8.928800200000000,,0x82,0x43
8.931777200000001,,0xF6,0xB8
8.967833600000001,,0xB0,0x0B
8.970476800000000,,0x80,0x21
8.973453599999999,,0x30,0x02
8.976430400000000,,0x06,0x00
8.979407399999999,,0x15,0x47
8.982384400000001,,0x0E,0x66
8.985361200000000,,0x0E,0x45
8.988338199999999,,0x82,0x43
8.991315000000000,,0x6E,0xB8
9.027427599999999,,0xB0,0x0B
9.030013800000001,,0x80,0x21
9.032990800000000,,0x30,0x02
9.035967800000000,,0x8E,0x00
9.038944600000001,,0x15,0x47
9.041921600000000,,0x0E,0x66
9.044898800000000,,0x0E,0x45
9.047875599999999,,0x82,0x43
9.050852600000001,,0xF6,0xB8
9.087009000000000,,0xB0,0x0B
9.089552800000000,,0x80,0x21
9.092529799999999,,0x30,0x02
9.095506600000000,,0x06,0x00
9.098483600000000,,0x15,0x47
9.101460599999999,,0x0E,0x66
9.104437799999999,,0x0E,0x45
9.107414800000001,,0x82,0x43
9.110391999999999,,0x6E,0xB8
9.146532400000000,,0xB0,0x0B
9.149093400000000,,0x80,0x21
9.152070399999999,,0x30,0x02
9.155047400000001,,0x8E,0x00
9.158024599999999,,0x15,0x47
9.161001400000000,,0x0E,0x66
9.163978400000000,,0x0F,0x45
9.166955400000001,,0x82,0x43
9.169932200000000,,0xF7,0xB8
9.206110199999999,,0xB0,0x0B
9.208632000000000,,0x80,0x21
9.211608999999999,,0x30,0x02
9.214586000000001,,0x06,0x00
9.217562800000000,,0x15,0x47
9.220539799999999,,0x0E,0x66
9.223516600000000,,0x0F,0x45
9.226493600000000,,0x82,0x43
9.229470400000000,,0x6F,0xB8
9.265702200000000,,0xB0,0x0B
9.268169400000000,,0x80,0x21
9.271146200000000,,0x30,0x02
9.274122999999999,,0x8E,0x00
9.277100000000001,,0x15,0x47
9.280076800000000,,0x0E,0x66
9.283053799999999,,0x0F,0x45
9.286030800000001,,0x82,0x43
9.289008000000001,,0xF7,0xB8
9.325297000000001,,0xB0,0x0B
9.327708400000001,,0x80,0x21
9.330685200000000,,0x30,0x02
9.333662199999999,,0x06,0x00
9.336639200000000,,0x15,0x47
9.339616200000000,,0x0E,0x66
9.342593000000001,,0x0F,0x45
9.345569800000000,,0x82,0x43
9.348546799999999,,0x6F,0xB8
9.384876600000000,,0xB0,0x0B
9.387245800000001,,0x80,0x21
9.390222600000000,,0x30,0x02
9.393199400000000,,0x8E,0x00
9.396176199999999,,0x15,0x47
9.399152800000000,,0x0E,0x66
9.402129400000000,,0x0F,0x45
9.405106200000001,,0x82,0x43
9.408083000000000,,0xF7,0xB8
9.444475000000001,,0xB0,0x0B
9.446781400000001,,0x80,0x21
9.449758200000000,,0x30,0x02
9.452735000000001,,0x06,0x00
9.455711800000000,,0x15,0x47
9.458688600000000,,0x0E,0x66
9.461665399999999,,0x0F,0x45
9.464642200000000,,0x82,0x43
9.467618999999999,,0x6F,0xB8
9.503681600000000,,0xB0,0x0B
9.506317800000000,,0x80,0x21
9.509294799999999,,0x30,0x02
9.512271800000001,,0x8E,0x00
9.515248800000000,,0x15,0x47
9.518225599999999,,0x0E,0x66
9.521202400000000,,0x0F,0x45
9.524179000000000,,0x82,0x43
9.527156000000000,,0xF7,0xB8
9.563276600000000,,0xB0,0x0B
9.565856600000000,,0x80,0x21
9.568833600000000,,0x30,0x02
9.571810599999999,,0x06,0x00
9.574787799999999,,0x15,0x47
9.577764800000001,,0x0E,0x66
9.580741800000000,,0x0F,0x45
9.583718800000000,,0x82,0x43
9.586695799999999,,0x6F,0xB8
9.622873600000000,,0xB0,0x0B
9.625395599999999,,0x80,0x21
9.628372400000000,,0x30,0x02
9.631349200000001,,0x8E,0x00
9.634326200000000,,0x15,0x47
9.637302999999999,,0x0E,0x66
9.640280000000001,,0x0F,0x45
9.643257000000000,,0x82,0x43
9.646234000000000,,0xF7,0xB8
9.682450400000000,,0xB0,0x0B
9.684934000000000,,0x80,0x21
9.687911000000000,,0x30,0x02
9.690887999999999,,0x06,0x00
9.693864800000000,,0x15,0x47
9.696841800000000,,0x0E,0x66
9.699818799999999,,0x0F,0x45
9.702795600000000,,0x82,0x43
9.705772600000000,,0x6F,0xB8
9.742045200000000,,0xB0,0x0B
9.744472800000000,,0x80,0x21
9.747449800000000,,0x30,0x02
9.750426600000001,,0x8E,0x00
9.753403600000000,,0x15,0x47
9.756380399999999,,0x0E,0x66
9.759357200000000,,0x0F,0x45
9.762334200000000,,0x82,0x43
9.765311000000001,,0xF7,0xB8
9.801626799999999,,0xB0,0x0B
9.804011200000000,,0x80,0x21
9.806988199999999,,0x30,0x02
9.809965200000001,,0x06,0x00
9.812942200000000,,0x15,0x47
9.815918999999999,,0x0E,0x66
9.818896000000001,,0x0F,0x45
9.821873000000000,,0x82,0x43
9.824850000000000,,0x6F,0xB8
9.861223600000001,,0xB0,0x0B
9.863550600000000,,0x80,0x21
9.866527600000000,,0x30,0x02
9.869504600000001,,0x8E,0x00
9.872481600000000,,0x15,0x47
9.875458399999999,,0x0E,0x66
9.878435400000001,,0x0F,0x45
9.881412600000001,,0x82,0x43
9.884389400000000,,0xF7,0xB8
9.920819399999999,,0xB0,0x0B
9.923088999999999,,0x80,0x21
9.926066000000000,,0x30,0x02
9.929042800000000,,0x06,0x00
9.932019600000000,,0x15,0x47
9.934996399999999,,0x0E,0x66
9.937973200000000,,0x0F,0x45
9.940950000000001,,0x82,0x43
9.943927000000000,,0x6F,0xB8
9.980031200000001,,0xB0,0x0B
9.982625799999999,,0x80,0x21
9.985602600000000,,0x30,0x02
9.988579200000000,,0x8E,0x00
9.991555999999999,,0x15,0x47
9.994532800000000,,0x0E,0x66
9.997509600000001,,0x0F,0x45
10.000486400000000,,0x82,0x43
10.003463399999999,,0xF7,0xB8
10.039623400000000,,0xB0,0x0B
10.042163400000000,,0x80,0x21
10.045140200000001,,0x30,0x02
10.048117200000000,,0x06,0x00
10.051094000000001,,0x15,0x47
10.054071000000000,,0x0E,0x66
10.057048000000000,,0x0F,0x45
10.060024800000001,,0x82,0x43
10.063001800000000,,0x6F,0xB8
10.099201000000001,,0xB0,0x0B
10.101701600000000,,0x80,0x21
10.104678399999999,,0x30,0x02
10.107655400000001,,0x8E,0x00
10.110632400000000,,0x15,0x47
10.113609200000001,,0x0E,0x66
10.116586399999999,,0x0F,0x45
10.119563400000001,,0x82,0x43
10.122540200000000,,0xF7,0xB8
10.158725600000000,,0xB0,0x0B
10.161240400000001,,0x80,0x21
10.164217200000000,,0x30,0x02
10.167194000000000,,0x06,0x00
10.170170799999999,,0x15,0x47
10.173147400000000,,0x0E,0x66
10.176124400000001,,0x10,0x45
10.179101200000000,,0x82,0x43
10.182078000000001,,0x70,0xB8
10.218320600000000,,0xB0,0x0B
10.220777600000000,,0x80,0x21
10.223754400000001,,0x30,0x02
10.226731400000000,,0x8E,0x00
10.229708199999999,,0x15,0x47
10.232685000000000,,0x0E,0x66
10.235662000000000,,0x10,0x45
10.238638999999999,,0x82,0x43
10.241615800000000,,0xF8,0xB8
10.277901800000000,,0xB0,0x0B
10.280315999999999,,0x80,0x21
10.283292800000000,,0x30,0x02
10.286269799999999,,0x06,0x00
10.289246800000001,,0x15,0x47
10.292223800000000,,0x0E,0x66
10.295201000000000,,0x10,0x45
10.298178000000000,,0x82,0x43
10.301155000000000,,0x70,0xB8
10.337516600000001,,0xB0,0x0B
10.339855000000000,,0x00,0x21
10.342832200000000,,0x20,0x02
10.345809200000000,,0x8E,0x00
10.348786199999999,,0x15,0x47
10.351763200000001,,0x0E,0x66
10.354740200000000,,0x10,0x45
10.357717200000000,,0x80,0x43
10.360694199999999,,0x66,0xB8
10.396792200000000,,0xB0,0x0B
10.399395000000000,,0x00,0x21
10.402372000000000,,0x20,0x02
10.405348800000001,,0x06,0x00
10.408325800000000,,0x15,0x47
10.411302600000001,,0x0E,0x66
10.414279600000000,,0x10,0x45
10.417256600000000,,0x80,0x43
10.420233600000000,,0xDE,0xB8
10.456454799999999,,0xB0,0x0B
10.458933800000001,,0x00,0x21
10.461910800000000,,0x20,0x02
10.464887600000001,,0x8E,0x00
10.467864400000000,,0x15,0x47
10.470841200000001,,0x0E,0x66
10.473818000000000,,0x10,0x45
10.476794999999999,,0x80,0x43
10.479771800000000,,0x66,0xB8
10.516109600000000,,0xB0,0x0B
10.518472400000000,,0x00,0x21
10.521449199999999,,0x20,0x02
10.524426200000001,,0x06,0x00
10.527403000000000,,0x15,0x47
10.530379999999999,,0x0E,0x66
10.533357000000001,,0x10,0x45
10.536333800000000,,0x80,0x43
10.539310600000000,,0xDE,0xB8
10.575384000000000,,0xB0,0x0B
10.578010600000001,,0x00,0x21
10.580987400000000,,0x20,0x02
10.583964399999999,,0x8E,0x00
10.586941400000001,,0x15,0x47
10.589918400000000,,0x0E,0x66
10.592895400000000,,0x10,0x45
10.595872399999999,,0x80,0x43
10.598849200000000,,0x66,0xB8
10.635038800000000,,0xB0,0x0B
10.637548199999999,,0x00,0x21
10.640525000000000,,0x20,0x02
10.643501799999999,,0x06,0x00
10.646478600000000,,0x15,0x47
10.649455400000001,,0x0E,0x66
10.652432200000000,,0x10,0x45
10.655408800000000,,0x80,0x43
10.658385600000001,,0xDE,0xB8
10.694677600000000,,0xB0,0x0B
10.697084000000000,,0x00,0x21
10.700061000000000,,0x20,0x02
10.703037800000001,,0x8E,0x00
10.706014600000000,,0x15,0x47
10.708991400000000,,0x0E,0x66
10.711968400000000,,0x10,0x45
10.714945200000001,,0x80,0x43
10.717922000000000,,0x66,0xB8
10.754331799999999,,0xB0,0x0B
10.756622200000001,,0x00,0x21
10.759599200000000,,0x20,0x02
10.762576200000000,,0x06,0x00
10.765553199999999,,0x15,0x47
10.768530200000001,,0x0E,0x66
10.771507200000000,,0x10,0x45
10.774484200000000,,0x80,0x43
10.777461199999999,,0xDE,0xB8
10.813624000000001,,0xB0,0x0B
10.816161800000000,,0x00,0x21
10.819138799999999,,0x20,0x02
10.822115800000001,,0x8E,0x00
10.825092800000000,,0x15,0x47
10.828069599999999,,0x0E,0x66
10.831046400000000,,0x10,0x45
10.834023600000000,,0x80,0x43
10.837000400000001,,0x66,0xB8
10.873267600000000,,0xB0,0x0B
10.875701599999999,,0x00,0x21
10.878678799999999,,0x20,0x02
10.881655600000000,,0x06,0x00
10.884632600000000,,0x15,0x47
10.887609599999999,,0x0E,0x66
10.890586400000000,,0x10,0x45
10.893563400000000,,0x80,0x43
10.896540200000000,,0xDE,0xB8
10.932925200000000,,0xB0,0x0B
10.935241599999999,,0x00,0x21
10.938218800000000,,0x20,0x02
10.941196000000000,,0x8E,0x00
10.944172999999999,,0x15,0x47
10.947150000000001,,0x0E,0x66
10.950126800000000,,0x10,0x45
10.953103799999999,,0x80,0x43
10.956080800000001,,0x66,0xB8
10.992202000000001,,0xB0,0x0B
10.994781200000000,,0x00,0x21
10.997758200000000,,0x20,0x02
11.000735000000001,,0x06,0x00
11.003712000000000,,0x15,0x47
11.006688799999999,,0x0E,0x66
11.009665800000001,,0x10,0x45
11.012642600000000,,0x80,0x43
11.015619600000001,,0xDE,0xB8
11.051853200000000,,0xB0,0x0B
11.054318000000000,,0x00,0x21
11.057294799999999,,0x20,0x02
11.060271600000000,,0x8E,0x00
11.063248400000001,,0x15,0x47
11.066224800000001,,0x0E,0x66
11.069201600000000,,0x10,0x45
11.072178400000000,,0x80,0x43
11.075155000000001,,0x66,0xB8
11.111520000000001,,0xB0,0x0B
11.113853000000001,,0x00,0x21
11.116829800000000,,0x20,0x02
11.119806600000000,,0x06,0x00
11.122783399999999,,0x15,0x47
11.125760000000000,,0x0E,0x66
11.128736800000000,,0x10,0x45
11.131713800000000,,0x80,0x43
11.134690600000001,,0xDE,0xB8
