Time [s],Packet ID,MOSI,MISO
0.032803600000000,0,0xB0,0x0B
0.035339200000000,,0x00,0x00
0.038312600000000,,0x20,0x02
0.041286200000000,,0x8E,0x00
0.044259800000000,,0x01,0x07
0.047233400000000,,0x11,0x20
0.050207200000000,,0x1F,0x04
0.053181000000000,,0x80,0x00
0.056154800000000,,0x64,0x8D
0.092516200000000,,0xB0,0x0B
0.094813600000000,,0x00,0x00
0.097787200000000,,0x20,0x02
0.100760800000000,,0x06,0x00
0.103734400000000,,0x01,0x07
0.106708200000000,,0x11,0x20
0.109681600000000,,0x1F,0x04
0.112655400000000,,0x80,0x00
0.115629200000000,,0xDC,0x8D
0.151721600000000,,0xB0,0x0B
0.154287000000000,,0x00,0x00
0.157260800000000,,0x20,0x02
0.160234600000000,,0x8E,0x00
0.163208200000000,,0x01,0x07
0.166181800000000,,0x11,0x20
0.169155400000000,,0x1F,0x04
0.172129000000000,,0x80,0x00
0.175102600000000,,0x64,0x8D
0.211155600000000,,0xB0,0x0B
0.213760000000000,,0x00,0x00
0.216733600000000,,0x20,0x02
0.219707400000000,,0x06,0x00
0.222681200000000,,0x01,0x07
0.225654800000000,,0x11,0x20
0.228628600000000,,0x20,0x04
0.231602200000000,,0x80,0x00
0.234576000000000,,0xDD,0x8D
0.270868400000000,,0xB0,0x0B
0.273233400000000,,0x00,0x00
0.276207200000000,,0x20,0x02
0.279181000000000,,0x8E,0x00
0.282154800000000,,0x01,0x07
0.285128600000000,,0x11,0x20
0.288102400000000,,0x20,0x04
0.291076400000000,,0x80,0x00
0.294050000000000,,0x65,0x8D
0.330072400000000,,0xB0,0x0B
0.332707600000000,,0x00,0x00
0.335681400000000,,0x20,0x02
0.338655000000000,,0x06,0x00
0.341628600000000,,0x01,0x07
0.344602200000000,,0x11,0x20
0.347575600000000,,0x20,0x04
0.350549400000000,,0x80,0x00
0.353523000000000,,0xDD,0x8D
0.389781000000000,,0xB0,0x0B
0.392180000000000,,0x00,0x00
0.395153800000000,,0x20,0x02
0.398127400000000,,0x8E,0x00
0.401101000000000,,0x01,0x07
0.404074600000000,,0x11,0x20
0.407048000000000,,0x20,0x04
0.410021800000000,,0x80,0x00
0.412995400000000,,0x65,0x8D
0.449475800000000,,0xB0,0x0B
0.451654200000000,,0x00,0x00
0.454628000000000,,0x20,0x02
0.457601600000000,,0x06,0x00
0.460575400000000,,0x01,0x07
0.463549200000000,,0x11,0x20
0.466522800000000,,0x20,0x04
0.469496600000000,,0x80,0x00
0.472470200000000,,0xDD,0x8D
0.508699000000000,,0xB0,0x0B
0.511127000000000,,0x00,0x00
0.514100600000000,,0x20,0x02
0.517074400000000,,0x8E,0x00
0.520048000000000,,0x01,0x07
0.523021600000000,,0x11,0x20
0.525995200000000,,0x20,0x04
0.528968800000000,,0x80,0x00
0.531942200000000,,0x65,0x8D
0.568408200000000,,0xB0,0x0B
0.570599400000000,,0x00,0x00
0.573573200000000,,0x20,0x02
0.576546800000000,,0x06,0x00
0.579520600000000,,0x01,0x07
0.582494200000000,,0x11,0x20
0.585468000000000,,0x20,0x04
0.588441800000000,,0x80,0x00
0.591415400000000,,0xDD,0x8D
0.627611800000000,,0xB0,0x0B
0.630073200000000,,0x00,0x00
0.633047000000000,,0x20,0x02
0.636021000000000,,0x8E,0x00
0.638994800000000,,0x01,0x07
0.641968600000000,,0x11,0x20
0.644942400000000,,0x20,0x04
0.647916200000000,,0x80,0x00
0.650890000000000,,0x65,0x8D
0.687324600000000,,0xB0,0x0B
0.689548800000000,,0x00,0x00
0.692522600000000,,0x20,0x02
0.695496400000000,,0x06,0x00
0.698470200000000,,0x01,0x07
0.701443800000000,,0x11,0x20
0.704417600000000,,0x20,0x04
0.707391400000000,,0x80,0x00
0.710365200000000,,0xDD,0x8D
0.746526000000000,,0xB0,0x0B
0.749023800000000,,0x00,0x00
0.751997400000000,,0x20,0x02
0.754970800000000,,0x8E,0x00
0.757944400000000,,0x01,0x07
0.760918000000000,,0x11,0x20
0.763891800000000,,0x20,0x04
0.766865400000000,,0x80,0x00
0.769839000000000,,0x65,0x8D
0.806239000000000,,0xB0,0x0B
0.808496600000000,,0x00,0x00
0.811470200000000,,0x20,0x02
0.814443800000000,,0x06,0x00
0.817417400000000,,0x01,0x07
0.820391000000000,,0x11,0x20
0.823364800000000,,0x20,0x04
0.826338400000000,,0x80,0x00
0.829312200000000,,0xDD,0x8D
0.865458600000000,,0xB0,0x0B
0.867971000000000,,0x00,0x00
0.870944600000000,,0x20,0x02
0.873918400000000,,0x8E,0x00
0.876892200000000,,0x01,0x07
0.879865800000000,,0x11,0x20
0.882839600000000,,0x20,0x04
0.885813200000000,,0x80,0x00
0.888787000000000,,0x65,0x8D
0.925155400000000,,0xB0,0x0B
0.927444400000000,,0x00,0x00
0.930418000000000,,0x20,0x02
0.933391800000000,,0x06,0x00
0.936365600000000,,0x01,0x07
0.939339200000000,,0x11,0x20
0.942312800000000,,0x20,0x04
0.945286600000000,,0x80,0x00
0.948260400000000,,0xDD,0x8D
0.984373800000000,,0xB0,0x0B
0.986917400000000,,0x00,0x00
0.989891000000000,,0x20,0x02
0.992864800000000,,0x8E,0x00
0.995838400000000,,0x01,0x07
0.998812000000000,,0x11,0x20
1.001785800000000,,0x20,0x04
1.004759400000000,,0x80,0x00
1.007733000000000,,0x65,0x8D
1.044069200000000,,0xB0,0x0B
1.046390400000000,,0x00,0x00
1.049364000000000,,0x20,0x02
1.052337800000000,,0x06,0x00
1.055311400000000,,0x01,0x07
1.058284800000000,,0x11,0x20
1.061258200000000,,0x20,0x04
1.064231800000000,,0x80,0x00
1.067205400000000,,0xDD,0x8D
1.103287800000000,,0xB0,0x0B
1.105863200000000,,0x00,0x00
1.108837000000000,,0x20,0x02
1.111810800000000,,0x8E,0x00
1.114784600000000,,0x01,0x07
1.117758200000000,,0x11,0x20
1.120732000000000,,0x20,0x04
1.123705800000000,,0x80,0x00
1.126679600000000,,0x65,0x8D
1.163014800000000,,0xB0,0x0B
1.165338000000000,,0x00,0x00
1.168311600000000,,0x20,0x02
1.171285400000000,,0x06,0x00
1.174259000000000,,0x01,0x07
1.177232600000000,,0x11,0x20
1.180206400000000,,0x20,0x04
1.183180000000000,,0x80,0x00
1.186153800000000,,0xDD,0x8D
1.222410000000000,,0xB0,0x0B
1.224811600000000,,0x00,0x00
1.227785400000000,,0x20,0x02
1.230759000000000,,0x8E,0x00
1.233732800000000,,0x01,0x07
1.236706600000000,,0x11,0x20
1.239680200000000,,0x21,0x04
1.242654000000000,,0x80,0x00
1.245627600000000,,0x66,0x8D
1.282121800000000,,0xB0,0x0B
1.284285200000000,,0x00,0x00
1.287259000000000,,0x20,0x02
1.290232800000000,,0x06,0x00
1.293206600000000,,0x01,0x07
1.296180200000000,,0x11,0x20
1.299154000000000,,0x21,0x04
1.302127600000000,,0x80,0x00
1.305101400000000,,0xDE,0x8D
1.341326200000000,,0xB0,0x0B
1.343760200000000,,0x00,0x00
1.346734000000000,,0x20,0x02
1.349707800000000,,0x8E,0x00
1.352681600000000,,0x01,0x07
1.355655600000000,,0x11,0x20
1.358629400000000,,0x21,0x04
1.361603400000000,,0x80,0x00
1.364577400000000,,0x66,0x8D
1.401041200000000,,0xB0,0x0B
1.403236800000000,,0x00,0x00
1.406210600000000,,0x20,0x02
1.409184200000000,,0x06,0x00
1.412158000000000,,0x01,0x07
1.415131600000000,,0x11,0x20
1.418105200000000,,0x21,0x04
1.421079000000000,,0x80,0x00
1.424052800000000,,0xDE,0x8D
1.460269200000000,,0xB0,0x0B
1.462711400000000,,0x00,0x00
1.465685200000000,,0x20,0x02
1.468659000000000,,0x8E,0x00
1.471632800000000,,0x01,0x07
1.474606600000000,,0x11,0x20
1.477580200000000,,0x21,0x04
1.480554000000000,,0x80,0x00
1.483527800000000,,0x66,0x8D
1.519969400000000,,0xB0,0x0B
1.522187600000000,,0x00,0x00
1.525161400000000,,0x20,0x02
1.528135200000000,,0x06,0x00
1.531109000000000,,0x01,0x07
1.534083000000000,,0x11,0x20
1.537056800000000,,0x21,0x04
1.540030600000000,,0x80,0x00
1.543004400000000,,0xDE,0x8D
1.579189200000000,,0xB0,0x0B
1.581663400000000,,0x00,0x00
1.584637200000000,,0x20,0x02
1.587610800000000,,0x8E,0x00
1.590584600000000,,0x01,0x07
1.593558400000000,,0x11,0x20
1.596532200000000,,0x21,0x04
1.599506200000000,,0x80,0x00
1.602479800000000,,0x66,0x8D
1.638884000000000,,0xB0,0x0B
1.641136600000000,,0x00,0x00
1.644110200000000,,0x20,0x02
1.647083800000000,,0x06,0x00
1.650057400000000,,0x01,0x07
1.653031000000000,,0x11,0x20
1.656004600000000,,0x21,0x04
1.658978200000000,,0x80,0x00
1.661951800000000,,0xDE,0x8D
1.698102200000000,,0xB0,0x0B
1.700610000000000,,0x00,0x00
1.703583800000000,,0x20,0x02
1.706557600000000,,0x8E,0x00
1.709531400000000,,0x01,0x07
1.712505000000000,,0x11,0x20
1.715478800000000,,0x21,0x04
1.718452600000000,,0x80,0x00
1.721426200000000,,0x66,0x8D
1.757814800000000,,0xB0,0x0B
1.760084200000000,,0x00,0x00
1.763058000000000,,0x20,0x02
1.766031800000000,,0x06,0x00
1.769005400000000,,0x01,0x07
1.771979200000000,,0x11,0x20
1.774953000000000,,0x21,0x04
1.777926800000000,,0x80,0x00
1.780900400000000,,0xDE,0x8D
1.817017600000000,,0xB0,0x0B
1.819558200000000,,0x00,0x00
1.822532000000000,,0x20,0x02
1.825505800000000,,0x8E,0x00
1.828479400000000,,0x01,0x07
1.831453200000000,,0x11,0x20
1.834426800000000,,0x21,0x04
1.837400600000000,,0x80,0x00
1.840374200000000,,0x66,0x8D
1.876731600000000,,0xB0,0x0B
1.879031400000000,,0x00,0x00
1.882005200000000,,0x20,0x02
1.884978800000000,,0x06,0x00
1.887952600000000,,0x01,0x07
1.890926200000000,,0x11,0x20
1.893899800000000,,0x21,0x04
1.896873600000000,,0x80,0x00
1.899847400000000,,0xDE,0x8D
1.935932600000000,,0xB0,0x0B
1.938506200000000,,0x00,0x00
1.941480200000000,,0x20,0x02
1.944454000000000,,0x8E,0x00
1.947427800000000,,0x01,0x07
1.950401600000000,,0x11,0x20
1.953375400000000,,0x21,0x04
1.956349200000000,,0x80,0x00
1.959323000000000,,0x66,0x8D
1.995645200000000,,0xB0,0x0B
1.997982000000000,,0x00,0x00
2.000955800000000,,0x20,0x02
2.003929600000000,,0x06,0x00
2.006903400000000,,0x01,0x07
2.009877200000000,,0x11,0x20
2.012851000000000,,0x21,0x04
2.015824800000000,,0x80,0x00
2.018798600000000,,0xDE,0x8D
2.054867600000000,,0xB0,0x0B
2.057457600000000,,0x00,0x00
2.060431400000000,,0x20,0x02
2.063405200000000,,0x8E,0x00
2.066378800000000,,0x01,0x07
2.069352400000000,,0x11,0x20
2.072326200000000,,0x21,0x04
2.075300000000000,,0x80,0x00
2.078273600000000,,0x66,0x8D
2.114566200000000,,0xB0,0x0B
2.116931800000000,,0x00,0x00
2.119905600000000,,0x20,0x02
2.122879200000000,,0x06,0x00
2.125852800000000,,0x01,0x07
2.128826400000000,,0x11,0x20
2.131800000000000,,0x21,0x04
2.134773600000000,,0x80,0x00
2.137747200000000,,0xDE,0x8D
2.173993200000000,,0xB0,0x0B
2.176404600000000,,0x00,0x00
2.179378400000000,,0x20,0x02
2.182352000000000,,0x8E,0x00
2.185325600000000,,0x01,0x07
2.188299400000000,,0x11,0x20
2.191273000000000,,0x22,0x04
2.194246800000000,,0x80,0x00
2.197220400000000,,0x67,0x8D
2.233688600000000,,0xB0,0x0B
2.235877800000000,,0x00,0x00
2.238851200000000,,0x20,0x02
2.241824800000000,,0x06,0x00
2.244798200000000,,0x01,0x07
2.247771800000000,,0x11,0x20
2.250745400000000,,0x22,0x04
2.253719000000000,,0x80,0x00
2.256692600000000,,0xDF,0x8D
2.292907600000000,,0xB0,0x0B
2.295351000000000,,0x00,0x00
2.298324600000000,,0x20,0x02
2.301298400000000,,0x8E,0x00
2.304272200000000,,0x01,0x07
2.307246000000000,,0x11,0x20
2.310219800000000,,0x22,0x04
2.313193400000000,,0x80,0x00
2.316167000000000,,0x67,0x8D
2.352622800000000,,0xB0,0x0B
2.354825600000000,,0x00,0x00
2.357799400000000,,0x20,0x02
2.360773200000000,,0x06,0x00
2.363747000000000,,0x01,0x07
2.366720600000000,,0x11,0x20
2.369694400000000,,0x22,0x04
2.372668200000000,,0x80,0x00
2.375641800000000,,0xDF,0x8D
2.411821600000000,,0xB0,0x0B
2.414299400000000,,0x00,0x00
2.417273200000000,,0x20,0x02
2.420247000000000,,0x8E,0x00
2.423220800000000,,0x01,0x07
2.426194600000000,,0x11,0x20
2.429168200000000,,0x22,0x04
2.432141800000000,,0x80,0x00
2.435115600000000,,0x67,0x8D
2.471540400000000,,0xB0,0x0B
2.473774200000000,,0x00,0x00
2.476747800000000,,0x20,0x02
2.479721600000000,,0x06,0x00
2.482695400000000,,0x01,0x07
2.485669000000000,,0x11,0x20
2.488642800000000,,0x22,0x04
2.491616600000000,,0x80,0x00
2.494590400000000,,0xDF,0x8D
2.530744400000000,,0xB0,0x0B
2.533248800000000,,0x00,0x00
2.536222600000000,,0x20,0x02
2.539196200000000,,0x8E,0x00
2.542170200000000,,0x01,0x07
2.545144000000000,,0x11,0x20
2.548117800000000,,0x22,0x04
2.551091600000000,,0x80,0x00
2.554065400000000,,0x67,0x8D
2.590461400000000,,0xB0,0x0B
2.592725000000000,,0x00,0x00
2.595698800000000,,0x20,0x02
2.598672800000000,,0x06,0x00
2.601646600000000,,0x01,0x07
2.604620400000000,,0x11,0x20
2.607594200000000,,0x22,0x04
2.610568000000000,,0x80,0x00
2.613541600000000,,0xDF,0x8D
2.649681200000000,,0xB0,0x0B
2.652199400000000,,0x00,0x00
2.655173200000000,,0x20,0x02
2.658147000000000,,0x8E,0x00
2.661120600000000,,0x01,0x07
2.664094400000000,,0x11,0x20
2.667068000000000,,0x22,0x04
2.670041800000000,,0x80,0x00
2.673015600000000,,0x67,0x8D
2.709378800000000,,0xB0,0x0B
2.711674800000000,,0x00,0x00
2.714648800000000,,0x20,0x02
2.717622600000000,,0x06,0x00
2.720596200000000,,0x01,0x07
2.723569800000000,,0x11,0x20
2.726543600000000,,0x22,0x04
2.729517400000000,,0x80,0x00
2.732491000000000,,0xDF,0x8D
2.768601400000000,,0xB0,0x0B
2.771150800000000,,0x00,0x00
2.774124600000000,,0x20,0x02
2.777098400000000,,0x8E,0x00
2.780072200000000,,0x01,0x07
2.783045800000000,,0x11,0x20
2.786019600000000,,0x22,0x04
2.788993200000000,,0x80,0x00
2.791966800000000,,0x67,0x8D
2.828298800000000,,0xB0,0x0B
2.830624000000000,,0x00,0x00
2.833597600000000,,0x20,0x02
2.836571200000000,,0x06,0x00
2.839545000000000,,0x01,0x07
2.842518800000000,,0x11,0x20
2.845492400000000,,0x22,0x04
2.848466200000000,,0x80,0x00
2.851440000000000,,0xDF,0x8D
2.887522200000000,,0xB0,0x0B
2.890099200000000,,0x00,0x00
2.893073200000000,,0x20,0x02
2.896047000000000,,0x8E,0x00
2.899020800000000,,0x01,0x07
2.901994600000000,,0x11,0x20
2.904968400000000,,0x22,0x04
2.907942200000000,,0x80,0x00
2.910916000000000,,0x67,0x8D
2.947232200000000,,0xB0,0x0B
2.949574400000000,,0x00,0x00
2.952548000000000,,0x20,0x02
2.955521600000000,,0x06,0x00
2.958495200000000,,0x01,0x07
2.961469000000000,,0x11,0x20
2.964442600000000,,0x22,0x04
2.967416200000000,,0x80,0x00
2.970389800000000,,0xDF,0x8D
3.006436400000000,,0xB0,0x0B
3.009046800000000,,0x00,0x00
3.012020600000000,,0x20,0x02
3.014994200000000,,0x8E,0x00
3.017967800000000,,0x01,0x07
3.020941400000000,,0x11,0x20
3.023914800000000,,0x22,0x04
3.026888600000000,,0x80,0x00
3.029862200000000,,0x67,0x8D
3.066148200000000,,0xB0,0x0B
3.068520200000000,,0x00,0x00
3.071494000000000,,0x20,0x02
3.074467800000000,,0x06,0x00
3.077441400000000,,0x01,0x07
3.080415000000000,,0x11,0x20
3.083388800000000,,0x22,0x04
3.086362400000000,,0x80,0x00
3.089336200000000,,0xDF,0x8D
3.125352600000000,,0xB0,0x0B
3.127993800000000,,0x00,0x00
3.130967400000000,,0x20,0x02
3.133941200000000,,0x8E,0x00
3.136914800000000,,0x01,0x07
3.139888200000000,,0x11,0x20
3.142862000000000,,0x22,0x04
3.145835800000000,,0x80,0x00
3.148809400000000,,0x67,0x8D
3.185275800000000,,0xB0,0x0B
3.187467600000000,,0x00,0x00
3.190441400000000,,0x20,0x02
3.193415400000000,,0x06,0x00
3.196389000000000,,0x01,0x07
3.199362800000000,,0x11,0x20
3.202336400000000,,0x23,0x04
3.205310200000000,,0x80,0x00
3.208284000000000,,0xE0,0x8D
3.244495000000000,,0xB0,0x0B
3.246942400000000,,0x00,0x00
3.249916200000000,,0x20,0x02
3.252889800000000,,0x8E,0x00
3.255863600000000,,0x01,0x07
3.258837200000000,,0x11,0x20
3.261811000000000,,0x23,0x04
3.264784800000000,,0x80,0x00
3.267758600000000,,0x68,0x8D
3.304190800000000,,0xB0,0x0B
3.306417400000000,,0x00,0x00
3.309391000000000,,0x20,0x02
3.312364800000000,,0x06,0x00
3.315338600000000,,0x01,0x07
3.318312400000000,,0x11,0x20
3.321286200000000,,0x23,0x04
3.324260000000000,,0x80,0x00
3.327234000000000,,0xE0,0x8D
3.363412600000000,,0xB0,0x0B
3.365894600000000,,0x00,0x00
3.368868600000000,,0x20,0x02
3.371842400000000,,0x8E,0x00
3.374816400000000,,0x01,0x07
3.377790200000000,,0x11,0x20
3.380764000000000,,0x23,0x04
3.383737800000000,,0x80,0x00
3.386711600000000,,0x68,0x8D
3.423113400000000,,0xB0,0x0B
3.425370600000000,,0x00,0x00
3.428344400000000,,0x20,0x02
3.431318200000000,,0x06,0x00
3.434292200000000,,0x01,0x07
3.437266000000000,,0x11,0x20
3.440239800000000,,0x23,0x04
3.443213600000000,,0x80,0x00
3.446187400000000,,0xE0,0x8D
3.482341800000000,,0xB0,0x0B
3.484845000000000,,0x00,0x00
3.487818600000000,,0x20,0x02
3.490792200000000,,0x8E,0x00
3.493766000000000,,0x01,0x07
3.496739800000000,,0x11,0x20
3.499713600000000,,0x23,0x04
3.502687200000000,,0x80,0x00
3.505661000000000,,0x68,0x8D
3.542054200000000,,0xB0,0x0B
3.544319200000000,,0x00,0x00
3.547292800000000,,0x20,0x02
3.550266600000000,,0x06,0x00
3.553240200000000,,0x01,0x07
3.556214000000000,,0x11,0x20
3.559187600000000,,0x23,0x04
3.562161400000000,,0x80,0x00
3.565135200000000,,0xE0,0x8D
3.601256600000000,,0xB0,0x0B
3.603793800000000,,0x00,0x00
3.606767400000000,,0x20,0x02
3.609741200000000,,0x8E,0x00
3.612714800000000,,0x01,0x07
3.615688400000000,,0x11,0x20
3.618662200000000,,0x23,0x04
3.621636000000000,,0x80,0x00
3.624609400000000,,0x68,0x8D
3.660968400000000,,0xB0,0x0B
3.663268000000000,,0x00,0x00
3.666241600000000,,0x20,0x02
3.669215400000000,,0x06,0x00
3.672189200000000,,0x01,0x07
3.675163000000000,,0x11,0x20
3.678136600000000,,0x23,0x04
3.681110400000000,,0x80,0x00
3.684084200000000,,0xE0,0x8D
3.720172600000000,,0xB0,0x0B
3.722743000000000,,0x00,0x00
3.725716800000000,,0x20,0x02
3.728690400000000,,0x8E,0x00
3.731664200000000,,0x01,0x07
3.734637800000000,,0x11,0x20
3.737611400000000,,0x23,0x04
3.740585200000000,,0x80,0x00
3.743559200000000,,0x68,0x8D
3.779885400000000,,0xB0,0x0B
3.782218600000000,,0x00,0x00
3.785192400000000,,0x20,0x02
3.788166200000000,,0x06,0x00
3.791139800000000,,0x01,0x07
3.794113600000000,,0x11,0x20
3.797087400000000,,0x23,0x04
3.800061200000000,,0x80,0x00
3.803035200000000,,0xE0,0x8D
3.839105400000000,,0xB0,0x0B
3.841694400000000,,0x00,0x00
3.844668400000000,,0x20,0x02
3.847642200000000,,0x8E,0x00
3.850616000000000,,0x01,0x07
3.853589800000000,,0x11,0x20
3.856563600000000,,0x23,0x04
3.859537600000000,,0x80,0x00
3.862511200000000,,0x68,0x8D
3.898805400000000,,0xB0,0x0B
3.901170600000000,,0x00,0x00
3.904144400000000,,0x20,0x02
3.907118200000000,,0x06,0x00
3.910092000000000,,0x01,0x07
3.913065800000000,,0x11,0x20
3.916039600000000,,0x23,0x04
3.919013400000000,,0x80,0x00
3.921987200000000,,0xE0,0x8D
3.958027000000000,,0xB0,0x0B
3.960646000000000,,0x00,0x00
3.963619600000000,,0x20,0x02
3.966593400000000,,0x8E,0x00
3.969567200000000,,0x01,0x07
3.972540800000000,,0x11,0x20
3.975514600000000,,0x23,0x04
3.978488400000000,,0x80,0x00
3.981462200000000,,0x68,0x8D
4.017726400000000,,0xB0,0x0B
4.020121000000000,,0x00,0x00
4.023094600000000,,0x20,0x02
4.026068200000000,,0x06,0x00
4.029042000000000,,0x01,0x07
4.032015600000000,,0x11,0x20
4.034989000000000,,0x23,0x04
4.037962800000000,,0x80,0x00
4.040936400000000,,0xE0,0x8D
4.077436000000000,,0xB0,0x0B
4.079593200000000,,0x00,0x00
4.082567000000000,,0x20,0x02
4.085540600000000,,0x8E,0x00
4.088514200000000,,0x01,0x07
4.091487800000000,,0x11,0x20
4.094461600000000,,0x23,0x04
4.097435400000000,,0x80,0x00
4.100409000000000,,0x68,0x8D
4.136667800000000,,0xB0,0x0B
4.139067200000000,,0x00,0x00
4.142041000000000,,0x20,0x02
4.145014600000000,,0x06,0x00
4.147988200000000,,0x01,0x07
4.150961800000000,,0x11,0x20
4.153935600000000,,0x23,0x04
4.156909200000000,,0x80,0x00
4.159883000000000,,0xE0,0x8D
4.196063600000000,,0xB0,0x0B
4.198540800000000,,0x00,0x00
4.201514400000000,,0x20,0x02
4.204488000000000,,0x8E,0x00
4.207461600000000,,0x01,0x07
4.210435200000000,,0x11,0x20
4.213409000000000,,0x24,0x04
4.216382600000000,,0x80,0x00
4.219356200000000,,0x69,0x8D
4.255774400000000,,0xB0,0x0B
4.258014600000000,,0x00,0x00
4.260988400000000,,0x20,0x02
4.263962000000000,,0x06,0x00
4.266935800000000,,0x01,0x07
4.269909400000000,,0x11,0x20
4.272882800000000,,0x24,0x04
4.275856600000000,,0x80,0x00
4.278830200000000,,0xE1,0x8D
4.314977000000000,,0xB0,0x0B
4.317488200000000,,0x00,0x00
4.320462000000000,,0x20,0x02
4.323435800000000,,0x8E,0x00
4.326409400000000,,0x01,0x07
4.329383000000000,,0x11,0x20
4.332356600000000,,0x24,0x04
4.335330400000000,,0x80,0x00
4.338304000000000,,0x69,0x8D
4.374687600000000,,0xB0,0x0B
4.376961600000000,,0x00,0x00
4.379935400000000,,0x20,0x02
4.382909200000000,,0x06,0x00
4.385882800000000,,0x01,0x07
4.388856600000000,,0x11,0x20
4.391830400000000,,0x24,0x04
4.394804000000000,,0x80,0x00
4.397777600000000,,0xE1,0x8D
4.433914600000000,,0xB0,0x0B
4.436435200000000,,0x00,0x00
4.439409000000000,,0x20,0x02
4.442382800000000,,0x8E,0x00
4.445356400000000,,0x01,0x07
4.448330000000000,,0x11,0x20
4.451303600000000,,0x24,0x04
4.454277400000000,,0x80,0x00
4.457251000000000,,0x69,0x8D
4.493609600000000,,0xB0,0x0B
4.495908000000000,,0x00,0x00
4.498881600000000,,0x20,0x02
4.501855400000000,,0x06,0x00
4.504829200000000,,0x01,0x07
4.507802800000000,,0x11,0x20
4.510776800000000,,0x24,0x04
4.513750600000000,,0x80,0x00
4.516724200000000,,0xE1,0x8D
4.552830600000000,,0xB0,0x0B
4.555382000000000,,0x00,0x00
4.558355800000000,,0x20,0x02
4.561329600000000,,0x8E,0x00
