Time [s],Packet ID,MOSI,MISO
0.032803600000000,0,0xB0,0x0B
0.035339200000000,,0x00,0x00
0.038312600000000,,0x20,0x02
0.041286200000000,,0x8E,0x00
0.044259800000000,,0x01,0x07
0.047233400000000,,0x11,0x20
0.050207200000000,,0x1F,0x04
0.053181000000000,,0x80,0x00
0.056154800000000,,0x64,0x8D
0.092516200000000,,0xB0,0x0B
0.094813600000000,,0x00,0x00
0.097787200000000,,0x20,0x02
0.100760800000000,,0x06,0x00
0.103734400000000,,0x01,0x07
0.106708200000000,,0x11,0x20
0.109681600000000,,0x1F,0x04
0.112655400000000,,0x80,0x00
0.115629200000000,,0xDC,0x8D
0.151721600000000,,0xB0,0x0B
0.154287000000000,,0x00,0x00
0.157260800000000,,0x20,0x02
0.160234600000000,,0x8E,0x00
0.163208200000000,,0x01,0x07
0.166181800000000,,0x11,0x20
0.169155400000000,,0x1F,0x04
0.172129000000000,,0x80,0x00
0.175102600000000,,0x64,0x8D
0.211155600000000,,0xB0,0x0B
0.213760000000000,,0x00,0x00
0.216733600000000,,0x20,0x02
0.219707400000000,,0x06,0x00
0.222681200000000,,0x01,0x07
0.225654800000000,,0x11,0x20
0.228628600000000,,0x20,0x04
0.231602200000000,,0x80,0x00
0.234576000000000,,0xDD,0x8D
0.270868400000000,,0xB0,0x0B
0.273233400000000,,0x00,0x00
0.276207200000000,,0x20,0x02
0.279181000000000,,0x8E,0x00
0.282154800000000,,0x01,0x07
0.285128600000000,,0x11,0x20
0.288102400000000,,0x20,0x04
0.291076400000000,,0x80,0x00
0.294050000000000,,0x65,0x8D
0.330072400000000,,0xB0,0x0B
0.332707600000000,,0x00,0x00
0.335681400000000,,0x20,0x02
0.338655000000000,,0x06,0x00
0.341628600000000,,0x01,0x07
0.344602200000000,,0x11,0x20
0.347575600000000,,0x20,0x04
0.350549400000000,,0x80,0x00
0.353523000000000,,0xDD,0x8D
0.389781000000000,,0xB0,0x0B
0.392180000000000,,0x00,0x00
0.395153800000000,,0x20,0x02
0.398127400000000,,0x8E,0x00
0.401101000000000,,0x01,0x07
0.404074600000000,,0x11,0x20
0.407048000000000,,0x20,0x04
0.410021800000000,,0x80,0x00
0.412995400000000,,0x65,0x8D
0.449475800000000,,0xB0,0x0B
0.451654200000000,,0x00,0x00
0.454628000000000,,0x20,0x02
0.457601600000000,,0x06,0x00
0.460575400000000,,0x01,0x07
0.463549200000000,,0x11,0x20
0.466522800000000,,0x20,0x04
0.469496600000000,,0x80,0x00
0.472470200000000,,0xDD,0x8D
0.508699000000000,,0xB0,0x0B
0.511127000000000,,0x00,0x00
0.514100600000000,,0x20,0x02
0.517074400000000,,0x8E,0x00
0.520048000000000,,0x01,0x07
0.523021600000000,,0x11,0x20
0.525995200000000,,0x20,0x04
0.528968800000000,,0x80,0x00
0.531942200000000,,0x65,0x8D
0.568408200000000,,0xB0,0x0B
0.570599400000000,,0x00,0x00
0.573573200000000,,0x20,0x02
0.576546800000000,,0x06,0x00
0.579520600000000,,0x01,0x07
0.582494200000000,,0x11,0x20
0.585468000000000,,0x20,0x04
0.588441800000000,,0x80,0x00
0.591415400000000,,0xDD,0x8D
0.627611800000000,,0xB0,0x0B
0.630073200000000,,0x00,0x00
0.633047000000000,,0x20,0x02
0.636021000000000,,0x8E,0x00
0.638994800000000,,0x01,0x07
0.641968600000000,,0x11,0x20
0.644942400000000,,0x20,0x04
0.647916200000000,,0x80,0x00
0.650890000000000,,0x65,0x8D
0.687324600000000,,0xB0,0x0B
0.689548800000000,,0x00,0x00
0.692522600000000,,0x20,0x02
0.695496400000000,,0x06,0x00
0.698470200000000,,0x01,0x07
0.701443800000000,,0x11,0x20
0.704417600000000,,0x20,0x04
0.707391400000000,,0x80,0x00
0.710365200000000,,0xDD,0x8D
0.746526000000000,,0xB0,0x0B
0.749023800000000,,0x00,0x00
0.751997400000000,,0x20,0x02
0.754970800000000,,0x8E,0x00
0.757944400000000,,0x01,0x07
0.760918000000000,,0x11,0x20
0.763891800000000,,0x20,0x04
0.766865400000000,,0x80,0x00
0.769839000000000,,0x65,0x8D
0.806239000000000,,0xB0,0x0B
0.808496600000000,,0x00,0x00
0.811470200000000,,0x20,0x02
0.814443800000000,,0x06,0x00
0.817417400000000,,0x01,0x07
0.820391000000000,,0x11,0x20
0.823364800000000,,0x20,0x04
0.826338400000000,,0x80,0x00
0.829312200000000,,0xDD,0x8D
0.865458600000000,,0xB0,0x0B
0.867971000000000,,0x00,0x00
0.870944600000000,,0x20,0x02
0.873918400000000,,0x8E,0x00
0.876892200000000,,0x01,0x07
0.879865800000000,,0x11,0x20
0.882839600000000,,0x20,0x04
0.885813200000000,,0x80,0x00
0.888787000000000,,0x65,0x8D
0.925155400000000,,0xB0,0x0B
0.927444400000000,,0x00,0x00
0.930418000000000,,0x20,0x02
0.933391800000000,,0x06,0x00
0.936365600000000,,0x01,0x07
0.939339200000000,,0x11,0x20
0.942312800000000,,0x20,0x04
0.945286600000000,,0x80,0x00
0.948260400000000,,0xDD,0x8D
0.984373800000000,,0xB0,0x0B
0.986917400000000,,0x00,0x00
0.989891000000000,,0x20,0x02
0.992864800000000,,0x8E,0x00
0.995838400000000,,0x01,0x07
0.998812000000000,,0x11,0x20
1.001785800000000,,0x20,0x04
1.004759400000000,,0x80,0x00
1.007733000000000,,0x65,0x8D
1.044069200000000,,0xB0,0x0B
1.046390400000000,,0x00,0x00
1.049364000000000,,0x20,0x02
1.052337800000000,,0x06,0x00
1.055311400000000,,0x01,0x07
1.058284800000000,,0x11,0x20
1.061258200000000,,0x20,0x04
1.064231800000000,,0x80,0x00
1.067205400000000,,0xDD,0x8D
1.103287800000000,,0xB0,0x0B
1.105863200000000,,0x00,0x00
1.108837000000000,,0x20,0x02
1.111810800000000,,0x8E,0x00
1.114784600000000,,0x01,0x07
1.117758200000000,,0x11,0x20
1.120732000000000,,0x20,0x04
1.123705800000000,,0x80,0x00
1.126679600000000,,0x65,0x8D
1.163014800000000,,0xB0,0x0B
1.165338000000000,,0x00,0x00
1.168311600000000,,0x20,0x02
1.171285400000000,,0x06,0x00
1.174259000000000,,0x01,0x07
1.177232600000000,,0x11,0x20
1.180206400000000,,0x20,0x04
1.183180000000000,,0x80,0x00
1.186153800000000,,0xDD,0x8D
1.222410000000000,,0xB0,0x0B
1.224811600000000,,0x00,0x00
1.227785400000000,,0x20,0x02
1.230759000000000,,0x8E,0x00
1.233732800000000,,0x01,0x07
1.236706600000000,,0x11,0x20
1.239680200000000,,0x21,0x04
1.242654000000000,,0x80,0x00
1.245627600000000,,0x66,0x8D
1.282121800000000,,0xB0,0x0B
1.284285200000000,,0x00,0x00
1.287259000000000,,0x20,0x02
1.290232800000000,,0x06,0x00
1.293206600000000,,0x01,0x07
1.296180200000000,,0x11,0x20
1.299154000000000,,0x21,0x04
1.302127600000000,,0x80,0x00
1.305101400000000,,0xDE,0x8D
1.341326200000000,,0xB0,0x0B
1.343760200000000,,0x00,0x00
1.346734000000000,,0x20,0x02
1.349707800000000,,0x8E,0x00
1.352681600000000,,0x01,0x07
1.355655600000000,,0x11,0x20
1.358629400000000,,0x21,0x04
1.361603400000000,,0x80,0x00
1.364577400000000,,0x66,0x8D
1.401041200000000,,0xB0,0x0B
1.403236800000000,,0x00,0x00
1.406210600000000,,0x20,0x02
1.409184200000000,,0x06,0x00
1.412158000000000,,0x01,0x07
1.415131600000000,,0x11,0x20
1.418105200000000,,0x21,0x04
1.421079000000000,,0x80,0x00
1.424052800000000,,0xDE,0x8D
1.460269200000000,,0xB0,0x0B
1.462711400000000,,0x00,0x00
1.465685200000000,,0x20,0x02
1.468659000000000,,0x8E,0x00
1.471632800000000,,0x01,0x07
1.474606600000000,,0x11,0x20
1.477580200000000,,0x21,0x04
1.480554000000000,,0x80,0x00
1.483527800000000,,0x66,0x8D
1.519969400000000,,0xB0,0x0B
1.522187600000000,,0x00,0x00
1.525161400000000,,0x20,0x02
1.528135200000000,,0x06,0x00
1.531109000000000,,0x01,0x07
1.534083000000000,,0x11,0x20
1.537056800000000,,0x21,0x04
1.540030600000000,,0x80,0x00
1.543004400000000,,0xDE,0x8D
1.579189200000000,,0xB0,0x0B
1.581663400000000,,0x00,0x00
1.584637200000000,,0x20,0x02
1.587610800000000,,0x8E,0x00
1.590584600000000,,0x01,0x07
1.593558400000000,,0x11,0x20
1.596532200000000,,0x21,0x04
1.599506200000000,,0x80,0x00
1.602479800000000,,0x66,0x8D
1.638884000000000,,0xB0,0x0B
1.641136600000000,,0x00,0x00
1.644110200000000,,0x20,0x02
1.647083800000000,,0x06,0x00
1.650057400000000,,0x01,0x07
1.653031000000000,,0x11,0x20
1.656004600000000,,0x21,0x04
1.658978200000000,,0x80,0x00
1.661951800000000,,0xDE,0x8D
1.698102200000000,,0xB0,0x0B
1.700610000000000,,0x00,0x00
1.703583800000000,,0x20,0x02
1.706557600000000,,0x8E,0x00
1.709531400000000,,0x01,0x07
1.712505000000000,,0x11,0x20
1.715478800000000,,0x21,0x04
1.718452600000000,,0x80,0x00
1.721426200000000,,0x66,0x8D
1.757814800000000,,0xB0,0x0B
1.760084200000000,,0x00,0x00
1.763058000000000,,0x20,0x02
1.766031800000000,,0x06,0x00
1.769005400000000,,0x01,0x07
1.771979200000000,,0x11,0x20
1.774953000000000,,0x21,0x04
1.777926800000000,,0x80,0x00
1.780900400000000,,0xDE,0x8D
1.817017600000000,,0xB0,0x0B
1.819558200000000,,0x00,0x00
1.822532000000000,,0x20,0x02
1.825505800000000,,0x8E,0x00
1.828479400000000,,0x01,0x07
1.831453200000000,,0x11,0x20
1.834426800000000,,0x21,0x04
1.837400600000000,,0x80,0x00
1.840374200000000,,0x66,0x8D
1.876731600000000,,0xB0,0x0B
1.879031400000000,,0x00,0x00
1.882005200000000,,0x20,0x02
1.884978800000000,,0x06,0x00
1.887952600000000,,0x01,0x07
1.890926200000000,,0x11,0x20
1.893899800000000,,0x21,0x04
1.896873600000000,,0x80,0x00
1.899847400000000,,0xDE,0x8D
1.935932600000000,,0xB0,0x0B
1.938506200000000,,0x00,0x00
1.941480200000000,,0x20,0x02
1.944454000000000,,0x8E,0x00
1.947427800000000,,0x01,0x07
1.950401600000000,,0x11,0x20
1.953375400000000,,0x21,0x04
1.956349200000000,,0x80,0x00
1.959323000000000,,0x66,0x8D
1.995645200000000,,0xB0,0x0B
1.997982000000000,,0x00,0x00
2.000955800000000,,0x20,0x02
2.003929600000000,,0x06,0x00
2.006903400000000,,0x01,0x07
2.009877200000000,,0x11,0x20
2.012851000000000,,0x21,0x04
2.015824800000000,,0x80,0x00
2.018798600000000,,0xDE,0x8D
2.054867600000000,,0xB0,0x0B
2.057457600000000,,0x00,0x00
2.060431400000000,,0x20,0x02
2.063405200000000,,0x8E,0x00
2.066378800000000,,0x01,0x07
2.069352400000000,,0x11,0x20
2.072326200000000,,0x21,0x04
2.075300000000000,,0x80,0x00
2.078273600000000,,0x66,0x8D
2.114566200000000,,0xB0,0x0B
2.116931800000000,,0x00,0x00
2.119905600000000,,0x20,0x02
2.122879200000000,,0x06,0x00
2.125852800000000,,0x01,0x07
2.128826400000000,,0x11,0x20
2.131800000000000,,0x21,0x04
2.134773600000000,,0x80,0x00
2.137747200000000,,0xDE,0x8D
2.173993200000000,,0xB0,0x0B
2.176404600000000,,0x00,0x00
2.179378400000000,,0x20,0x02
2.182352000000000,,0x8E,0x00
2.185325600000000,,0x01,0x07
2.188299400000000,,0x11,0x20
2.191273000000000,,0x22,0x04
2.194246800000000,,0x80,0x00
2.197220400000000,,0x67,0x8D
2.233688600000000,,0xB0,0x0B
2.235877800000000,,0x00,0x00
2.238851200000000,,0x20,0x02
2.241824800000000,,0x06,0x00
2.244798200000000,,0x01,0x07
2.247771800000000,,0x11,0x20
2.250745400000000,,0x22,0x04
2.253719000000000,,0x80,0x00
2.256692600000000,,0xDF,0x8D
2.292907600000000,,0xB0,0x0B
2.295351000000000,,0x00,0x00
2.298324600000000,,0x20,0x02
2.301298400000000,,0x8E,0x00
2.304272200000000,,0x01,0x07
2.307246000000000,,0x11,0x20
2.310219800000000,,0x22,0x04
2.313193400000000,,0x80,0x00
2.316167000000000,,0x67,0x8D
2.352622800000000,,0xB0,0x0B
2.354825600000000,,0x00,0x00
2.357799400000000,,0x20,0x02
2.360773200000000,,0x06,0x00
2.363747000000000,,0x01,0x07
2.366720600000000,,0x11,0x20
2.369694400000000,,0x22,0x04
2.372668200000000,,0x80,0x00
2.375641800000000,,0xDF,0x8D
2.411821600000000,,0xB0,0x0B
2.414299400000000,,0x00,0x00
2.417273200000000,,0x20,0x02
2.420247000000000,,0x8E,0x00
2.423220800000000,,0x01,0x07
2.426194600000000,,0x11,0x20
2.429168200000000,,0x22,0x04
2.432141800000000,,0x80,0x00
2.435115600000000,,0x67,0x8D
2.471540400000000,,0xB0,0x0B
2.473774200000000,,0x00,0x00
2.476747800000000,,0x20,0x02
2.479721600000000,,0x06,0x00
2.482695400000000,,0x01,0x07
2.485669000000000,,0x11,0x20
2.488642800000000,,0x22,0x04
2.491616600000000,,0x80,0x00
2.494590400000000,,0xDF,0x8D
2.530744400000000,,0xB0,0x0B
2.533248800000000,,0x00,0x00
2.536222600000000,,0x20,0x02
2.539196200000000,,0x8E,0x00
2.542170200000000,,0x01,0x07
2.545144000000000,,0x11,0x20
2.548117800000000,,0x22,0x04
2.551091600000000,,0x80,0x00
2.554065400000000,,0x67,0x8D
2.590461400000000,,0xB0,0x0B
2.592725000000000,,0x00,0x00
2.595698800000000,,0x20,0x02
2.598672800000000,,0x06,0x00
2.601646600000000,,0x01,0x07
2.604620400000000,,0x11,0x20
2.607594200000000,,0x22,0x04
2.610568000000000,,0x80,0x00
2.613541600000000,,0xDF,0x8D
2.649681200000000,,0xB0,0x0B
2.652199400000000,,0x00,0x00
2.655173200000000,,0x20,0x02
2.658147000000000,,0x8E,0x00
2.661120600000000,,0x01,0x07
2.664094400000000,,0x11,0x20
2.667068000000000,,0x22,0x04
2.670041800000000,,0x80,0x00
2.673015600000000,,0x67,0x8D
2.709378800000000,,0xB0,0x0B
2.711674800000000,,0x00,0x00
2.714648800000000,,0x20,0x02
2.717622600000000,,0x06,0x00
2.720596200000000,,0x01,0x07
2.723569800000000,,0x11,0x20
2.726543600000000,,0x22,0x04
2.729517400000000,,0x80,0x00
2.732491000000000,,0xDF,0x8D
2.768601400000000,,0xB0,0x0B
2.771150800000000,,0x00,0x00
2.774124600000000,,0x20,0x02
2.777098400000000,,0x8E,0x00
2.780072200000000,,0x01,0x07
2.783045800000000,,0x11,0x20
2.786019600000000,,0x22,0x04
2.788993200000000,,0x80,0x00
2.791966800000000,,0x67,0x8D
2.828298800000000,,0xB0,0x0B
2.830624000000000,,0x00,0x00
2.833597600000000,,0x20,0x02
2.836571200000000,,0x06,0x00
2.839545000000000,,0x01,0x07
2.842518800000000,,0x11,0x20
2.845492400000000,,0x22,0x04
2.848466200000000,,0x80,0x00
2.851440000000000,,0xDF,0x8D
2.887522200000000,,0xB0,0x0B
2.890099200000000,,0x00,0x00
2.893073200000000,,0x20,0x02
2.896047000000000,,0x8E,0x00
2.899020800000000,,0x01,0x07
2.901994600000000,,0x11,0x20
2.904968400000000,,0x22,0x04
2.907942200000000,,0x80,0x00
2.910916000000000,,0x67,0x8D
2.947232200000000,,0xB0,0x0B
2.949574400000000,,0x00,0x00
2.952548000000000,,0x20,0x02
2.955521600000000,,0x06,0x00
2.958495200000000,,0x01,0x07
2.961469000000000,,0x11,0x20
2.964442600000000,,0x22,0x04
2.967416200000000,,0x80,0x00
2.970389800000000,,0xDF,0x8D
3.006436400000000,,0xB0,0x0B
3.009046800000000,,0x00,0x00
3.012020600000000,,0x20,0x02
3.014994200000000,,0x8E,0x00
3.017967800000000,,0x01,0x07
3.020941400000000,,0x11,0x20
3.023914800000000,,0x22,0x04
3.026888600000000,,0x80,0x00
3.029862200000000,,0x67,0x8D
3.066148200000000,,0xB0,0x0B
3.068520200000000,,0x00,0x00
3.071494000000000,,0x20,0x02
3.074467800000000,,0x06,0x00
3.077441400000000,,0x01,0x07
3.080415000000000,,0x11,0x20
3.083388800000000,,0x22,0x04
3.086362400000000,,0x80,0x00
3.089336200000000,,0xDF,0x8D
3.125352600000000,,0xB0,0x0B
3.127993800000000,,0x00,0x00
3.130967400000000,,0x20,0x02
3.133941200000000,,0x8E,0x00
3.136914800000000,,0x01,0x07
3.139888200000000,,0x11,0x20
3.142862000000000,,0x22,0x04
3.145835800000000,,0x80,0x00
3.148809400000000,,0x67,0x8D
3.185275800000000,,0xB0,0x0B
3.187467600000000,,0x00,0x00
3.190441400000000,,0x20,0x02
3.193415400000000,,0x06,0x00
3.196389000000000,,0x01,0x07
3.199362800000000,,0x11,0x20
3.202336400000000,,0x23,0x04
3.205310200000000,,0x80,0x00
3.208284000000000,,0xE0,0x8D
3.244495000000000,,0xB0,0x0B
3.246942400000000,,0x00,0x00
3.249916200000000,,0x20,0x02
3.252889800000000,,0x8E,0x00
3.255863600000000,,0x01,0x07
3.258837200000000,,0x11,0x20
3.261811000000000,,0x23,0x04
3.264784800000000,,0x80,0x00
3.267758600000000,,0x68,0x8D
3.304190800000000,,0xB0,0x0B
3.306417400000000,,0x00,0x00
3.309391000000000,,0x20,0x02
3.312364800000000,,0x06,0x00
3.315338600000000,,0x01,0x07
3.318312400000000,,0x11,0x20
3.321286200000000,,0x23,0x04
3.324260000000000,,0x80,0x00
3.327234000000000,,0xE0,0x8D
3.363412600000000,,0xB0,0x0B
3.365894600000000,,0x00,0x00
3.368868600000000,,0x20,0x02
3.371842400000000,,0x8E,0x00
3.374816400000000,,0x01,0x07
3.377790200000000,,0x11,0x20
3.380764000000000,,0x23,0x04
3.383737800000000,,0x80,0x00
3.386711600000000,,0x68,0x8D
3.423113400000000,,0xB0,0x0B
3.425370600000000,,0x00,0x00
3.428344400000000,,0x20,0x02
3.431318200000000,,0x06,0x00
3.434292200000000,,0x01,0x07
3.437266000000000,,0x11,0x20
3.440239800000000,,0x23,0x04
3.443213600000000,,0x80,0x00
3.446187400000000,,0xE0,0x8D
3.482341800000000,,0xB0,0x0B
3.484845000000000,,0x00,0x00
3.487818600000000,,0x20,0x02
3.490792200000000,,0x8E,0x00
3.493766000000000,,0x01,0x07
3.496739800000000,,0x11,0x20
3.499713600000000,,0x23,0x04
3.502687200000000,,0x80,0x00
3.505661000000000,,0x68,0x8D
3.542054200000000,,0xB0,0x0B
3.544319200000000,,0x00,0x00
3.547292800000000,,0x20,0x02
3.550266600000000,,0x06,0x00
3.553240200000000,,0x01,0x07
3.556214000000000,,0x11,0x20
3.559187600000000,,0x23,0x04
3.562161400000000,,0x80,0x00
3.565135200000000,,0xE0,0x8D
3.601256600000000,,0xB0,0x0B
3.603793800000000,,0x00,0x00
3.606767400000000,,0x20,0x02
3.609741200000000,,0x8E,0x00
3.612714800000000,,0x01,0x07
3.615688400000000,,0x11,0x20
3.618662200000000,,0x23,0x04
3.621636000000000,,0x80,0x00
3.624609400000000,,0x68,0x8D
3.660968400000000,,0xB0,0x0B
3.663268000000000,,0x00,0x00
3.666241600000000,,0x20,0x02
3.669215400000000,,0x06,0x00
3.672189200000000,,0x01,0x07
3.675163000000000,,0x11,0x20
3.678136600000000,,0x23,0x04
3.681110400000000,,0x80,0x00
3.684084200000000,,0xE0,0x8D
3.720172600000000,,0xB0,0x0B
3.722743000000000,,0x00,0x00
3.725716800000000,,0x20,0x02
3.728690400000000,,0x8E,0x00
3.731664200000000,,0x01,0x07
3.734637800000000,,0x11,0x20
3.737611400000000,,0x23,0x04
3.740585200000000,,0x80,0x00
3.743559200000000,,0x68,0x8D
3.779885400000000,,0xB0,0x0B
3.782218600000000,,0x00,0x00
3.785192400000000,,0x20,0x02
3.788166200000000,,0x06,0x00
3.791139800000000,,0x01,0x07
3.794113600000000,,0x11,0x20
3.797087400000000,,0x23,0x04
3.800061200000000,,0x80,0x00
3.803035200000000,,0xE0,0x8D
3.839105400000000,,0xB0,0x0B
3.841694400000000,,0x00,0x00
3.844668400000000,,0x20,0x02
3.847642200000000,,0x8E,0x00
3.850616000000000,,0x01,0x07
3.853589800000000,,0x11,0x20
3.856563600000000,,0x23,0x04
3.859537600000000,,0x80,0x00
3.862511200000000,,0x68,0x8D
3.898805400000000,,0xB0,0x0B
3.901170600000000,,0x00,0x00
3.904144400000000,,0x20,0x02
3.907118200000000,,0x06,0x00
3.910092000000000,,0x01,0x07
3.913065800000000,,0x11,0x20
3.916039600000000,,0x23,0x04
3.919013400000000,,0x80,0x00
3.921987200000000,,0xE0,0x8D
3.958027000000000,,0xB0,0x0B
3.960646000000000,,0x00,0x00
3.963619600000000,,0x20,0x02
3.966593400000000,,0x8E,0x00
3.969567200000000,,0x01,0x07
3.972540800000000,,0x11,0x20
3.975514600000000,,0x23,0x04
3.978488400000000,,0x80,0x00
3.981462200000000,,0x68,0x8D
4.017726400000000,,0xB0,0x0B
4.020121000000000,,0x00,0x00
4.023094600000000,,0x20,0x02
4.026068200000000,,0x06,0x00
4.029042000000000,,0x01,0x07
4.032015600000000,,0x11,0x20
4.034989000000000,,0x23,0x04
4.037962800000000,,0x80,0x00
4.040936400000000,,0xE0,0x8D
4.077436000000000,,0xB0,0x0B
4.079593200000000,,0x00,0x00
4.082567000000000,,0x20,0x02
4.085540600000000,,0x8E,0x00
4.088514200000000,,0x01,0x07
4.091487800000000,,0x11,0x20
4.094461600000000,,0x23,0x04
4.097435400000000,,0x80,0x00
4.100409000000000,,0x68,0x8D
4.136667800000000,,0xB0,0x0B
4.139067200000000,,0x00,0x00
4.142041000000000,,0x20,0x02
4.145014600000000,,0x06,0x00
4.147988200000000,,0x01,0x07
4.150961800000000,,0x11,0x20
4.153935600000000,,0x23,0x04
4.156909200000000,,0x80,0x00
4.159883000000000,,0xE0,0x8D
4.196063600000000,,0xB0,0x0B
4.198540800000000,,0x00,0x00
4.201514400000000,,0x20,0x02
4.204488000000000,,0x8E,0x00
4.207461600000000,,0x01,0x07
4.210435200000000,,0x11,0x20
4.213409000000000,,0x24,0x04
4.216382600000000,,0x80,0x00
4.219356200000000,,0x69,0x8D
4.255774400000000,,0xB0,0x0B
4.258014600000000,,0x00,0x00
4.260988400000000,,0x20,0x02
4.263962000000000,,0x06,0x00
4.266935800000000,,0x01,0x07
4.269909400000000,,0x11,0x20
4.272882800000000,,0x24,0x04
4.275856600000000,,0x80,0x00
4.278830200000000,,0xE1,0x8D
4.314977000000000,,0xB0,0x0B
4.317488200000000,,0x00,0x00
4.320462000000000,,0x20,0x02
4.323435800000000,,0x8E,0x00
4.326409400000000,,0x01,0x07
4.329383000000000,,0x11,0x20
4.332356600000000,,0x24,0x04
4.335330400000000,,0x80,0x00
4.338304000000000,,0x69,0x8D
4.374687600000000,,0xB0,0x0B
4.376961600000000,,0x00,0x00
4.379935400000000,,0x20,0x02
4.382909200000000,,0x06,0x00
4.385882800000000,,0x01,0x07
4.388856600000000,,0x11,0x20
4.391830400000000,,0x24,0x04
4.394804000000000,,0x80,0x00
4.397777600000000,,0xE1,0x8D
4.433914600000000,,0xB0,0x0B
4.436435200000000,,0x00,0x00
4.439409000000000,,0x20,0x02
4.442382800000000,,0x8E,0x00
4.445356400000000,,0x01,0x07
4.448330000000000,,0x11,0x20
4.451303600000000,,0x24,0x04
4.454277400000000,,0x80,0x00
4.457251000000000,,0x69,0x8D
4.493609600000000,,0xB0,0x0B
4.495908000000000,,0x00,0x00
4.498881600000000,,0x20,0x02
4.501855400000000,,0x06,0x00
4.504829200000000,,0x01,0x07
4.507802800000000,,0x11,0x20
4.510776800000000,,0x24,0x04
4.513750600000000,,0x80,0x00
4.516724200000000,,0xE1,0x8D
4.552830600000000,,0xB0,0x0B
4.555382000000000,,0x00,0x00
4.558355800000000,,0x20,0x02
4.561329600000000,,0x8E,0x00
4.564303200000000,,0x01,0x07
4.567276800000000,,0x11,0x20
4.570250400000000,,0x24,0x04
4.573224000000000,,0x80,0x00
4.576197600000000,,0x69,0x8D
4.612527200000000,,0xB0,0x0B
4.614855000000000,,0x00,0x00
4.617828600000000,,0x20,0x02
4.620802200000000,,0x06,0x00
4.623776000000000,,0x01,0x07
4.626749600000000,,0x11,0x20
4.629723200000000,,0x24,0x04
4.632697000000000,,0x80,0x00
4.635670600000000,,0xE1,0x8D
4.671744600000000,,0xB0,0x0B
4.674329200000000,,0x00,0x00
4.677302800000000,,0x20,0x02
4.680276600000000,,0x8E,0x00
4.683250600000000,,0x01,0x07
4.686224200000000,,0x11,0x20
4.689198200000000,,0x24,0x04
4.692172200000000,,0x80,0x00
4.695146000000000,,0x69,0x8D
4.731458600000000,,0xB0,0x0B
4.733803800000000,,0x00,0x00
4.736777400000000,,0x20,0x02
4.739751000000000,,0x06,0x00
4.742724600000000,,0x01,0x07
4.745698000000000,,0x11,0x20
4.748671400000000,,0x24,0x04
4.751645000000000,,0x80,0x00
4.754618800000000,,0xE1,0x8D
4.790660000000000,,0xB0,0x0B
4.793275800000000,,0x00,0x00
4.796249600000000,,0x20,0x02
4.799223200000000,,0x8E,0x00
4.802197000000000,,0x01,0x07
4.805170400000000,,0x11,0x20
4.808144000000000,,0x24,0x04
4.811117800000000,,0x80,0x00
4.814091400000000,,0x69,0x8D
4.850371400000000,,0xB0,0x0B
4.852749600000000,,0x00,0x00
4.855723200000000,,0x20,0x02
4.858696800000000,,0x06,0x00
4.861670600000000,,0x01,0x07
4.864644200000000,,0x11,0x20
4.867617800000000,,0x24,0x04
4.870591400000000,,0x80,0x00
4.873565200000000,,0xE1,0x8D
4.910066600000000,,0xB0,0x0B
4.912224000000000,,0x00,0x00
4.915197800000000,,0x20,0x02
4.918171600000000,,0x8E,0x00
4.921145200000000,,0x01,0x07
4.924119000000000,,0x11,0x20
4.927092800000000,,0x24,0x04
4.930066600000000,,0x80,0x00
4.933040400000000,,0x69,0x8D
4.969284400000000,,0xB0,0x0B
4.971697400000000,,0x00,0x00
4.974671000000000,,0x20,0x02
4.977644600000000,,0x06,0x00
4.980618000000000,,0x01,0x07
4.983591600000000,,0x11,0x20
4.986565200000000,,0x24,0x04
4.989538800000000,,0x80,0x00
4.992512400000000,,0xE1,0x8D
5.028994600000000,,0xB0,0x0B
5.031167800000000,,0x00,0x00
5.034141200000000,,0x20,0x02
5.037114800000000,,0x8E,0x00
5.040088200000000,,0x01,0x07
5.043061800000000,,0x11,0x20
5.046035400000000,,0x24,0x04
5.049009000000000,,0x80,0x00
5.051982600000000,,0x69,0x8D
5.088197200000000,,0xB0,0x0B
5.090640200000000,,0x00,0x00
5.093613800000000,,0x20,0x02
5.096587600000000,,0x06,0x00
5.099561200000000,,0x01,0x07
5.102534800000000,,0x11,0x20
5.105508400000000,,0x24,0x04
5.108482000000000,,0x80,0x00
5.111455800000000,,0xE1,0x8D
5.147616800000000,,0xB0,0x0B
5.150112600000000,,0x00,0x00
5.153086400000000,,0x20,0x02
5.156060000000000,,0x8E,0x00
5.159033600000000,,0x01,0x07
5.162007400000000,,0x11,0x20
5.164981000000000,,0x25,0x04
5.167954800000000,,0x80,0x00
5.170928400000000,,0x6A,0x8D
5.207311000000000,,0xB0,0x0B
5.209586000000000,,0x00,0x00
5.212559800000000,,0x20,0x02
5.215533600000000,,0x06,0x00
5.218507400000000,,0x01,0x07
5.221481200000000,,0x11,0x20
5.224455000000000,,0x25,0x04
5.227428800000000,,0x80,0x00
5.230402600000000,,0xE2,0x8D
5.266531600000000,,0xB0,0x0B
5.269061200000000,,0x00,0x00
5.272035000000000,,0x20,0x02
5.275008800000000,,0x8E,0x00
5.277982600000000,,0x01,0x07
5.280956200000000,,0x11,0x20
5.283930000000000,,0x25,0x04
5.286903600000000,,0x80,0x00
5.289877200000000,,0x6A,0x8D
5.326246800000000,,0xB0,0x0B
5.328534600000000,,0x00,0x00
5.331508200000000,,0x20,0x02
5.334481800000000,,0x06,0x00
5.337455400000000,,0x01,0x07
5.340429200000000,,0x11,0x20
5.343402800000000,,0x25,0x04
5.346376400000000,,0x80,0x00
5.349350000000000,,0xE2,0x8D
5.385447200000000,,0xB0,0x0B
5.388006200000000,,0x00,0x00
5.390979600000000,,0x20,0x02
5.393953200000000,,0x8E,0x00
5.396926600000000,,0x01,0x07
5.399900000000000,,0x11,0x20
5.402873600000000,,0x25,0x04
5.405847200000000,,0x80,0x00
5.408820800000000,,0x6A,0x8D
5.445172200000000,,0xB0,0x0B
5.447477400000000,,0x00,0x00
5.450450800000000,,0x20,0x02
5.453424400000000,,0x06,0x00
5.456397800000000,,0x01,0x07
5.459371200000000,,0x11,0x20
5.462344800000000,,0x25,0x04
5.465318400000000,,0x80,0x00
5.468291800000000,,0xE2,0x8D
5.504371200000000,,0xB0,0x0B
5.506949600000000,,0x40,0x00
5.509923400000000,,0x20,0x02
5.512897000000000,,0x8E,0x00
5.515870600000000,,0x01,0x07
5.518844200000000,,0x11,0x20
5.521817800000000,,0x25,0x04
5.524791400000000,,0x81,0x00
5.527765000000000,,0xAB,0x8D
5.564057600000000,,0xB0,0x0B
5.566422200000000,,0x40,0x00
5.569395600000000,,0x20,0x02
5.572369200000000,,0x06,0x00
5.575342600000000,,0x01,0x07
5.578316000000000,,0x11,0x20
5.581289600000000,,0x25,0x04
5.584263000000000,,0x81,0x00
5.587236600000000,,0x23,0x8D
5.623741000000000,,0xB0,0x0B
5.625892800000000,,0x40,0x00
5.628866200000000,,0x20,0x02
5.631839800000000,,0x8E,0x00
5.634813400000000,,0x01,0x07
5.637786800000000,,0x11,0x20
5.640760400000000,,0x25,0x04
5.643734000000000,,0x81,0x00
5.646707600000000,,0xAB,0x8D
5.682902800000000,,0xB0,0x0B
5.685363200000000,,0x40,0x00
5.688336800000000,,0x20,0x02
5.691310200000000,,0x06,0x00
5.694283800000000,,0x01,0x07
5.697257200000000,,0x11,0x20
5.700230800000000,,0x25,0x04
5.703204400000000,,0x81,0x00
5.706177800000000,,0x23,0x8D
5.742587400000000,,0xB0,0x0B
5.744833400000000,,0x40,0x00
5.747806800000000,,0x20,0x02
5.750780400000000,,0x8E,0x00
5.753754000000000,,0x01,0x07
5.756727400000000,,0x11,0x20
5.759701000000000,,0x25,0x04
5.762674400000000,,0x81,0x00
5.765647800000000,,0xAB,0x8D
5.801755000000000,,0xB0,0x0B
5.804303000000000,,0x40,0x00
5.807276600000000,,0x20,0x02
5.810250000000000,,0x06,0x00
5.813223600000000,,0x01,0x07
5.816197200000000,,0x11,0x20
5.819170600000000,,0x25,0x04
5.822144400000000,,0x81,0x00
5.825118200000000,,0x23,0x8D
5.861405600000000,,0xB0,0x0B
5.863776200000000,,0x00,0x00
5.866749800000000,,0x20,0x02
5.869723200000000,,0x8E,0x00
5.872696800000000,,0x01,0x07
5.875670400000000,,0x11,0x20
5.878644200000000,,0x25,0x04
5.881617800000000,,0x80,0x00
5.884591400000000,,0x6A,0x8D
5.921037200000000,,0xB0,0x0B
5.923249000000000,,0x00,0x00
5.926222600000000,,0x20,0x02
5.929196200000000,,0x06,0x00
5.932170000000000,,0x01,0x07
5.935143600000000,,0x11,0x20
5.938117200000000,,0x25,0x04
5.941091000000000,,0x80,0x00
5.944064800000000,,0xE2,0x8D
5.980145200000000,,0xB0,0x0B
5.982723400000000,,0x00,0x00
5.985697200000000,,0x20,0x02
5.988671000000000,,0x8E,0x00
5.991644800000000,,0x01,0x07
5.994618600000000,,0x11,0x20
5.997592400000000,,0x25,0x04
6.000566000000000,,0x80,0x00
6.003540000000000,,0x6A,0x8D
6.039780200000000,,0xB0,0x0B
6.042198800000000,,0x00,0x00
6.045172400000000,,0x20,0x02
6.048146200000000,,0x06,0x00
6.051120000000000,,0x01,0x07
6.054093800000000,,0x11,0x20
6.057067600000000,,0x25,0x04
6.060041400000000,,0x80,0x00
6.063015000000000,,0xE2,0x8D
6.099397200000000,,0xB0,0x0B
6.101673600000000,,0x00,0x00
6.104647400000000,,0x20,0x02
6.107621400000000,,0x8E,0x00
6.110595200000000,,0x01,0x07
6.113569200000000,,0x11,0x20
6.116543000000000,,0x25,0x04
6.119516800000000,,0x80,0x00
6.122491600000000,,0x6A,0x8D
6.158650600000000,,0xB0,0x0B
6.161150800000000,,0x00,0x00
6.164124400000000,,0x20,0x02
6.167098200000000,,0x06,0x00
6.170072000000000,,0x01,0x07
6.173045600000000,,0x11,0x20
6.176019400000000,,0x26,0x04
6.178993000000000,,0x80,0x00
6.181966600000000,,0xE3,0x8D
6.218282400000000,,0xB0,0x0B
6.220624600000000,,0x00,0x00
6.223598200000000,,0x20,0x02
6.226572000000000,,0x8E,0x00
6.229545600000000,,0x01,0x07
6.232519200000000,,0x11,0x20
6.235493000000000,,0x26,0x04
6.238467000000000,,0x80,0x00
6.241440800000000,,0x6B,0x8D
6.277896400000000,,0xB0,0x0B
6.280098400000000,,0x00,0x00
6.283072000000000,,0x20,0x02
6.286045600000000,,0x06,0x00
6.289019400000000,,0x01,0x07
6.291993000000000,,0x11,0x20
6.294966800000000,,0x26,0x04
6.297940400000000,,0x80,0x00
6.300914000000000,,0xE3,0x8D
6.337020800000000,,0xB0,0x0B
6.339572000000000,,0x00,0x00
6.342545800000000,,0x20,0x02
6.345519800000000,,0x8E,0x00
6.348493600000000,,0x01,0x07
6.351467400000000,,0x11,0x20
6.354441200000000,,0x26,0x04
6.357415000000000,,0x80,0x00
6.360388600000000,,0x6B,0x8D
6.396640600000000,,0xB0,0x0B
6.399048200000000,,0x00,0x00
6.402022000000000,,0x20,0x02
6.404995800000000,,0x06,0x00
6.407969400000000,,0x01,0x07
6.410943200000000,,0x11,0x20
6.413917000000000,,0x26,0x04
6.416890800000000,,0x80,0x00
6.419864600000000,,0xE3,0x8D
6.456279000000000,,0xB0,0x0B
6.458523000000000,,0x00,0x00
6.461496600000000,,0x20,0x02
6.464470200000000,,0x8E,0x00
6.467444000000000,,0x01,0x07
6.470417600000000,,0x11,0x20
6.473391200000000,,0x26,0x04
6.476365000000000,,0x80,0x00
6.479338800000000,,0x6B,0x8D
6.515400600000000,,0xB0,0x0B
6.517995600000000,,0x00,0x00
6.520969200000000,,0x20,0x02
6.523942800000000,,0x06,0x00
6.526916600000000,,0x01,0x07
6.529890200000000,,0x11,0x20
6.532864000000000,,0x26,0x04
6.535837800000000,,0x80,0x00
6.538811600000000,,0xE3,0x8D
6.575018000000000,,0xB0,0x0B
6.577470400000000,,0x00,0x00
6.580444200000000,,0x20,0x02
6.583418000000000,,0x8E,0x00
6.586391600000000,,0x01,0x07
6.589365200000000,,0x11,0x20
6.592339000000000,,0x26,0x04
6.595312800000000,,0x80,0x00
6.598286600000000,,0x6B,0x8D
6.634649000000000,,0xB0,0x0B
6.636946000000000,,0x00,0x00
6.639919800000000,,0x20,0x02
6.642893800000000,,0x06,0x00
6.645867600000000,,0x01,0x07
6.648841400000000,,0x11,0x20
6.651815200000000,,0x26,0x04
6.654789200000000,,0x80,0x00
6.657763200000000,,0xE3,0x8D
6.694267800000000,,0xB0,0x0B
6.696422600000000,,0x00,0x00
6.699396400000000,,0x20,0x02
6.702370200000000,,0x8E,0x00
6.705344000000000,,0x01,0x07
6.708317800000000,,0x11,0x20
6.711291600000000,,0x26,0x04
6.714265400000000,,0x80,0x00
6.717239400000000,,0x6B,0x8D
6.753393800000000,,0xB0,0x0B
6.755898600000000,,0x00,0x00
6.758872200000000,,0x20,0x02
6.761846000000000,,0x06,0x00
6.764819800000000,,0x01,0x07
6.767793400000000,,0x11,0x20
6.770767200000000,,0x26,0x04
6.773741000000000,,0x80,0x00
6.776714800000000,,0xE3,0x8D
6.813025000000000,,0xB0,0x0B
6.815373400000000,,0x00,0x00
6.818347200000000,,0x20,0x02
6.821321000000000,,0x8E,0x00
6.824294800000000,,0x01,0x07
6.827268400000000,,0x11,0x20
6.830242200000000,,0x26,0x04
6.833216000000000,,0x80,0x00
6.836189600000000,,0x6B,0x8D
6.872641800000000,,0xB0,0x0B
6.874849400000000,,0x00,0x00
6.877823200000000,,0x20,0x02
6.880797000000000,,0x06,0x00
6.883770800000000,,0x01,0x07
6.886744600000000,,0x11,0x20
6.889718400000000,,0x26,0x04
6.892692400000000,,0x80,0x00
6.895666200000000,,0xE3,0x8D
6.931771800000000,,0xB0,0x0B
6.934325400000000,,0x00,0x00
6.937299200000000,,0x20,0x02
6.940272800000000,,0x8E,0x00
6.943246600000000,,0x01,0x07
6.946220200000000,,0x11,0x20
6.949193800000000,,0x26,0x04
6.952167800000000,,0x80,0x00
6.955141400000000,,0x6B,0x8D
6.991387000000000,,0xB0,0x0B
6.993800000000000,,0x00,0x00
6.996773800000000,,0x20,0x02
6.999747400000000,,0x06,0x00
7.002721200000000,,0x01,0x07
7.005694800000000,,0x11,0x20
7.008668600000000,,0x26,0x04
7.011642200000000,,0x80,0x00
7.014616000000000,,0xE3,0x8D
7.051019400000000,,0xB0,0x0B
7.053274000000000,,0x00,0x00
7.056247800000000,,0x20,0x02
7.059221400000000,,0x8E,0x00
7.062195200000000,,0x01,0x07
7.065168800000000,,0x11,0x20
7.068142400000000,,0x26,0x04
7.071116000000000,,0x80,0x00
7.074089800000000,,0x6B,0x8D
7.110155600000000,,0xB0,0x0B
7.112747400000000,,0x00,0x00
7.115721200000000,,0x20,0x02
7.118694800000000,,0x06,0x00
7.121668600000000,,0x01,0x07
7.124642200000000,,0x11,0x20
7.127615800000000,,0x26,0x04
7.130589400000000,,0x80,0x00
7.133562800000000,,0xE3,0x8D
7.169892000000000,,0xB0,0x0B
7.172220000000000,,0x00,0x00
7.175193800000000,,0x20,0x02
7.178167600000000,,0x8E,0x00
7.181141400000000,,0x01,0x07
7.184115200000000,,0x11,0x20
7.187088800000000,,0x27,0x04
7.190062400000000,,0x80,0x00
7.193036200000000,,0x6C,0x8D
7.229525400000000,,0xB0,0x0B
7.231694200000000,,0x00,0x00
7.234667800000000,,0x20,0x02
7.237641600000000,,0x06,0x00
7.240615200000000,,0x01,0x07
7.243588800000000,,0x11,0x20
7.246562600000000,,0x27,0x04
7.249536400000000,,0x80,0x00
7.252510000000000,,0xE4,0x8D
7.288635000000000,,0xB0,0x0B
7.291167600000000,,0x00,0x00
7.294141400000000,,0x20,0x02
7.297115000000000,,0x8E,0x00
7.300088600000000,,0x01,0x07
7.303062400000000,,0x11,0x20
7.306036200000000,,0x27,0x04
7.309009800000000,,0x80,0x00
7.311983600000000,,0x6C,0x8D
7.348269400000000,,0xB0,0x0B
7.350642200000000,,0x00,0x00
7.353615800000000,,0x20,0x02
7.356589600000000,,0x06,0x00
7.359563400000000,,0x01,0x07
7.362537000000000,,0x11,0x20
7.365511000000000,,0x27,0x04
7.368484800000000,,0x80,0x00
7.371458400000000,,0xE4,0x8D
7.407908600000000,,0xB0,0x0B
7.410116800000000,,0x00,0x00
7.413090600000000,,0x20,0x02
7.416064400000000,,0x8E,0x00
7.419038000000000,,0x01,0x07
7.422011800000000,,0x11,0x20
7.424985400000000,,0x27,0x04
7.427959200000000,,0x80,0x00
7.430933000000000,,0x6C,0x8D
7.467021000000000,,0xB0,0x0B
7.469592400000000,,0x00,0x00
7.472566000000000,,0x20,0x02
7.475539800000000,,0x06,0x00
7.478513400000000,,0x01,0x07
7.481487200000000,,0x11,0x20
7.484460800000000,,0x27,0x04
7.487434600000000,,0x80,0x00
7.490408200000000,,0xE4,0x8D
7.526653200000000,,0xB0,0x0B
7.529066200000000,,0x00,0x00
7.532039800000000,,0x20,0x02
7.535013600000000,,0x8E,0x00
7.537987200000000,,0x01,0x07
7.540960800000000,,0x11,0x20
7.543934600000000,,0x27,0x04
7.546908400000000,,0x80,0x00
7.549882000000000,,0x6C,0x8D
7.586269600000000,,0xB0,0x0B
7.588540200000000,,0x00,0x00
7.591514000000000,,0x20,0x02
7.594487800000000,,0x06,0x00
7.597461600000000,,0x01,0x07
7.600435400000000,,0x11,0x20
7.603409200000000,,0x27,0x04
7.606383000000000,,0x80,0x00
7.609356800000000,,0xE4,0x8D
7.645398000000000,,0xB0,0x0B
7.648016400000000,,0x00,0x00
7.650990200000000,,0x20,0x02
7.653964000000000,,0x8E,0x00
7.656937800000000,,0x01,0x07
7.659911600000000,,0x11,0x20
7.662885400000000,,0x27,0x04
7.665859200000000,,0x80,0x00
7.668832800000000,,0x6C,0x8D
7.705030600000000,,0xB0,0x0B
7.707491400000000,,0x00,0x00
7.710465000000000,,0x20,0x02
7.713438800000000,,0x06,0x00
7.716412400000000,,0x01,0x07
7.719386200000000,,0x11,0x20
7.722360000000000,,0x27,0x04
7.725333600000000,,0x80,0x00
7.728307200000000,,0xE4,0x8D
7.764646200000000,,0xB0,0x0B
7.766964600000000,,0x00,0x00
7.769938200000000,,0x20,0x02
7.772911800000000,,0x8E,0x00
7.775885600000000,,0x01,0x07
7.778859200000000,,0x11,0x20
7.781832800000000,,0x27,0x04
7.784806400000000,,0x80,0x00
7.787780400000000,,0x6C,0x8D
7.824278000000000,,0xB0,0x0B
7.826438400000000,,0x00,0x00
7.829412200000000,,0x20,0x02
7.832386000000000,,0x06,0x00
7.835359800000000,,0x01,0x07
7.838333600000000,,0x11,0x20
7.841307400000000,,0x27,0x04
7.844281400000000,,0x80,0x00
7.847255400000000,,0xE4,0x8D
7.883390600000000,,0xB0,0x0B
7.885914200000000,,0x00,0x00
7.888888000000000,,0x20,0x02
7.891861600000000,,0x8E,0x00
7.894835400000000,,0x01,0x07
7.897809200000000,,0x11,0x20
7.900783000000000,,0x27,0x04
7.903757000000000,,0x80,0x00
7.906730800000000,,0x6C,0x8D
7.943024200000000,,0xB0,0x0B
7.945389800000000,,0x00,0x00
7.948363600000000,,0x20,0x02
7.951337200000000,,0x06,0x00
7.954311200000000,,0x01,0x07
7.957285000000000,,0x11,0x20
7.960259000000000,,0x27,0x04
7.963232800000000,,0x80,0x00
7.966206600000000,,0xE4,0x8D
8.002658800000001,,0xB0,0x0B
8.004866000000000,,0x00,0x00
8.007839600000001,,0x20,0x02
8.010813400000000,,0x8E,0x00
8.013787000000001,,0x01,0x07
8.016760600000000,,0x11,0x20
8.019734400000001,,0x27,0x04
8.022708000000000,,0x80,0x00
8.025681799999999,,0x6C,0x8D
8.061768199999999,,0xB0,0x0B
8.064339800000001,,0x00,0x00
8.067313400000000,,0x20,0x02
8.070287199999999,,0x06,0x00
8.073261000000000,,0x01,0x07
8.076234599999999,,0x11,0x20
8.079208000000000,,0x27,0x04
8.082181600000000,,0x80,0x00
8.085155200000001,,0xE4,0x8D
8.121530200000000,,0xB0,0x0B
8.123813200000001,,0x00,0x00
8.126786800000000,,0x20,0x02
8.129760400000000,,0x8E,0x00
8.132734200000000,,0x01,0x07
8.135707999999999,,0x11,0x20
8.138681600000000,,0x28,0x04
8.141655399999999,,0x80,0x00
8.144629000000000,,0x6D,0x8D
8.181145200000000,,0xB0,0x0B
8.183287600000000,,0x00,0x00
8.186261399999999,,0x20,0x02
8.189235200000001,,0x06,0x00
8.192209000000000,,0x01,0x07
8.195182800000000,,0x11,0x20
8.198156400000000,,0x28,0x04
8.201129999999999,,0x80,0x00
8.204103800000000,,0xE5,0x8D
8.240271999999999,,0xB0,0x0B
8.242761200000000,,0x00,0x00
8.245734799999999,,0x20,0x02
8.248708600000001,,0x8E,0x00
8.251682199999999,,0x01,0x07
8.254655800000000,,0x11,0x20
8.257629400000001,,0x28,0x04
8.260603000000000,,0x80,0x00
8.263576799999999,,0x6D,0x8D
8.299905400000000,,0xB0,0x0B
8.302234800000001,,0x00,0x00
8.305208600000000,,0x20,0x02
8.308182400000000,,0x06,0x00
8.311156199999999,,0x01,0x07
8.314130000000000,,0x11,0x20
8.317103800000000,,0x28,0x04
8.320077400000001,,0x80,0x00
8.323051200000000,,0xE5,0x8D
8.359522600000000,,0xB0,0x0B
8.361709800000000,,0x00,0x00
8.364683599999999,,0x20,0x02
8.367657400000001,,0x8E,0x00
8.370630999999999,,0x01,0x07
8.373604800000001,,0x11,0x20
8.376578400000000,,0x28,0x04
8.379552199999999,,0x80,0x00
8.382525800000000,,0x6D,0x8D
8.418681200000000,,0xB0,0x0B
8.421184000000000,,0x04,0x00
8.424157599999999,,0x20,0x02
8.427131200000000,,0x06,0x00
8.430104999999999,,0x01,0x07
8.433078600000000,,0x11,0x20
8.436052399999999,,0x28,0x04
8.439026200000001,,0x81,0x00
8.442000000000000,,0xEA,0x8D
8.478355000000001,,0xB0,0x0B
8.480658399999999,,0x04,0x00
8.483632200000001,,0x20,0x02
8.486606000000000,,0x8E,0x00
8.489579800000000,,0x01,0x07
8.492553600000001,,0x11,0x20
8.495527400000000,,0x28,0x04
8.498501400000000,,0x81,0x00
8.501474999999999,,0x72,0x8D
8.537538200000000,,0xB0,0x0B
8.540134600000000,,0x04,0x00
8.543108399999999,,0x20,0x02
8.546082200000001,,0x06,0x00
8.549055800000000,,0x01,0x07
8.552029400000000,,0x11,0x20
8.555003200000000,,0x28,0x04
8.557976999999999,,0x81,0x00
8.560950800000001,,0xEA,0x8D
8.597230400000001,,0xB0,0x0B
8.599608999999999,,0x04,0x00
8.602582600000000,,0x20,0x02
8.605556399999999,,0x8E,0x00
8.608530200000001,,0x01,0x07
8.611504000000000,,0x11,0x20
8.614478000000000,,0x28,0x04
8.617451800000000,,0x81,0x00
8.620425600000001,,0x72,0x8D
8.656902600000000,,0xB0,0x0B
8.659084399999999,,0x04,0x00
8.662058000000000,,0x20,0x02
8.665031600000001,,0x06,0x00
8.668005200000000,,0x01,0x07
8.670978800000000,,0x11,0x20
8.673952399999999,,0x28,0x04
8.676926000000000,,0x81,0x00
8.679899400000000,,0xEA,0x8D
8.716082000000000,,0xB0,0x0B
8.718557199999999,,0x04,0x00
8.721530800000000,,0x20,0x02
8.724504400000001,,0x8E,0x00
8.727478000000000,,0x01,0x07
8.730451600000000,,0x11,0x20
8.733425199999999,,0x28,0x04
8.736398800000000,,0x81,0x00
8.739372400000001,,0x72,0x8D
8.775766200000000,,0xB0,0x0B
8.778029200000001,,0x00,0x00
8.781002800000000,,0x20,0x02
8.783976400000000,,0x06,0x00
8.786949999999999,,0x01,0x07
8.789923600000000,,0x11,0x20
8.792897200000001,,0x28,0x04
8.795870799999999,,0x80,0x00
8.798844400000000,,0xE5,0x8D
8.834892200000001,,0xB0,0x0B
8.837503200000000,,0x00,0x00
8.840477000000000,,0x20,0x02
8.843450600000001,,0x8E,0x00
8.846424200000000,,0x01,0x07
8.849397800000000,,0x11,0x20
8.852371399999999,,0x28,0x04
8.855345200000000,,0x80,0x00
8.858318799999999,,0x6D,0x8D
8.894523200000000,,0xB0,0x0B
8.896977200000000,,0x00,0x00
8.899951000000000,,0x20,0x02
8.902924600000000,,0x06,0x00
8.905898400000000,,0x01,0x07
8.908872000000001,,0x11,0x20
8.911845599999999,,0x28,0x04
8.914819400000001,,0x80,0x00
8.917793200000000,,0xE5,0x8D
8.954137599999999,,0xB0,0x0B
8.956450999999999,,0x00,0x00
8.959424800000001,,0x20,0x02
8.962398600000000,,0x8E,0x00
8.965372199999999,,0x01,0x07
8.968346000000000,,0x11,0x20
8.971319800000000,,0x28,0x04
8.974293800000000,,0x80,0x00
8.977267599999999,,0x6D,0x8D
9.013773199999999,,0xB0,0x0B
9.015927000000000,,0x00,0x00
9.018900800000001,,0x20,0x02
9.021874600000000,,0x06,0x00
9.024848400000000,,0x01,0x07
9.027822000000000,,0x11,0x20
9.030795800000000,,0x28,0x04
9.033769800000000,,0x80,0x00
9.036743400000001,,0xE5,0x8D
9.072883200000000,,0xB0,0x0B
9.075402000000000,,0x00,0x00
9.078375599999999,,0x20,0x02
9.081349400000001,,0x8E,0x00
9.084322999999999,,0x01,0x07
9.087296600000000,,0x11,0x20
9.090270600000000,,0x28,0x04
9.093244400000000,,0x80,0x00
9.096218199999999,,0x6D,0x8D
9.132649199999999,,0xB0,0x0B
9.134876800000001,,0x00,0x00
9.137850600000000,,0x20,0x02
9.140824200000001,,0x06,0x00
9.143798000000000,,0x01,0x07
9.146771599999999,,0x11,0x20
9.149745400000000,,0x29,0x04
9.152718999999999,,0x80,0x00
9.155692600000000,,0xE6,0x8D
9.191770999999999,,0xB0,0x0B
9.194349400000000,,0x00,0x00
9.197323000000001,,0x20,0x02
9.200296800000000,,0x8E,0x00
9.203270399999999,,0x01,0x07
9.206244000000000,,0x11,0x20
9.209217600000001,,0x29,0x04
9.212191199999999,,0x80,0x00
9.215165000000001,,0x6E,0x8D
9.251385600000001,,0xB0,0x0B
9.253822000000000,,0x00,0x00
9.256795800000001,,0x20,0x02
9.259769199999999,,0x06,0x00
9.262742800000000,,0x01,0x07
9.265716400000001,,0x11,0x20
9.268689999999999,,0x29,0x04
9.271663600000000,,0x80,0x00
9.274637200000001,,0xE6,0x8D
9.311016000000000,,0xB0,0x0B
9.313294200000000,,0x00,0x00
9.316267800000000,,0x20,0x02
9.319241600000000,,0x8E,0x00
9.322215399999999,,0x01,0x07
9.325189000000000,,0x11,0x20
9.328162600000001,,0x29,0x04
9.331136400000000,,0x80,0x00
9.334110200000000,,0x6E,0x8D
9.370123800000000,,0xB0,0x0B
9.372767600000000,,0x00,0x00
9.375741200000000,,0x20,0x02
9.378714600000000,,0x06,0x00
9.381688400000000,,0x01,0x07
9.384662000000001,,0x11,0x20
9.387635400000001,,0x29,0x04
9.390609000000000,,0x80,0x00
9.393582800000001,,0xE6,0x8D
9.429762600000000,,0xB0,0x0B
9.432240400000000,,0x00,0x00
9.435214200000001,,0x20,0x02
9.438187800000000,,0x8E,0x00
9.441161400000000,,0x01,0x07
9.444135200000000,,0x11,0x20
9.447108999999999,,0x29,0x04
9.450082600000000,,0x80,0x00
9.453056200000001,,0x6E,0x8D
9.489394799999999,,0xB0,0x0B
9.491714200000001,,0x00,0x00
9.494688000000000,,0x20,0x02
9.497661799999999,,0x06,0x00
9.500635400000000,,0x01,0x07
9.503609200000000,,0x11,0x20
9.506582999999999,,0x29,0x04
9.509556800000000,,0x80,0x00
9.512530600000000,,0xE6,0x8D
9.549009600000000,,0xB0,0x0B
9.551190399999999,,0x00,0x00
9.554164200000001,,0x20,0x02
9.557138000000000,,0x8E,0x00
9.560111800000000,,0x01,0x07
9.563085600000001,,0x11,0x20
9.566059600000001,,0x29,0x04
9.569033400000000,,0x80,0x00
9.572007400000000,,0x6E,0x8D
9.608136000000000,,0xB0,0x0B
9.610665600000001,,0x00,0x00
9.613639200000000,,0x20,0x02
9.616612800000000,,0x06,0x00
9.619586600000000,,0x01,0x07
9.622560200000001,,0x11,0x20
9.625534000000000,,0x29,0x04
9.628507600000001,,0x80,0x00
9.631481400000000,,0xE6,0x8D
9.667754199999999,,0xB0,0x0B
9.670140399999999,,0x00,0x00
9.673114000000000,,0x20,0x02
9.676087799999999,,0x8E,0x00
9.679061400000000,,0x01,0x07
9.682035200000000,,0x11,0x20
9.685009000000001,,0x29,0x04
9.687982800000000,,0x80,0x00
9.690956600000000,,0x6E,0x8D
9.727389199999999,,0xB0,0x0B
9.729615200000000,,0x00,0x00
9.732588800000000,,0x20,0x02
9.735562399999999,,0x06,0x00
9.738536000000000,,0x01,0x07
9.741509600000001,,0x11,0x20
9.744483400000000,,0x29,0x04
9.747457000000001,,0x80,0x00
9.750430800000000,,0xE6,0x8D
9.786510200000000,,0xB0,0x0B
9.789088599999999,,0x00,0x00
9.792062000000000,,0x20,0x02
9.795035800000001,,0x8E,0x00
9.798009199999999,,0x01,0x07
9.800982800000000,,0x11,0x20
9.803956599999999,,0x29,0x04
9.806930200000000,,0x80,0x00
9.809903800000001,,0x6E,0x8D
9.846126200000000,,0xB0,0x0B
9.848562599999999,,0x00,0x00
9.851536400000001,,0x20,0x02
9.854510200000000,,0x06,0x00
9.857483800000001,,0x01,0x07
9.860457600000000,,0x11,0x20
9.863431200000001,,0x29,0x04
9.866404800000000,,0x80,0x00
9.869378599999999,,0xE6,0x8D
9.905759200000000,,0xB0,0x0B
9.908037200000001,,0x00,0x00
9.911011000000000,,0x20,0x02
9.913984800000000,,0x8E,0x00
9.916958599999999,,0x01,0x07
9.919932200000000,,0x11,0x20
9.922905800000001,,0x29,0x04
9.925879800000001,,0x80,0x00
9.928853600000000,,0x6E,0x8D
9.964867999999999,,0xB0,0x0B
9.967511800000000,,0x00,0x00
9.970485399999999,,0x20,0x02
9.973459200000001,,0x06,0x00
9.976432800000000,,0x01,0x07
9.979406400000000,,0x11,0x20
9.982380200000000,,0x29,0x04
9.985353800000000,,0x80,0x00
9.988327600000000,,0xE6,0x8D
10.024501200000000,,0xB0,0x0B
10.026985800000000,,0x00,0x00
10.029959600000000,,0x20,0x02
10.032933399999999,,0x8E,0x00
10.035907000000000,,0x01,0x07
10.038880799999999,,0x11,0x20
10.041854400000000,,0x29,0x04
10.044828000000001,,0x80,0x00
10.047801600000000,,0x6E,0x8D
10.084148400000000,,0xB0,0x0B
10.086460400000000,,0x00,0x00
10.089434000000001,,0x20,0x02
10.092407800000000,,0x06,0x00
10.095381600000000,,0x01,0x07
10.098355200000000,,0x11,0x20
10.101328799999999,,0x29,0x04
10.104302600000000,,0x80,0x00
10.107276199999999,,0xE6,0x8D
10.143380199999999,,0xB0,0x0B
10.145935400000001,,0x00,0x00
10.148909200000000,,0x20,0x02
10.151883000000000,,0x8E,0x00
10.154857000000000,,0x01,0x07
10.157830799999999,,0x11,0x20
10.160804600000001,,0x2A,0x04
10.163778600000001,,0x80,0x00
10.166752400000000,,0x6F,0x8D
10.203010200000000,,0xB0,0x0B
10.205409200000000,,0x00,0x00
10.208382800000001,,0x20,0x02
10.211356400000000,,0x06,0x00
10.214330000000000,,0x01,0x07
10.217303599999999,,0x11,0x20
10.220277200000000,,0x2A,0x04
10.223250999999999,,0x80,0x00
10.226224400000000,,0xE7,0x8D
10.262625000000000,,0xB0,0x0B
10.264882000000000,,0x00,0x00
10.267855600000001,,0x20,0x02
10.270829200000000,,0x8E,0x00
10.273802800000000,,0x01,0x07
10.276776399999999,,0x11,0x20
10.279750000000000,,0x2A,0x04
10.282723600000001,,0x80,0x00
10.285697200000000,,0x6F,0x8D
10.321747000000000,,0xB0,0x0B
10.324355400000000,,0x00,0x00
10.327329199999999,,0x20,0x02
10.330302800000000,,0x06,0x00
10.333276400000001,,0x01,0x07
10.336250200000000,,0x11,0x20
10.339223799999999,,0x2A,0x04
10.342197600000000,,0x80,0x00
10.345171400000000,,0xE7,0x8D
10.381385399999999,,0xB0,0x0B
10.383829400000000,,0x00,0x00
10.386803000000000,,0x20,0x02
10.389776800000000,,0x8E,0x00
10.392750599999999,,0x01,0x07
10.395724200000000,,0x11,0x20
10.398698000000000,,0x2A,0x04
10.401671800000001,,0x80,0x00
10.404645600000000,,0x6F,0x8D
10.441001999999999,,0xB0,0x0B
10.443304400000001,,0x00,0x00
10.446278200000000,,0x20,0x02
10.449252000000000,,0x06,0x00
10.452225600000000,,0x01,0x07
10.455199400000000,,0x11,0x20
10.458173000000000,,0x2A,0x04
10.461146800000000,,0x80,0x00
10.464120800000000,,0xE7,0x8D
10.500631600000000,,0xB0,0x0B
10.502779600000000,,0x00,0x00
10.505753400000000,,0x20,0x02
10.508727199999999,,0x8E,0x00
10.511701000000000,,0x01,0x07
10.514674800000000,,0x11,0x20
10.517648599999999,,0x2A,0x04
10.520622400000001,,0x80,0x00
10.523596200000000,,0x6F,0x8D
10.559743200000000,,0xB0,0x0B
10.562255000000000,,0x00,0x00
10.565228800000000,,0x20,0x02
10.568202400000001,,0x06,0x00
10.571175999999999,,0x01,0x07
10.574149600000000,,0x11,0x20
10.577123200000001,,0x2A,0x04
10.580096800000000,,0x80,0x00
10.583070599999999,,0xE7,0x8D
10.619378599999999,,0xB0,0x0B
10.621728400000000,,0x00,0x00
10.624702200000000,,0x20,0x02
10.627675999999999,,0x8E,0x00
10.630649800000000,,0x01,0x07
10.633623399999999,,0x11,0x20
10.636597200000001,,0x2A,0x04
10.639571000000000,,0x80,0x00
10.642544600000001,,0x6F,0x8D
10.679050600000000,,0xB0,0x0B
10.681202000000001,,0x40,0x00
10.684175600000000,,0x20,0x02
10.687149200000000,,0x06,0x00
10.690122799999999,,0x01,0x07
10.693096400000000,,0x11,0x20
10.696070000000001,,0x2A,0x04
10.699043600000000,,0x81,0x00
10.702017200000000,,0x28,0x8D
10.738213200000001,,0xB0,0x0B
10.740674000000000,,0x40,0x00
10.743647599999999,,0x20,0x02
10.746621400000000,,0x8E,0x00
10.749594999999999,,0x01,0x07
10.752568600000000,,0x11,0x20
10.755542200000001,,0x2A,0x04
10.758516000000000,,0x81,0x00
10.761489600000001,,0xB0,0x8D
10.797901200000000,,0xB0,0x0B
10.800146800000000,,0x40,0x00
10.803120600000000,,0x20,0x02
10.806094200000000,,0x06,0x00
10.809067799999999,,0x01,0x07
10.812041600000001,,0x11,0x20
10.815015199999999,,0x2A,0x04
10.817989000000001,,0x81,0x00
10.820962600000000,,0x28,0x8D
10.857066200000000,,0xB0,0x0B
10.859621199999999,,0x40,0x00
10.862594800000000,,0x20,0x02
10.865568600000000,,0x8E,0x00
10.868542400000001,,0x01,0x07
10.871516000000000,,0x11,0x20
10.874489799999999,,0x2A,0x04
10.877463600000000,,0x81,0x00
10.880437400000000,,0xB0,0x8D
10.916755200000001,,0xB0,0x0B
10.919096000000000,,0x40,0x00
10.922069600000000,,0x20,0x02
10.925043400000000,,0x06,0x00
10.928017000000001,,0x01,0x07
10.930990800000000,,0x11,0x20
10.933964400000001,,0x2A,0x04
10.936938200000000,,0x81,0x00
10.939911800000001,,0x28,0x8D
10.976449600000000,,0xB0,0x0B
10.978569999999999,,0x40,0x00
10.981543600000000,,0x20,0x02
10.984517400000000,,0x8E,0x00
10.987491000000000,,0x01,0x07
10.990464599999999,,0x11,0x20
10.993438200000000,,0x2A,0x04
10.996411999999999,,0x81,0x00
10.999385600000000,,0xB0,0x8D
11.035585400000000,,0xB0,0x0B
11.038043200000001,,0x00,0x00
11.041017000000000,,0x20,0x02
11.043990600000001,,0x06,0x00
11.046964400000000,,0x01,0x07
11.049937999999999,,0x11,0x20
11.052911800000000,,0x2A,0x04
11.055885399999999,,0x80,0x00
11.058859000000000,,0xE7,0x8D
11.095346200000000,,0xB0,0x0B
11.097519000000000,,0x00,0x00
11.100492600000001,,0x20,0x02
11.103466400000000,,0x8E,0x00
11.106439999999999,,0x01,0x07
11.109413600000000,,0x11,0x20
11.112387200000001,,0x2B,0x04
11.115360799999999,,0x80,0x00
11.118334600000001,,0x70,0x8D
11.154458200000001,,0xB0,0x0B
11.156993999999999,,0x00,0x00
11.159967800000000,,0x20,0x02
11.162941600000000,,0x06,0x00
11.165915399999999,,0x01,0x07
11.168889399999999,,0x11,0x20
11.171863200000001,,0x2B,0x04
11.174837200000001,,0x80,0x00
11.177811200000001,,0xE8,0x8D
11.214092200000000,,0xB0,0x0B
11.216469800000000,,0x00,0x00
11.219443600000000,,0x20,0x02
11.222417200000001,,0x8E,0x00
11.225391000000000,,0x01,0x07
11.228364600000001,,0x11,0x20
11.231338200000000,,0x2B,0x04
11.234311999999999,,0x80,0x00
11.237285800000000,,0x70,0x8D
11.273725400000000,,0xB0,0x0B
11.275944600000001,,0x00,0x00
11.278918200000000,,0x20,0x02
11.281891999999999,,0x06,0x00
11.284865600000000,,0x01,0x07
11.287839200000001,,0x11,0x20
11.290812799999999,,0x2B,0x04
11.293786400000000,,0x80,0x00
11.296760200000000,,0xE8,0x8D
11.332831600000000,,0xB0,0x0B
11.335417200000000,,0x00,0x00
11.338390800000001,,0x20,0x02
11.341364600000000,,0x8E,0x00
11.344338199999999,,0x01,0x07
11.347311800000000,,0x11,0x20
11.350285400000001,,0x2B,0x04
11.353259200000000,,0x80,0x00
11.356233000000000,,0x70,0x8D
11.392473000000001,,0xB0,0x0B
11.394891599999999,,0x00,0x00
11.397865400000001,,0x20,0x02
11.400839000000000,,0x06,0x00
11.403812800000001,,0x01,0x07
11.406786600000000,,0x11,0x20
11.409760400000000,,0x2B,0x04
11.412734000000000,,0x80,0x00
11.415707800000000,,0xE8,0x8D
11.452089600000001,,0xB0,0x0B
11.454366200000001,,0x00,0x00
11.457339800000000,,0x20,0x02
11.460313400000000,,0x8E,0x00
11.463286800000001,,0x01,0x07
11.466260600000000,,0x11,0x20
11.469234200000001,,0x2B,0x04
11.472207800000000,,0x80,0x00
11.475181400000000,,0x70,0x8D
11.511212600000000,,0xB0,0x0B
11.513838000000000,,0x00,0x00
11.516811600000000,,0x20,0x02
11.519785199999999,,0x06,0x00
11.522758800000000,,0x01,0x07
11.525732600000000,,0x11,0x20
11.528706400000001,,0x2B,0x04
11.531680000000000,,0x80,0x00
11.534654000000000,,0xE8,0x8D
11.570844400000000,,0xB0,0x0B
11.573311600000000,,0x00,0x00
11.576285199999999,,0x20,0x02
11.579259000000000,,0x8E,0x00
11.582232599999999,,0x01,0x07
11.585206200000000,,0x11,0x20
11.588179800000001,,0x2B,0x04
11.591153600000000,,0x80,0x00
11.594127200000001,,0x70,0x8D
11.630460400000000,,0xB0,0x0B
11.632785200000001,,0x00,0x00
11.635759000000000,,0x20,0x02
11.638732600000001,,0x06,0x00
11.641706400000000,,0x01,0x07
11.644679999999999,,0x11,0x20
11.647653800000001,,0x2B,0x04
11.650627399999999,,0x80,0x00
11.653601399999999,,0xE8,0x8D
11.690091000000001,,0xB0,0x0B
11.692259800000000,,0x00,0x00
11.695233600000000,,0x20,0x02
11.698207399999999,,0x8E,0x00
11.701181000000000,,0x01,0x07
11.704154600000001,,0x11,0x20
11.707128400000000,,0x2B,0x04
11.710102200000000,,0x80,0x00
11.713075800000000,,0x70,0x8D
11.749200800000001,,0xB0,0x0B
11.751734000000001,,0x00,0x00
11.754707800000000,,0x20,0x02
11.757681600000000,,0x06,0x00
11.760655399999999,,0x01,0x07
11.763629200000000,,0x11,0x20
11.766603000000000,,0x2B,0x04
11.769577000000000,,0x80,0x00
11.772550799999999,,0xE8,0x8D
11.808835000000000,,0xB0,0x0B
11.811210800000000,,0x00,0x00
11.814184800000000,,0x20,0x02
11.817158600000001,,0x8E,0x00
11.820132400000000,,0x01,0x07
11.823106400000000,,0x11,0x20
11.826080200000000,,0x2B,0x04
11.829053999999999,,0x80,0x00
11.832027800000001,,0x70,0x8D
11.868467600000001,,0xB0,0x0B
11.870686400000000,,0x00,0x00
11.873660200000000,,0x20,0x02
11.876633800000000,,0x06,0x00
11.879607600000000,,0x01,0x07
11.882581200000001,,0x11,0x20
11.885555000000000,,0x2B,0x04
11.888528800000000,,0x80,0x00
11.891502400000000,,0xE8,0x8D
11.927574600000000,,0xB0,0x0B
11.930160000000001,,0x00,0x00
11.933133600000000,,0x20,0x02
11.936107200000000,,0x8E,0x00
11.939080600000000,,0x01,0x07
11.942054000000001,,0x11,0x20
11.945027800000000,,0x2B,0x04
11.948001600000000,,0x80,0x00
11.950975400000001,,0x70,0x8D
11.987206199999999,,0xB0,0x0B
11.989633599999999,,0x00,0x00
11.992607200000000,,0x20,0x02
11.995580800000001,,0x06,0x00
11.998554600000000,,0x01,0x07
12.001528199999999,,0x11,0x20
12.004501800000000,,0x2B,0x04
12.007475599999999,,0x80,0x00
12.010449200000000,,0xE8,0x8D
12.046817799999999,,0xB0,0x0B
12.049106800000001,,0x00,0x00
12.052080399999999,,0x20,0x02
12.055054200000001,,0x8E,0x00
12.058027800000000,,0x01,0x07
12.061001600000001,,0x11,0x20
12.063975400000000,,0x2B,0x04
12.066949200000000,,0x80,0x00
12.069922800000001,,0x70,0x8D
12.106080600000000,,0xB0,0x0B
12.108582400000000,,0x00,0x00
12.111556200000001,,0x20,0x02
12.114530000000000,,0x06,0x00
12.117503800000000,,0x01,0x07
12.120477400000000,,0x11,0x20
12.123451200000000,,0x2C,0x04
12.126424800000001,,0x80,0x00
12.129398600000000,,0xE9,0x8D
12.165712200000000,,0xB0,0x0B
12.168056399999999,,0x00,0x00
12.171030200000001,,0x20,0x02
12.174004000000000,,0x8E,0x00
12.176977600000001,,0x01,0x07
12.179951200000000,,0x11,0x20
12.182924999999999,,0x2C,0x04
12.185898600000000,,0x80,0x00
12.188872200000000,,0x71,0x8D
12.225325399999999,,0xB0,0x0B
12.227529000000001,,0x00,0x00
12.230502599999999,,0x20,0x02
12.233476000000000,,0x06,0x00
12.236449600000000,,0x01,0x07
12.239423000000000,,0x11,0x20
12.242396800000000,,0x2C,0x04
12.245370400000001,,0x80,0x00
12.248343999999999,,0xE9,0x8D
12.284448200000000,,0xB0,0x0B
12.287001399999999,,0x00,0x00
12.289975000000000,,0x20,0x02
12.292948800000000,,0x8E,0x00
12.295922400000000,,0x01,0x07
12.298895999999999,,0x11,0x20
12.301869800000000,,0x2C,0x04
12.304843600000000,,0x80,0x00
12.307817200000001,,0x71,0x8D
12.344062600000001,,0xB0,0x0B
12.346475200000000,,0x00,0x00
12.349448799999999,,0x20,0x02
12.352422600000001,,0x06,0x00
12.355396400000000,,0x01,0x07
12.358370000000001,,0x11,0x20
12.361343600000000,,0x2C,0x04
12.364317399999999,,0x80,0x00
12.367291000000000,,0xE9,0x8D
12.403701399999999,,0xB0,0x0B
12.405949000000000,,0x00,0x00
12.408922799999999,,0x20,0x02
12.411896600000000,,0x8E,0x00
12.414870199999999,,0x01,0x07
12.417844000000001,,0x11,0x20
12.420817599999999,,0x2C,0x04
12.423791599999999,,0x80,0x00
12.426765400000001,,0x71,0x8D
12.462860600000001,,0xB0,0x0B
12.465424199999999,,0x08,0x00
12.468398000000001,,0x20,0x02
12.471371800000000,,0x06,0x00
12.474345599999999,,0x01,0x07
12.477319400000001,,0x11,0x20
12.480293200000000,,0x2C,0x04
12.483267000000000,,0x81,0x00
12.486240799999999,,0xF2,0x8D
12.522534400000000,,0xB0,0x0B
12.524899200000000,,0x08,0x00
12.527873000000000,,0x20,0x02
12.530846800000001,,0x8E,0x00
12.533820600000000,,0x01,0x07
12.536794400000000,,0x11,0x20
12.539768199999999,,0x2C,0x04
12.542742199999999,,0x81,0x00
12.545715800000000,,0x7A,0x8D
12.582227200000000,,0xB0,0x0B
12.584375800000000,,0x08,0x00
12.587349600000000,,0x20,0x02
12.590323200000000,,0x06,0x00
12.593297200000000,,0x01,0x07
12.596270799999999,,0x11,0x20
12.599244600000000,,0x2C,0x04
12.602218400000000,,0x81,0x00
12.605192000000001,,0xF2,0x8D
12.641394000000000,,0xB0,0x0B
12.643850400000000,,0x08,0x00
12.646824199999999,,0x20,0x02
12.649798000000001,,0x8E,0x00
12.652771800000000,,0x01,0x07
12.655745599999999,,0x11,0x20
12.658719400000001,,0x2C,0x04
12.661693200000000,,0x81,0x00
12.664667000000000,,0x7A,0x8D
12.701082800000000,,0xB0,0x0B
12.703325200000000,,0x08,0x00
12.706299000000000,,0x20,0x02
12.709272800000001,,0x06,0x00
12.712246400000000,,0x01,0x07
12.715220199999999,,0x11,0x20
12.718194000000000,,0x2C,0x04
12.721167599999999,,0x81,0x00
12.724141400000001,,0xF2,0x8D
12.760263399999999,,0xB0,0x0B
12.762798999999999,,0x08,0x00
12.765772999999999,,0x20,0x02
12.768746800000001,,0x8E,0x00
12.771720400000000,,0x01,0x07
12.774694200000001,,0x11,0x20
12.777668000000000,,0x2C,0x04
12.780641800000000,,0x81,0x00
12.783615599999999,,0x7A,0x8D
12.819940400000000,,0xB0,0x0B
12.822273600000001,,0x08,0x00
12.825247200000000,,0x20,0x02
12.828220800000000,,0x06,0x00
12.831194399999999,,0x01,0x07
12.834167799999999,,0x11,0x20
12.837141600000001,,0x2C,0x04
12.840115200000000,,0x81,0x00
12.843089000000001,,0xF2,0x8D
12.879599199999999,,0xB0,0x0B
12.881746400000001,,0x00,0x00
12.884719799999999,,0x20,0x02
12.887693400000000,,0x8E,0x00
12.890667000000001,,0x01,0x07
12.893640400000001,,0x11,0x20
12.896614000000000,,0x2C,0x04
12.899587600000000,,0x80,0x00
12.902561000000000,,0x71,0x8D
12.938703000000000,,0xB0,0x0B
12.941217600000000,,0x00,0x00
12.944191200000001,,0x20,0x02
12.947164799999999,,0x06,0x00
12.950138200000000,,0x01,0x07
12.953111800000000,,0x11,0x20
12.956085200000000,,0x2C,0x04
12.959058799999999,,0x80,0x00
12.962032400000000,,0xE9,0x8D
12.998333600000000,,0xB0,0x0B
13.000689200000000,,0x00,0x00
13.003662800000001,,0x20,0x02
13.006636400000000,,0x8E,0x00
13.009609800000000,,0x01,0x07
13.012583200000000,,0x11,0x20
13.015556800000001,,0x2C,0x04
13.018530400000000,,0x80,0x00
13.021504000000000,,0x71,0x8D
13.057976200000001,,0xB0,0x0B
13.060161400000000,,0x00,0x00
13.063135200000000,,0x20,0x02
13.066108800000000,,0x06,0x00
13.069082600000000,,0x01,0x07
13.072056200000000,,0x11,0x20
13.075030000000000,,0x2C,0x04
13.078003799999999,,0x80,0x00
13.080977400000000,,0xE9,0x8D
13.117201000000000,,0xB0,0x0B
13.119634400000001,,0x00,0x00
13.122608000000000,,0x20,0x02
13.125581800000001,,0x8E,0x00
13.128555400000000,,0x01,0x07
13.131529199999999,,0x11,0x20
13.134503000000000,,0x2D,0x04
13.137476599999999,,0x80,0x00
13.140450400000001,,0x72,0x8D
13.176831800000000,,0xB0,0x0B
13.179107600000000,,0x00,0x00
13.182081200000001,,0x20,0x02
13.185054800000000,,0x06,0x00
13.188028400000000,,0x01,0x07
13.191001999999999,,0x11,0x20
13.193975800000000,,0x2D,0x04
13.196949600000000,,0x80,0x00
13.199923200000001,,0xEA,0x8D
13.235940400000000,,0xB0,0x0B
13.238580199999999,,0x00,0x00
13.241553800000000,,0x20,0x02
13.244527400000001,,0x8E,0x00
13.247501000000000,,0x01,0x07
13.250474600000000,,0x11,0x20
13.253448000000001,,0x2D,0x04
13.256421599999999,,0x80,0x00
13.259395200000000,,0x72,0x8D
13.295571799999999,,0xB0,0x0B
13.298050999999999,,0x00,0x00
13.301024399999999,,0x20,0x02
13.303998000000000,,0x06,0x00
13.306971600000001,,0x01,0x07
13.309945000000001,,0x11,0x20
13.312918600000000,,0x2D,0x04
13.315892000000000,,0x80,0x00
13.318865600000001,,0xEA,0x8D
13.355207200000001,,0xB0,0x0B
13.357522800000000,,0x00,0x00
13.360496599999999,,0x20,0x02
13.363470200000000,,0x8E,0x00
13.366444000000000,,0x01,0x07
13.369417800000001,,0x11,0x20
13.372391400000000,,0x2D,0x04
13.375365000000000,,0x80,0x00
13.378338599999999,,0x72,0x8D
13.414822600000001,,0xB0,0x0B
13.416996400000000,,0x00,0x00
13.419969999999999,,0x20,0x02
13.422943600000000,,0x06,0x00
13.425917200000001,,0x01,0x07
13.428891000000000,,0x11,0x20
13.431864800000000,,0x2D,0x04
13.434838600000001,,0x80,0x00
13.437812400000000,,0xEA,0x8D
13.473948200000001,,0xB0,0x0B
13.476470400000000,,0x00,0x00
13.479444000000001,,0x20,0x02
13.482417800000000,,0x8E,0x00
13.485391399999999,,0x01,0x07
13.488365000000000,,0x11,0x20
13.491338799999999,,0x2D,0x04
13.494312600000001,,0x80,0x00
13.497286200000000,,0x72,0x8D
13.533564000000000,,0xB0,0x0B
13.535943000000000,,0x00,0x00
13.538916600000000,,0x20,0x02
13.541890199999999,,0x06,0x00
13.544863800000000,,0x01,0x07
13.547837400000001,,0x11,0x20
13.550811200000000,,0x2D,0x04
13.553784800000001,,0x80,0x00
13.556758400000000,,0xEA,0x8D
13.593195800000000,,0xB0,0x0B
13.595415200000000,,0x00,0x00
13.598388800000000,,0x20,0x02
13.601362200000001,,0x8E,0x00
13.604335799999999,,0x01,0x07
13.607309400000000,,0x11,0x20
13.610282800000000,,0x2D,0x04
13.613256200000000,,0x80,0x00
13.616229799999999,,0x72,0x8D
13.652318200000000,,0xB0,0x0B
13.654885800000001,,0x00,0x00
13.657859400000000,,0x20,0x02
13.660833000000000,,0x06,0x00
13.663806800000000,,0x01,0x07
13.666780200000000,,0x11,0x20
13.669753800000001,,0x2D,0x04
13.672727399999999,,0x80,0x00
13.675701000000000,,0xEA,0x8D
13.711928000000000,,0xB0,0x0B
13.714357400000001,,0x00,0x00
13.717331200000000,,0x20,0x02
13.720304799999999,,0x8E,0x00
13.723278400000000,,0x01,0x07
13.726252000000001,,0x11,0x20
13.729225599999999,,0x2D,0x04
13.732199000000000,,0x80,0x00
13.735172600000000,,0x72,0x8D
13.771560200000000,,0xB0,0x0B
13.773828999999999,,0x00,0x00
13.776802600000000,,0x20,0x02
13.779776000000000,,0x06,0x00
13.782749600000001,,0x01,0x07
13.785723000000001,,0x11,0x20
13.788696200000000,,0x2D,0x04
13.791669799999999,,0x80,0x00
13.794643400000000,,0xEA,0x8D
13.830667200000001,,0xB0,0x0B
13.833299800000001,,0x00,0x00
13.836273400000000,,0x20,0x02
13.839247000000000,,0x8E,0x00
13.842220400000000,,0x01,0x07
13.845193999999999,,0x11,0x20
13.848167600000000,,0x2D,0x04
13.851141200000001,,0x80,0x00
13.854114800000000,,0x72,0x8D
13.890297800000001,,0xB0,0x0B
13.892771000000000,,0x00,0x00
13.895744600000000,,0x20,0x02
13.898718000000001,,0x06,0x00
13.901691400000001,,0x01,0x07
13.904664800000001,,0x11,0x20
13.907638199999999,,0x2D,0x04
13.910611599999999,,0x80,0x00
13.913585200000000,,0xEA,0x8D
13.949927199999999,,0xB0,0x0B
13.952240600000000,,0x00,0x00
13.955214200000000,,0x20,0x02
13.958187600000000,,0x8E,0x00
13.961160800000000,,0x01,0x07
13.964134000000000,,0x11,0x20
13.967107400000000,,0x2D,0x04
13.970081000000000,,0x80,0x00
13.973054400000001,,0x72,0x8D
14.009542600000000,,0xB0,0x0B
14.011709200000000,,0x00,0x00
14.014682799999999,,0x20,0x02
14.017656199999999,,0x06,0x00
14.020629599999999,,0x01,0x07
14.023603200000000,,0x11,0x20
14.026576800000001,,0x2D,0x04
14.029550199999999,,0x80,0x00
14.032523800000000,,0xEA,0x8D
14.068829200000000,,0xB0,0x0B
14.071179799999999,,0x40,0x00
14.074153400000000,,0x20,0x02
14.077127000000001,,0x8E,0x00
14.080100600000000,,0x01,0x07
14.083074000000000,,0x11,0x20
14.086047799999999,,0x2E,0x04
14.089021400000000,,0x81,0x00
14.091994800000000,,0xB4,0x8D
14.128499200000000,,0xB0,0x0B
14.130650599999999,,0x40,0x00
14.133623999999999,,0x20,0x02
14.136597600000000,,0x06,0x00
14.139571200000001,,0x01,0x07
14.142544800000000,,0x11,0x20
14.145518400000000,,0x2E,0x04
14.148491999999999,,0x81,0x00
14.151465600000000,,0x2C,0x8D
14.187675400000000,,0xB0,0x0B
14.190120600000000,,0x40,0x00
14.193094000000000,,0x20,0x02
14.196067599999999,,0x8E,0x00
14.199040999999999,,0x01,0x07
14.202014399999999,,0x11,0x20
14.204987800000000,,0x2E,0x04
14.207961200000000,,0x81,0x00
14.210934800000000,,0xB4,0x8D
14.247358000000000,,0xB0,0x0B
14.249590400000001,,0x40,0x00
14.252564000000000,,0x20,0x02
14.255537400000000,,0x06,0x00
14.258511000000000,,0x01,0x07
14.261484400000001,,0x11,0x20
14.264457800000001,,0x2E,0x04
14.267431400000000,,0x81,0x00
14.270404800000000,,0x2C,0x8D
14.306519400000001,,0xB0,0x0B
14.309061000000000,,0x40,0x00
14.312034400000000,,0x20,0x02
14.315008199999999,,0x8E,0x00
14.317981800000000,,0x01,0x07
14.320955400000001,,0x11,0x20
14.323929200000000,,0x2E,0x04
14.326903000000000,,0x81,0x00
14.329876600000000,,0xB4,0x8D
14.366214200000000,,0xB0,0x0B
14.368534000000000,,0x40,0x00
14.371507599999999,,0x20,0x02
14.374481200000000,,0x06,0x00
14.377454800000001,,0x01,0x07
14.380428400000000,,0x11,0x20
14.383402000000000,,0x2E,0x04
14.386375400000000,,0x81,0x00
14.389348800000000,,0x2C,0x8D
14.425391599999999,,0xB0,0x0B
14.428005799999999,,0x00,0x00
14.430979400000000,,0x20,0x02
14.433953000000001,,0x8E,0x00
14.436926400000001,,0x01,0x07
14.439900000000000,,0x11,0x20
14.442873600000000,,0x2E,0x04
14.445847400000000,,0x80,0x00
14.448821000000001,,0x73,0x8D
14.485022400000000,,0xB0,0x0B
14.487478400000001,,0x00,0x00
14.490451800000001,,0x20,0x02
14.493425600000000,,0x06,0x00
14.496399400000000,,0x01,0x07
14.499373000000000,,0x11,0x20
14.502346599999999,,0x2E,0x04
14.505320400000000,,0x80,0x00
14.508294200000000,,0xEB,0x8D
14.544653600000000,,0xB0,0x0B
14.546951999999999,,0x00,0x00
14.549925800000000,,0x20,0x02
14.552899399999999,,0x8E,0x00
14.555873200000001,,0x01,0x07
14.558847000000000,,0x11,0x20
14.561821000000000,,0x2E,0x04
14.564794800000000,,0x80,0x00
14.567768600000001,,0x73,0x8D
14.604270000000000,,0xB0,0x0B
14.606428400000000,,0x00,0x00
14.609402200000000,,0x20,0x02
14.612375999999999,,0x06,0x00
14.615349800000001,,0x01,0x07
14.618323600000000,,0x11,0x20
14.621297400000000,,0x2E,0x04
14.624271200000001,,0x80,0x00
14.627245000000000,,0xEB,0x8D
14.663397200000000,,0xB0,0x0B
14.665903999999999,,0x00,0x00
14.668877800000001,,0x20,0x02
14.671851400000000,,0x8E,0x00
14.674825200000001,,0x01,0x07
14.677799000000000,,0x11,0x20
14.680772800000000,,0x2E,0x04
14.683746599999999,,0x80,0x00
14.686720400000000,,0x73,0x8D
14.723014400000000,,0xB0,0x0B
14.725378200000000,,0x00,0x00
14.728351999999999,,0x20,0x02
14.731325800000000,,0x06,0x00
14.734299800000001,,0x01,0x07
14.737273600000000,,0x11,0x20
14.740247399999999,,0x2E,0x04
14.743221399999999,,0x80,0x00
14.746195200000001,,0xEB,0x8D
14.782649599999999,,0xB0,0x0B
14.784853999999999,,0x00,0x00
14.787827800000001,,0x20,0x02
14.790801399999999,,0x8E,0x00
14.793775000000000,,0x01,0x07
14.796748800000000,,0x11,0x20
14.799722600000001,,0x2E,0x04
14.802696400000000,,0x80,0x00
14.805670200000000,,0x73,0x8D
14.841777799999999,,0xB0,0x0B
14.844330400000000,,0x00,0x00
14.847304200000000,,0x20,0x02
14.850277999999999,,0x06,0x00
14.853251600000000,,0x01,0x07
14.856225400000000,,0x11,0x20
14.859199200000001,,0x2E,0x04
14.862173000000000,,0x80,0x00
14.865146599999999,,0xEB,0x8D
14.901391600000000,,0xB0,0x0B
14.903803999999999,,0x00,0x00
14.906777800000000,,0x20,0x02
14.909751600000000,,0x8E,0x00
14.912725200000001,,0x01,0x07
14.915699000000000,,0x11,0x20
14.918672800000000,,0x2E,0x04
14.921646600000001,,0x80,0x00
14.924620200000000,,0x73,0x8D
14.961024399999999,,0xB0,0x0B
14.963279600000000,,0x00,0x00
14.966253399999999,,0x20,0x02
14.969227399999999,,0x06,0x00
14.972201200000001,,0x01,0x07
14.975175000000000,,0x11,0x20
14.978149000000000,,0x2E,0x04
14.981123000000000,,0x80,0x00
14.984097000000000,,0xEB,0x8D
15.020133000000000,,0xB0,0x0B
15.022755800000001,,0x00,0x00
15.025729600000000,,0x20,0x02
15.028703399999999,,0x8E,0x00
15.031677000000000,,0x01,0x07
15.034650800000000,,0x11,0x20
15.037624400000000,,0x2E,0x04
15.040598200000000,,0x80,0x00
15.043571999999999,,0x73,0x8D
15.079897400000000,,0xB0,0x0B
15.082229200000000,,0x00,0x00
15.085202799999999,,0x20,0x02
15.088176400000000,,0x06,0x00
15.091150200000000,,0x01,0x07
15.094123600000000,,0x11,0x20
15.097097399999999,,0x2F,0x04
15.100071000000000,,0x80,0x00
15.103044600000000,,0xEC,0x8D
15.139529400000001,,0xB0,0x0B
15.141702400000000,,0x00,0x00
15.144676000000000,,0x20,0x02
15.147649599999999,,0x8E,0x00
15.150623200000000,,0x01,0x07
15.153596600000000,,0x11,0x20
15.156570200000001,,0x2F,0x04
15.159543800000000,,0x80,0x00
15.162517200000000,,0x74,0x8D
15.198635599999999,,0xB0,0x0B
15.201173199999999,,0x00,0x00
15.204146800000000,,0x20,0x02
15.207120400000001,,0x06,0x00
15.210094000000000,,0x01,0x07
15.213067600000000,,0x11,0x20
15.216041199999999,,0x2F,0x04
15.219014800000000,,0x80,0x00
15.221988400000001,,0xEC,0x8D
15.258261600000001,,0xB0,0x0B
15.260644599999999,,0x00,0x00
15.263617999999999,,0x20,0x02
15.266591600000000,,0x8E,0x00
15.269565200000001,,0x01,0x07
15.272538600000001,,0x11,0x20
15.275512200000000,,0x2F,0x04
15.278485800000000,,0x80,0x00
15.281459600000000,,0x74,0x8D
15.317873199999999,,0xB0,0x0B
15.320115800000000,,0x00,0x00
15.323089200000000,,0x20,0x02
15.326062800000001,,0x06,0x00
15.329036400000000,,0x01,0x07
15.332009800000000,,0x11,0x20
15.334983400000000,,0x2F,0x04
15.337957200000000,,0x80,0x00
15.340930800000001,,0xEC,0x8D
15.377003200000001,,0xB0,0x0B
15.379587600000001,,0x00,0x00
15.382561200000000,,0x20,0x02
15.385534800000000,,0x8E,0x00
15.388508399999999,,0x01,0x07
15.391482000000000,,0x11,0x20
15.394455600000001,,0x2F,0x04
15.397429199999999,,0x80,0x00
15.400403000000001,,0x74,0x8D
15.436636399999999,,0xB0,0x0B
15.439060800000000,,0x00,0x00
15.442034400000001,,0x20,0x02
15.445008000000000,,0x06,0x00
15.447981600000000,,0x01,0x07
15.450955199999999,,0x11,0x20
15.453928800000000,,0x2F,0x04
15.456902599999999,,0x80,0x00
15.459876200000000,,0xEC,0x8D
15.496291599999999,,0xB0,0x0B
15.498533200000001,,0x10,0x00
15.501506800000000,,0x20,0x02
15.504480600000001,,0x8E,0x00
15.507454200000000,,0x01,0x07
15.510427800000000,,0x11,0x20
15.513401399999999,,0x2F,0x04
15.516375200000001,,0x81,0x00
15.519348799999999,,0x85,0x8D
15.555473599999999,,0xB0,0x0B
15.558007800000000,,0x10,0x00
15.560981600000000,,0x20,0x02
15.563955200000001,,0x06,0x00
15.566929200000001,,0x01,0x07
15.569903000000000,,0x11,0x20
15.572877000000000,,0x2F,0x04
15.575850600000001,,0x81,0x00
15.578824400000000,,0xFD,0x8D
15.615148200000000,,0xB0,0x0B
15.617484200000000,,0x10,0x00
15.620457999999999,,0x20,0x02
15.623431800000001,,0x8E,0x00
15.626405399999999,,0x01,0x07
15.629379000000000,,0x11,0x20
15.632352800000000,,0x2F,0x04
15.635326400000000,,0x81,0x00
15.638300200000000,,0x85,0x8D
15.674330400000001,,0xB0,0x0B
15.676958200000000,,0x10,0x00
15.679932200000000,,0x20,0x02
15.682905800000000,,0x06,0x00
15.685879600000000,,0x01,0x07
15.688853399999999,,0x11,0x20
15.691827000000000,,0x2F,0x04
15.694800799999999,,0x81,0x00
15.697774400000000,,0xFD,0x8D
15.734018600000001,,0xB0,0x0B
15.736432600000001,,0x10,0x00
15.739406199999999,,0x20,0x02
15.742379800000000,,0x8E,0x00
15.745353400000001,,0x01,0x07
15.748327000000000,,0x11,0x20
15.751300600000000,,0x2F,0x04
15.754274400000000,,0x81,0x00
15.757248000000001,,0x85,0x8D
15.793704999999999,,0xB0,0x0B
15.795906400000000,,0x00,0x00
15.798880199999999,,0x20,0x02
15.801853800000000,,0x06,0x00
15.804827599999999,,0x01,0x07
15.807801200000000,,0x11,0x20
15.810775000000000,,0x2F,0x04
15.813748800000001,,0x80,0x00
15.816722600000000,,0xEC,0x8D
15.852830800000000,,0xB0,0x0B
15.855380800000001,,0x00,0x00
15.858354400000000,,0x20,0x02
15.861328200000001,,0x8E,0x00
15.864301800000000,,0x01,0x07
15.867275599999999,,0x11,0x20
15.870249200000000,,0x2F,0x04
15.873222800000001,,0x80,0x00
15.876196600000000,,0x74,0x8D
15.912447000000000,,0xB0,0x0B
15.914855200000000,,0x00,0x00
15.917828800000001,,0x20,0x02
15.920802399999999,,0x06,0x00
15.923776000000000,,0x01,0x07
15.926749600000001,,0x11,0x20
15.929723600000001,,0x2F,0x04
15.932697200000000,,0x80,0x00
15.935670999999999,,0xEC,0x8D
15.972078399999999,,0xB0,0x0B
15.974328999999999,,0x00,0x00
15.977302800000000,,0x20,0x02
15.980276600000000,,0x8E,0x00
15.983250399999999,,0x01,0x07
15.986224000000000,,0x11,0x20
15.989197799999999,,0x2F,0x04
15.992171600000001,,0x80,0x00
15.995145200000000,,0x74,0x8D
16.031215799999998,,0xB0,0x0B
16.033803800000001,,0x00,0x00
16.036777600000001,,0x20,0x02
16.039751400000000,,0x06,0x00
16.042725200000000,,0x01,0x07
16.045698800000000,,0x11,0x20
16.048672600000000,,0x2F,0x04
16.051646600000002,,0x80,0x00
16.054620400000001,,0xEC,0x8D
16.090948999999998,,0xB0,0x0B
16.093278600000001,,0x00,0x00
16.096252400000001,,0x20,0x02
16.099226000000002,,0x8E,0x00
16.102199599999999,,0x01,0x07
16.105173400000002,,0x11,0x20
16.108146999999999,,0x30,0x04
16.111120400000001,,0x80,0x00
16.114094000000001,,0x75,0x8D
16.150578599999999,,0xB0,0x0B
16.152750399999999,,0x00,0x00
16.155723999999999,,0x20,0x02
16.158697600000000,,0x06,0x00
16.161671200000001,,0x01,0x07
16.164644800000001,,0x11,0x20
16.167618399999999,,0x30,0x04
16.170592200000002,,0x80,0x00
16.173565799999999,,0xED,0x8D
16.209687200000001,,0xB0,0x0B
16.212222799999999,,0x00,0x00
16.215196400000000,,0x20,0x02
16.218170199999999,,0x8E,0x00
16.221143800000000,,0x01,0x07
16.224117400000001,,0x11,0x20
16.227091000000001,,0x30,0x04
16.230064599999999,,0x80,0x00
16.233038000000001,,0x75,0x8D
16.269317200000000,,0xB0,0x0B
16.271694000000000,,0x00,0x00
16.274667800000000,,0x20,0x02
16.277641400000000,,0x06,0x00
16.280615000000001,,0x01,0x07
16.283588800000000,,0x11,0x20
16.286562600000000,,0x30,0x04
16.289536200000001,,0x80,0x00
16.292509800000001,,0xED,0x8D
16.328954800000002,,0xB0,0x0B
16.331167600000001,,0x00,0x00
16.334141200000001,,0x20,0x02
16.337114799999998,,0x8E,0x00
16.340088600000001,,0x01,0x07
16.343062000000000,,0x11,0x20
16.346035799999999,,0x30,0x04
16.349009400000000,,0x80,0x00
16.351982799999998,,0x75,0x8D
16.388061000000000,,0xB0,0x0B
16.390639400000001,,0x00,0x00
16.393612999999998,,0x20,0x02
16.396586599999999,,0x06,0x00
16.399560200000000,,0x01,0x07
16.402533800000000,,0x11,0x20
16.405507400000001,,0x30,0x04
16.408480999999998,,0x80,0x00
16.411454599999999,,0xED,0x8D
16.447692600000000,,0xB0,0x0B
16.450112600000001,,0x00,0x00
16.453086200000001,,0x20,0x02
16.456059799999998,,0x8E,0x00
16.459033399999999,,0x01,0x07
16.462007000000000,,0x11,0x20
16.464980600000001,,0x30,0x04
16.467954200000001,,0x80,0x00
16.470928000000001,,0x75,0x8D
16.507307600000001,,0xB0,0x0B
16.509585399999999,,0x00,0x00
16.512559000000000,,0x20,0x02
16.515532400000001,,0x06,0x00
16.518505999999999,,0x01,0x07
16.521479400000000,,0x11,0x20
16.524453000000001,,0x30,0x04
16.527426599999998,,0x80,0x00
16.530400199999999,,0xED,0x8D
16.566429200000002,,0xB0,0x0B
16.569057000000001,,0x00,0x00
16.572030600000001,,0x20,0x02
16.575004199999999,,0x8E,0x00
16.577977799999999,,0x01,0x07
16.580951400000000,,0x11,0x20
16.583924799999998,,0x30,0x04
16.586898399999999,,0x80,0x00
16.589872000000000,,0x75,0x8D
16.626055399999998,,0xB0,0x0B
16.628528599999999,,0x00,0x00
16.631502200000000,,0x20,0x02
16.634475800000001,,0x06,0x00
16.637449400000001,,0x01,0x07
16.640422800000000,,0x11,0x20
16.643396400000000,,0x30,0x04
16.646370000000001,,0x80,0x00
16.649343600000002,,0xED,0x8D
16.685669999999998,,0xB0,0x0B
16.687999600000001,,0x00,0x00
16.690973199999998,,0x20,0x02
16.693946799999999,,0x8E,0x00
16.696920400000000,,0x01,0x07
16.699894000000000,,0x11,0x20
16.702867600000001,,0x30,0x04
16.705841199999998,,0x80,0x00
16.708814799999999,,0x75,0x8D
16.745299400000000,,0xB0,0x0B
16.747471000000001,,0x00,0x00
16.750444600000002,,0x20,0x02
16.753418000000000,,0x06,0x00
16.756391600000001,,0x01,0x07
16.759365200000001,,0x11,0x20
16.762338600000000,,0x30,0x04
16.765312200000000,,0x80,0x00
16.768285800000001,,0xED,0x8D
16.804412400000000,,0xB0,0x0B
16.806940999999998,,0x00,0x00
16.809914599999999,,0x20,0x02
16.812888200000000,,0x8E,0x00
16.815861800000000,,0x01,0x07
16.818835400000001,,0x11,0x20
16.821808799999999,,0x30,0x04
16.824782599999999,,0x80,0x00
16.827756000000001,,0x75,0x8D
16.864100199999999,,0xB0,0x0B
16.866412400000002,,0x40,0x00
16.869385800000000,,0x20,0x02
16.872359400000001,,0x06,0x00
16.875332799999999,,0x01,0x07
16.878306400000000,,0x11,0x20
16.881279800000002,,0x30,0x04
16.884253399999999,,0x81,0x00
16.887226800000001,,0x2E,0x8D
16.923278799999999,,0xB0,0x0B
16.925883200000001,,0x40,0x00
16.928856600000000,,0x20,0x02
16.931830200000000,,0x8E,0x00
16.934803800000001,,0x01,0x07
16.937777400000002,,0x11,0x20
16.940750999999999,,0x30,0x04
16.943724400000001,,0x81,0x00
16.946698000000001,,0xB6,0x8D
16.982949999999999,,0xB0,0x0B
16.985354399999999,,0x40,0x00
16.988327999999999,,0x20,0x02
16.991301600000000,,0x06,0x00
16.994275200000001,,0x01,0x07
16.997248599999999,,0x11,0x20
17.000222000000001,,0x30,0x04
17.003195600000002,,0x81,0x00
17.006169199999999,,0x2E,0x8D
17.042261400000001,,0xB0,0x0B
17.044825199999998,,0x40,0x00
17.047798799999999,,0x20,0x02
17.050772400000000,,0x8E,0x00
17.053746000000000,,0x01,0x07
17.056719600000001,,0x11,0x20
17.059693200000002,,0x31,0x04
17.062666799999999,,0x81,0x00
17.065640200000001,,0xB7,0x8D
17.101931600000000,,0xB0,0x0B
17.104295799999999,,0x40,0x00
17.107269200000001,,0x20,0x02
17.110242400000001,,0x06,0x00
17.113215799999999,,0x01,0x07
17.116189200000001,,0x11,0x20
17.119162599999999,,0x31,0x04
17.122136200000000,,0x81,0x00
17.125109800000001,,0x2F,0x8D
17.161618399999998,,0xB0,0x0B
17.163766800000001,,0x40,0x00
17.166740399999998,,0x20,0x02
17.169713999999999,,0x8E,0x00
17.172687400000001,,0x01,0x07
17.175660799999999,,0x11,0x20
17.178634400000000,,0x31,0x04
17.181608000000001,,0x81,0x00
17.184581399999999,,0xB7,0x8D
17.220789400000001,,0xB0,0x0B
17.223237800000000,,0x00,0x00
17.226211400000000,,0x20,0x02
17.229185000000001,,0x06,0x00
17.232158800000001,,0x01,0x07
17.235132400000001,,0x11,0x20
17.238105999999998,,0x31,0x04
17.241079800000001,,0x80,0x00
17.244053399999999,,0xEE,0x8D
17.280402200000001,,0xB0,0x0B
17.282710000000002,,0x00,0x00
17.285683400000000,,0x20,0x02
17.288657199999999,,0x8E,0x00
17.291630800000000,,0x01,0x07
17.294604199999998,,0x11,0x20
17.297578000000001,,0x31,0x04
17.300551599999999,,0x80,0x00
17.303525400000002,,0x76,0x8D
17.340041400000000,,0xB0,0x0B
17.342183599999998,,0x00,0x00
17.345157400000002,,0x20,0x02
17.348130999999999,,0x06,0x00
17.351104599999999,,0x01,0x07
17.354078000000001,,0x11,0x20
17.357051599999998,,0x31,0x04
17.360025400000001,,0x80,0x00
17.362998800000000,,0xEE,0x8D
17.399145200000000,,0xB0,0x0B
17.401655399999999,,0x00,0x00
17.404629199999999,,0x20,0x02
17.407602799999999,,0x8E,0x00
17.410576599999999,,0x01,0x07
17.413550200000000,,0x11,0x20
17.416523800000000,,0x31,0x04
17.419497600000000,,0x80,0x00
17.422471200000000,,0x76,0x8D
17.458777000000001,,0xB0,0x0B
17.461129199999998,,0x00,0x00
17.464102799999999,,0x20,0x02
17.467076400000000,,0x06,0x00
17.470050000000001,,0x01,0x07
17.473023399999999,,0x11,0x20
17.475997199999998,,0x31,0x04
17.478970799999999,,0x80,0x00
17.481944599999999,,0xEE,0x8D
17.518402399999999,,0xB0,0x0B
17.520601400000000,,0x00,0x00
17.523575000000001,,0x20,0x02
17.526548600000002,,0x8E,0x00
17.529522199999999,,0x01,0x07
17.532495800000000,,0x11,0x20
17.535469599999999,,0x31,0x04
17.538443200000000,,0x80,0x00
17.541416999999999,,0x76,0x8D
17.577510000000000,,0xB0,0x0B
17.580075000000001,,0x00,0x00
17.583048800000000,,0x20,0x02
17.586022600000000,,0x06,0x00
17.588996399999999,,0x01,0x07
17.591970199999999,,0x11,0x20
17.594943799999999,,0x31,0x04
17.597917599999999,,0x80,0x00
17.600891399999998,,0xEE,0x8D
17.637140800000001,,0xB0,0x0B
17.639547799999999,,0x00,0x00
17.642521400000000,,0x20,0x02
17.645495000000000,,0x8E,0x00
17.648468399999999,,0x01,0x07
17.651441999999999,,0x11,0x20
17.654415600000000,,0x31,0x04
17.657389400000000,,0x80,0x00
17.660362800000001,,0x76,0x8D
17.696755199999998,,0xB0,0x0B
17.699019600000000,,0x00,0x00
17.701993200000000,,0x20,0x02
17.704967000000000,,0x06,0x00
17.707940600000001,,0x01,0x07
17.710914200000001,,0x11,0x20
17.713887600000000,,0x31,0x04
17.716861399999999,,0x80,0x00
17.719835000000000,,0xEE,0x8D
17.755877000000002,,0xB0,0x0B
17.758491800000002,,0x00,0x00
17.761465600000001,,0x20,0x02
17.764439400000001,,0x8E,0x00
17.767413200000000,,0x01,0x07
17.770386800000001,,0x11,0x20
17.773360600000000,,0x31,0x04
17.776334200000001,,0x80,0x00
17.779307599999999,,0x76,0x8D
17.815508200000000,,0xB0,0x0B
17.817962800000000,,0x00,0x00
17.820936400000001,,0x20,0x02
17.823910000000001,,0x06,0x00
17.826883599999999,,0x01,0x07
17.829857199999999,,0x11,0x20
17.832830800000000,,0x31,0x04
17.835804199999998,,0x80,0x00
17.838777799999999,,0xEE,0x8D
17.875122800000000,,0xB0,0x0B
17.877434999999998,,0x00,0x00
17.880408800000001,,0x20,0x02
17.883382399999999,,0x8E,0x00
17.886355999999999,,0x01,0x07
17.889329600000000,,0x11,0x20
17.892303200000001,,0x31,0x04
17.895276800000001,,0x80,0x00
17.898250399999998,,0x76,0x8D
17.934754999999999,,0xB0,0x0B
17.936907999999999,,0x00,0x00
17.939881799999998,,0x20,0x02
17.942855600000001,,0x06,0x00
17.945829199999999,,0x01,0x07
17.948802799999999,,0x11,0x20
17.951776400000000,,0x31,0x04
17.954750000000001,,0x80,0x00
17.957723800000000,,0xEE,0x8D
17.993863200000000,,0xB0,0x0B
17.996381400000001,,0x00,0x00
17.999355000000001,,0x20,0x02
18.002328400000000,,0x8E,0x00
18.005302000000000,,0x01,0x07
18.008275399999999,,0x11,0x20
18.011248999999999,,0x31,0x04
18.014222600000000,,0x80,0x00
18.017195999999998,,0x76,0x8D
18.053620400000000,,0xB0,0x0B
18.055852000000002,,0x00,0x00
18.058825400000000,,0x20,0x02
18.061799000000001,,0x06,0x00
18.064772399999999,,0x01,0x07
18.067746000000000,,0x11,0x20
18.070719600000000,,0x32,0x04
18.073693200000001,,0x80,0x00
18.076667000000000,,0xEF,0x8D
18.112742799999999,,0xB0,0x0B
18.115323199999999,,0x00,0x00
18.118296800000000,,0x20,0x02
18.121270200000001,,0x8E,0x00
18.124243799999999,,0x01,0x07
18.127217200000000,,0x11,0x20
18.130190800000001,,0x32,0x04
18.133164399999998,,0x80,0x00
18.136137800000000,,0x77,0x8D
18.172356400000002,,0xB0,0x0B
18.174793800000000,,0x00,0x00
18.177767400000000,,0x20,0x02
18.180741000000001,,0x06,0x00
18.183714599999998,,0x01,0x07
18.186688199999999,,0x11,0x20
18.189661999999998,,0x32,0x04
18.192635400000000,,0x80,0x00
18.195609000000001,,0xEF,0x8D
18.232010200000001,,0xB0,0x0B
18.234266200000000,,0x20,0x00
18.237239800000001,,0x20,0x02
18.240213399999998,,0x8E,0x00
18.243186999999999,,0x01,0x07
18.246160400000001,,0x11,0x20
18.249134000000002,,0x32,0x04
18.252107599999999,,0x81,0x00
18.255081199999999,,0x98,0x8D
18.291173199999999,,0xB0,0x0B
18.293737199999999,,0x20,0x00
18.296710600000001,,0x20,0x02
18.299684400000000,,0x06,0x00
18.302658000000001,,0x01,0x07
18.305631600000002,,0x11,0x20
18.308605000000000,,0x32,0x04
18.311578600000001,,0x81,0x00
18.314552200000001,,0x10,0x8D
18.350868999999999,,0xB0,0x0B
18.353209199999998,,0x20,0x00
18.356182799999999,,0x20,0x02
18.359156599999999,,0x8E,0x00
18.362130199999999,,0x01,0x07
18.365104200000001,,0x11,0x20
18.368077799999998,,0x32,0x04
18.371051600000001,,0x81,0x00
18.374025199999998,,0x98,0x8D
18.410558600000002,,0xB0,0x0B
18.412683000000001,,0x20,0x00
18.415656599999998,,0x20,0x02
18.418630199999999,,0x06,0x00
18.421603800000000,,0x01,0x07
18.424577400000000,,0x11,0x20
18.427551000000001,,0x32,0x04
18.430524599999998,,0x81,0x00
18.433498000000000,,0x10,0x8D
18.469722200000000,,0xB0,0x0B
18.472155799999999,,0x20,0x00
18.475129400000000,,0x20,0x02
18.478103200000000,,0x8E,0x00
18.481076800000000,,0x01,0x07
18.484050400000001,,0x11,0x20
18.487024000000002,,0x32,0x04
18.489997800000001,,0x81,0x00
18.492971600000001,,0x98,0x8D
18.529409600000001,,0xB0,0x0B
18.531629599999999,,0x20,0x00
18.534603400000002,,0x20,0x02
18.537576999999999,,0x06,0x00
18.540550600000000,,0x01,0x07
18.543524200000000,,0x11,0x20
18.546497800000001,,0x32,0x04
18.549471600000000,,0x81,0x00
18.552445200000001,,0x10,0x8D
18.588579800000002,,0xB0,0x0B
18.591102400000000,,0x20,0x00
18.594076000000001,,0x20,0x02
18.597049800000001,,0x8E,0x00
18.600023600000000,,0x01,0x07
18.602997200000001,,0x11,0x20
18.605970800000001,,0x32,0x04
18.608944399999999,,0x81,0x00
18.611918200000002,,0x98,0x8D
18.648228799999998,,0xB0,0x0B
18.650576600000001,,0x00,0x00
18.653550200000002,,0x20,0x02
18.656523600000000,,0x06,0x00
18.659497200000001,,0x01,0x07
18.662470800000001,,0x11,0x20
18.665444399999998,,0x32,0x04
18.668417999999999,,0x80,0x00
18.671391600000000,,0xEF,0x8D
18.707857600000001,,0xB0,0x0B
18.710049399999999,,0x00,0x00
18.713023000000000,,0x20,0x02
18.715996600000000,,0x8E,0x00
18.718970400000000,,0x01,0x07
18.721944000000001,,0x11,0x20
18.724917399999999,,0x32,0x04
18.727891000000000,,0x80,0x00
18.730864600000000,,0x77,0x8D
18.766967200000000,,0xB0,0x0B
18.769522400000000,,0x00,0x00
18.772496400000001,,0x20,0x02
18.775470200000001,,0x06,0x00
18.778444000000000,,0x01,0x07
18.781417800000000,,0x11,0x20
18.784391599999999,,0x32,0x04
18.787365600000001,,0x80,0x00
18.790339199999998,,0xEF,0x8D
18.826599800000000,,0xB0,0x0B
18.828998599999998,,0x00,0x00
18.831972400000001,,0x20,0x02
18.834946400000000,,0x8E,0x00
18.837920199999999,,0x01,0x07
18.840893999999999,,0x11,0x20
18.843867599999999,,0x32,0x04
18.846841600000001,,0x80,0x00
18.849815400000001,,0x77,0x8D
18.886217200000001,,0xB0,0x0B
18.888475000000000,,0x00,0x00
18.891448600000000,,0x20,0x02
18.894422400000000,,0x06,0x00
18.897396199999999,,0x01,0x07
18.900369999999999,,0x11,0x20
18.903343599999999,,0x32,0x04
18.906317399999999,,0x80,0x00
18.909291400000001,,0xEF,0x8D
18.945344400000000,,0xB0,0x0B
18.947950200000001,,0x00,0x00
18.950924000000001,,0x20,0x02
18.953897800000000,,0x8E,0x00
18.956871599999999,,0x01,0x07
18.959845200000000,,0x11,0x20
18.962819000000000,,0x32,0x04
18.965792600000000,,0x80,0x00
18.968766400000000,,0x77,0x8D
19.004992200000000,,0xB0,0x0B
19.007424600000000,,0x00,0x00
19.010398400000000,,0x20,0x02
19.013372000000000,,0x06,0x00
19.016345800000000,,0x01,0x07
19.019319599999999,,0x11,0x20
19.022293200000000,,0x32,0x04
19.025266800000001,,0x80,0x00
19.028240600000000,,0xEF,0x8D
19.064727000000001,,0xB0,0x0B
19.066899400000000,,0x00,0x00
19.069873200000000,,0x20,0x02
19.072846800000001,,0x8E,0x00
19.075820600000000,,0x01,0x07
19.078794400000000,,0x11,0x20
19.081768000000000,,0x33,0x04
19.084741800000000,,0x80,0x00
19.087715800000002,,0x78,0x8D
19.123853799999999,,0xB0,0x0B
19.126374999999999,,0x00,0x00
19.129348799999999,,0x20,0x02
19.132322599999998,,0x06,0x00
19.135296400000001,,0x01,0x07
19.138270200000001,,0x11,0x20
19.141244000000000,,0x33,0x04
19.144217999999999,,0x80,0x00
19.147191800000002,,0xF0,0x8D
19.183472600000002,,0xB0,0x0B
19.185850800000001,,0x00,0x00
19.188824600000000,,0x20,0x02
19.191798200000001,,0x8E,0x00
19.194772000000000,,0x01,0x07
19.197745600000001,,0x11,0x20
19.200719200000002,,0x33,0x04
19.203693000000001,,0x80,0x00
19.206666599999998,,0x78,0x8D
19.243101599999999,,0xB0,0x0B
19.245324199999999,,0x00,0x00
19.248297999999998,,0x20,0x02
19.251271599999999,,0x06,0x00
19.254245399999999,,0x01,0x07
19.257218999999999,,0x11,0x20
19.260192799999999,,0x33,0x04
19.263166399999999,,0x80,0x00
19.266140000000000,,0xF0,0x8D
19.302230000000002,,0xB0,0x0B
19.304796600000000,,0x00,0x00
19.307770200000000,,0x20,0x02
19.310743800000001,,0x8E,0x00
19.313717400000002,,0x01,0x07
19.316690999999999,,0x11,0x20
19.319664599999999,,0x33,0x04
19.322638200000000,,0x80,0x00
19.325611800000001,,0x78,0x8D
19.361844999999999,,0xB0,0x0B
19.364269000000000,,0x00,0x00
19.367242600000001,,0x20,0x02
19.370216400000000,,0x06,0x00
19.373190200000000,,0x01,0x07
19.376163800000000,,0x11,0x20
19.379137600000000,,0x33,0x04
19.382111399999999,,0x80,0x00
19.385085199999999,,0xF0,0x8D
19.421474400000001,,0xB0,0x0B
19.423744400000000,,0x00,0x00
19.426718200000000,,0x20,0x02
19.429691999999999,,0x8E,0x00
19.432665600000000,,0x01,0x07
19.435639200000001,,0x11,0x20
19.438613000000000,,0x33,0x04
19.441586800000000,,0x80,0x00
19.444560400000000,,0x78,0x8D
19.480591400000002,,0xB0,0x0B
19.483218800000000,,0x00,0x00
19.486192599999999,,0x20,0x02
19.489166399999998,,0x06,0x00
19.492140200000001,,0x01,0x07
19.495113799999999,,0x11,0x20
19.498087399999999,,0x33,0x04
19.501061199999999,,0x80,0x00
19.504034799999999,,0xF0,0x8D
19.540281000000000,,0xB0,0x0B
19.542692599999999,,0x40,0x00
19.545666400000002,,0x20,0x02
19.548640200000001,,0x8E,0x00
19.551613799999998,,0x01,0x07
19.554587600000001,,0x11,0x20
19.557561400000001,,0x33,0x04
19.560535200000000,,0x81,0x00
19.563508800000001,,0xB9,0x8D
19.599970200000001,,0xB0,0x0B
19.602165800000002,,0x40,0x00
19.605139600000001,,0x20,0x02
19.608113199999998,,0x06,0x00
19.611087000000001,,0x01,0x07
19.614060599999998,,0x11,0x20
19.617034400000001,,0x33,0x04
19.620008200000001,,0x81,0x00
19.622981800000002,,0x31,0x8D
19.659136000000000,,0xB0,0x0B
19.661639800000000,,0x40,0x00
19.664613400000000,,0x20,0x02
19.667587200000000,,0x8E,0x00
19.670560800000001,,0x01,0x07
19.673534199999999,,0x11,0x20
19.676507999999998,,0x33,0x04
19.679481599999999,,0x81,0x00
19.682455399999998,,0xB9,0x8D
19.718823799999999,,0xB0,0x0B
19.721113400000000,,0x40,0x00
19.724087000000001,,0x20,0x02
19.727060600000002,,0x06,0x00
19.730034400000001,,0x01,0x07
19.733008000000002,,0x11,0x20
19.735981800000001,,0x33,0x04
19.738955600000001,,0x81,0x00
19.741929400000000,,0x31,0x8D
19.777989000000002,,0xB0,0x0B
19.780588000000002,,0x40,0x00
19.783561800000001,,0x20,0x02
19.786535600000001,,0x8E,0x00
19.789509400000000,,0x01,0x07
19.792483000000001,,0x11,0x20
19.795456800000000,,0x33,0x04
19.798430600000000,,0x81,0x00
19.801404399999999,,0xB9,0x8D
19.837680200000001,,0xB0,0x0B
19.840062400000001,,0x40,0x00
19.843036000000001,,0x20,0x02
19.846009599999999,,0x06,0x00
19.848983199999999,,0x01,0x07
19.851956999999999,,0x11,0x20
19.854930599999999,,0x33,0x04
19.857904200000000,,0x81,0x00
19.860877800000001,,0x31,0x8D
19.897372000000001,,0xB0,0x0B
19.899535000000000,,0x40,0x00
19.902508800000000,,0x20,0x02
19.905482400000000,,0x8E,0x00
19.908456399999999,,0x01,0x07
19.911430200000002,,0x11,0x20
19.914404000000001,,0x33,0x04
19.917377800000001,,0x81,0x00
19.920351799999999,,0xB9,0x8D
19.956524399999999,,0xB0,0x0B
19.959011799999999,,0x00,0x00
19.961985599999998,,0x20,0x02
19.964959400000001,,0x06,0x00
19.967933200000001,,0x01,0x07
19.970907000000000,,0x11,0x20
19.973880600000001,,0x33,0x04
19.976854599999999,,0x80,0x00
19.979828399999999,,0xF0,0x8D
20.016290600000001,,0xB0,0x0B
20.018488000000001,,0x00,0x00
20.021461800000001,,0x20,0x02
20.024435600000000,,0x8E,0x00
20.027409599999999,,0x01,0x07
20.030383400000002,,0x11,0x20
20.033356999999999,,0x34,0x04
20.036330800000002,,0x80,0x00
20.039304600000001,,0x79,0x8D
20.075403399999999,,0xB0,0x0B
20.077963400000002,,0x00,0x00
20.080937200000001,,0x20,0x02
20.083910800000002,,0x06,0x00
20.086884600000001,,0x01,0x07
20.089858199999998,,0x11,0x20
20.092831799999999,,0x34,0x04
20.095805400000000,,0x80,0x00
20.098779199999999,,0xF1,0x8D
20.135033199999999,,0xB0,0x0B
20.137436800000000,,0x00,0x00
20.140410599999999,,0x20,0x02
20.143384399999999,,0x8E,0x00
20.146358200000002,,0x01,0x07
20.149332000000001,,0x11,0x20
20.152305800000001,,0x34,0x04
20.155279799999999,,0x80,0x00
20.158253599999998,,0x79,0x8D
20.194667200000001,,0xB0,0x0B
20.196911799999999,,0x00,0x00
20.199885399999999,,0x20,0x02
20.202859000000000,,0x06,0x00
20.205832600000001,,0x01,0x07
20.208806200000001,,0x11,0x20
20.211780000000001,,0x34,0x04
20.214753600000002,,0x80,0x00
20.217727000000000,,0xF1,0x8D
20.253775000000001,,0xB0,0x0B
20.256383799999998,,0x00,0x00
20.259357399999999,,0x20,0x02
20.262331000000000,,0x8E,0x00
20.265304600000000,,0x01,0x07
20.268278400000000,,0x11,0x20
20.271252000000000,,0x34,0x04
20.274225600000001,,0x80,0x00
20.277199000000000,,0x79,0x8D
20.313414800000000,,0xB0,0x0B
20.315856799999999,,0x00,0x00
20.318830800000001,,0x20,0x02
20.321804600000000,,0x06,0x00
20.324778599999998,,0x01,0x07
20.327752400000001,,0x11,0x20
20.330726200000001,,0x34,0x04
20.333700000000000,,0x80,0x00
20.336673800000000,,0xF1,0x8D
20.373031200000000,,0xB0,0x0B
20.375332600000000,,0x00,0x00
20.378306400000000,,0x20,0x02
20.381280000000000,,0x8E,0x00
20.384253600000001,,0x01,0x07
20.387227400000000,,0x11,0x20
20.390201200000000,,0x34,0x04
20.393174999999999,,0x80,0x00
20.396148799999999,,0x79,0x8D
20.432666999999999,,0xB0,0x0B
20.434808400000001,,0x00,0x00
20.437782200000001,,0x20,0x02
20.440756000000000,,0x06,0x00
20.443729800000000,,0x01,0x07
20.446703599999999,,0x11,0x20
20.449677399999999,,0x34,0x04
20.452651199999998,,0x80,0x00
20.455625200000000,,0xF1,0x8D
20.491793800000000,,0xB0,0x0B
20.494284199999999,,0x00,0x00
20.497258200000001,,0x20,0x02
20.500232199999999,,0x8E,0x00
20.503205800000000,,0x01,0x07
20.506179800000002,,0x11,0x20
20.509153399999999,,0x34,0x04
20.512127199999998,,0x80,0x00
20.515101000000001,,0x79,0x8D
20.551412400000000,,0xB0,0x0B
20.553758999999999,,0x00,0x00
20.556732799999999,,0x20,0x02
20.559706599999998,,0x06,0x00
20.562680400000001,,0x01,0x07
20.565653999999999,,0x11,0x20
20.568627800000002,,0x34,0x04
20.571601600000001,,0x80,0x00
20.574575200000002,,0xF1,0x8D
20.611058000000000,,0xB0,0x0B
20.613233999999999,,0x00,0x00
20.616207800000002,,0x20,0x02
20.619181399999999,,0x8E,0x00
20.622155200000002,,0x01,0x07
20.625128799999999,,0x11,0x20
20.628102400000000,,0x34,0x04
20.631076199999999,,0x80,0x00
20.634049999999998,,0x79,0x8D
20.670220400000002,,0xB0,0x0B
20.672708799999999,,0x00,0x00
20.675682599999998,,0x22,0x02
20.678656600000000,,0x06,0x00
20.681630400000000,,0x01,0x07
20.684604199999999,,0x11,0x20
20.687577999999998,,0x34,0x04
20.690552000000000,,0x81,0x00
20.693525800000000,,0xF4,0x8D
20.729911999999999,,0xB0,0x0B
20.732186800000001,,0x00,0x00
20.735160600000000,,0x22,0x02
20.738134599999999,,0x8E,0x00
20.741108600000000,,0x01,0x07
20.744082400000000,,0x11,0x20
20.747056400000002,,0x34,0x04
20.750030400000000,,0x81,0x00
20.753004199999999,,0x7C,0x8D
20.789099799999999,,0xB0,0x0B
20.791664999999998,,0x00,0x00
20.794639000000000,,0x22,0x02
20.797612999999998,,0x06,0x00
20.800587000000000,,0x01,0x07
20.803560800000000,,0x11,0x20
20.806534800000001,,0x34,0x04
20.809508800000000,,0x81,0x00
20.812482800000002,,0xF4,0x8D
20.848776399999998,,0xB0,0x0B
20.851143199999999,,0x00,0x00
20.854117200000001,,0x22,0x02
20.857091199999999,,0x8E,0x00
20.860064999999999,,0x01,0x07
20.863038800000002,,0x11,0x20
20.866012600000001,,0x34,0x04
20.868986599999999,,0x81,0x00
20.871960399999999,,0x7C,0x8D
20.908468800000001,,0xB0,0x0B
20.910620399999999,,0x00,0x00
20.913594199999999,,0x22,0x02
20.916568000000002,,0x06,0x00
20.919542000000000,,0x01,0x07
20.922515600000001,,0x11,0x20
20.925489599999999,,0x34,0x04
20.928463399999998,,0x81,0x00
20.931437400000000,,0xF4,0x8D
20.967635200000000,,0xB0,0x0B
20.970096000000002,,0x00,0x00
20.973069800000001,,0x22,0x02
20.976043399999998,,0x8E,0x00
20.979017200000001,,0x01,0x07
20.981991000000001,,0x11,0x20
20.984964800000000,,0x34,0x04
20.987938799999998,,0x81,0x00
20.990912399999999,,0x7C,0x8D
21.026952000000001,,0xB0,0x0B
21.029571399999998,,0x00,0x00
21.032544999999999,,0x22,0x02
21.035518600000000,,0x06,0x00
21.038492399999999,,0x01,0x07
21.041466000000000,,0x11,0x20
21.044439600000000,,0x35,0x04
21.047413400000000,,0x81,0x00
21.050387000000001,,0xF5,0x8D
21.086615399999999,,0xB0,0x0B
21.089045599999999,,0x00,0x00
21.092019400000002,,0x20,0x02
21.094993200000001,,0x8E,0x00
21.097967000000001,,0x01,0x07
21.100940800000000,,0x11,0x20
21.103914600000000,,0x35,0x04
21.106888399999999,,0x80,0x00
21.109862400000001,,0x7A,0x8D
21.146232000000001,,0xB0,0x0B
21.148522199999999,,0x00,0x00
21.151496000000002,,0x20,0x02
21.154470000000000,,0x06,0x00
21.157444000000002,,0x01,0x07
21.160417800000001,,0x11,0x20
21.163391799999999,,0x35,0x04
21.166365599999999,,0x80,0x00
21.169339600000001,,0xF2,0x8D
21.205357599999999,,0xB0,0x0B
21.207998400000001,,0x00,0x00
21.210972200000000,,0x20,0x02
21.213946000000000,,0x8E,0x00
21.216919600000001,,0x01,0x07
21.219893400000000,,0x11,0x20
21.222867000000001,,0x35,0x04
21.225840600000002,,0x80,0x00
21.228814400000001,,0x7A,0x8D
21.264973000000001,,0xB0,0x0B
21.267472800000000,,0x00,0x00
21.270446799999998,,0x20,0x02
21.273420399999999,,0x06,0x00
21.276394199999999,,0x01,0x07
21.279367799999999,,0x11,0x20
21.282341599999999,,0x35,0x04
21.285315400000002,,0x80,0x00
21.288288999999999,,0xF2,0x8D
21.324611000000001,,0xB0,0x0B
21.326946800000002,,0x00,0x00
21.329920399999999,,0x20,0x02
21.332894000000000,,0x8E,0x00
21.335867600000000,,0x01,0x07
21.338841200000001,,0x11,0x20
21.341814800000002,,0x35,0x04
21.344788399999999,,0x80,0x00
21.347761999999999,,0x7A,0x8D
21.384243000000001,,0xB0,0x0B
21.386420399999999,,0x00,0x00
21.389394200000002,,0x20,0x02
21.392368000000001,,0x06,0x00
21.395341599999998,,0x01,0x07
21.398315400000001,,0x11,0x20
21.401289200000001,,0x35,0x04
21.404263000000000,,0x80,0x00
21.407236800000000,,0xF2,0x8D
21.443351799999999,,0xB0,0x0B
21.445896600000001,,0x00,0x00
21.448870599999999,,0x20,0x02
21.451844600000001,,0x8E,0x00
21.454818599999999,,0x01,0x07
21.457792399999999,,0x11,0x20
21.460766199999998,,0x35,0x04
21.463740200000000,,0x80,0x00
21.466714000000000,,0x7A,0x8D
21.502988599999998,,0xB0,0x0B
21.505374400000001,,0x00,0x00
21.508348000000002,,0x20,0x02
21.511321800000001,,0x06,0x00
21.514295600000001,,0x01,0x07
21.517269200000001,,0x11,0x20
21.520242799999998,,0x35,0x04
21.523216600000001,,0x80,0x00
21.526190199999998,,0xF2,0x8D
21.562606200000001,,0xB0,0x0B
21.564848399999999,,0x00,0x00
21.567822000000000,,0x20,0x02
21.570795799999999,,0x8E,0x00
21.573769400000000,,0x01,0x07
21.576743000000000,,0x11,0x20
21.579716600000001,,0x35,0x04
21.582690199999998,,0x80,0x00
21.585664000000001,,0x7A,0x8D
21.621731000000000,,0xB0,0x0B
21.624321200000001,,0x00,0x00
21.627295000000000,,0x20,0x02
21.630268600000001,,0x06,0x00
21.633242200000002,,0x01,0x07
21.636215799999999,,0x11,0x20
21.639189399999999,,0x35,0x04
21.642163199999999,,0x80,0x00
21.645136600000001,,0xF2,0x8D
21.681362799999999,,0xB0,0x0B
21.683794400000000,,0x00,0x00
21.686768199999999,,0x20,0x02
21.689741999999999,,0x8E,0x00
21.692715799999998,,0x01,0x07
21.695689399999999,,0x11,0x20
21.698663199999999,,0x35,0x04
21.701637000000002,,0x80,0x00
21.704610800000001,,0x7A,0x8D
21.740995000000002,,0xB0,0x0B
21.743270599999999,,0x40,0x00
21.746244600000001,,0x20,0x02
21.749218200000001,,0x06,0x00
21.752192000000001,,0x01,0x07
21.755165800000000,,0x11,0x20
21.758139600000000,,0x35,0x04
21.761113600000002,,0x81,0x00
21.764087400000001,,0x33,0x8D
21.800178400000000,,0xB0,0x0B
21.802747400000001,,0x40,0x00
21.805721200000001,,0x20,0x02
21.808695000000000,,0x8E,0x00
21.811668999999998,,0x01,0x07
21.814642599999999,,0x11,0x20
21.817616600000001,,0x35,0x04
21.820590400000000,,0x81,0x00
21.823564399999999,,0xBB,0x8D
21.859853399999999,,0xB0,0x0B
21.862224000000001,,0x40,0x00
21.865197800000001,,0x20,0x02
21.868171600000000,,0x06,0x00
21.871145400000000,,0x01,0x07
21.874119199999999,,0x11,0x20
21.877092999999999,,0x35,0x04
21.880066800000002,,0x81,0x00
21.883040399999999,,0x33,0x8D
21.919544599999998,,0xB0,0x0B
21.921699600000000,,0x40,0x00
21.924673400000000,,0x20,0x02
21.927647400000001,,0x8E,0x00
21.930621200000001,,0x01,0x07
21.933595000000000,,0x11,0x20
21.936568800000000,,0x35,0x04
21.939542599999999,,0x81,0x00
21.942516600000001,,0xBB,0x8D
21.978742199999999,,0xB0,0x0B
21.981176200000000,,0x40,0x00
21.984150000000000,,0x20,0x02
21.987123600000000,,0x06,0x00
21.990098799999998,,0x01,0x07
21.993075000000001,,0x11,0x20
21.996048800000001,,0x35,0x04
21.999022799999999,,0x81,0x00
22.001996399999999,,0x33,0x8D
22.038246999999998,,0xB0,0x0B
22.040655800000000,,0x40,0x00
22.043629599999999,,0x20,0x02
22.046603600000001,,0x8E,0x00
22.049577599999999,,0x01,0x07
22.052551600000001,,0x11,0x20
22.055525400000001,,0x36,0x04
22.058499399999999,,0x81,0x00
22.061473199999998,,0xBC,0x8D
22.097948599999999,,0xB0,0x0B
22.100133000000000,,0x40,0x00
22.103106600000000,,0x20,0x02
22.106080400000000,,0x06,0x00
22.109054199999999,,0x01,0x07
22.112027999999999,,0x11,0x20
22.115001800000002,,0x36,0x04
22.117975800000000,,0x81,0x00
22.120949599999999,,0x34,0x8D
22.157076199999999,,0xB0,0x0B
22.159609000000000,,0x00,0x00
22.162582799999999,,0x20,0x02
22.165556599999999,,0x8E,0x00
22.168530199999999,,0x01,0x07
22.171504200000001,,0x11,0x20
22.174478000000001,,0x36,0x04
22.177451800000000,,0x80,0x00
22.180425600000000,,0x7B,0x8D
22.216712800000000,,0xB0,0x0B
22.219085600000000,,0x00,0x00
22.222059399999999,,0x20,0x02
22.225033400000001,,0x06,0x00
22.228007399999999,,0x01,0x07
22.230981400000001,,0x11,0x20
22.233955200000000,,0x36,0x04
22.236929199999999,,0x80,0x00
22.239903200000001,,0xF3,0x8D
22.276354999999999,,0xB0,0x0B
22.278563399999999,,0x00,0x00
22.281537400000001,,0x20,0x02
22.284511400000000,,0x8E,0x00
22.287485199999999,,0x01,0x07
22.290459200000001,,0x11,0x20
22.293433000000000,,0x36,0x04
22.296406800000000,,0x80,0x00
22.299380599999999,,0x7B,0x8D
22.335467000000001,,0xB0,0x0B
22.338038399999999,,0x00,0x00
22.341012200000002,,0x20,0x02
22.343985799999999,,0x06,0x00
22.346959399999999,,0x01,0x07
22.349933199999999,,0x11,0x20
22.352906800000000,,0x36,0x04
22.355880400000000,,0x80,0x00
22.358854000000001,,0xF3,0x8D
22.395098999999998,,0xB0,0x0B
22.397511999999999,,0x00,0x00
22.400485600000000,,0x20,0x02
22.403459399999999,,0x8E,0x00
22.406432800000001,,0x01,0x07
22.409406400000002,,0x11,0x20
22.412379800000000,,0x36,0x04
22.415353400000001,,0x80,0x00
22.418327000000001,,0x7B,0x8D
22.454714800000001,,0xB0,0x0B
22.456985400000001,,0x00,0x00
22.459959200000000,,0x20,0x02
22.462932800000001,,0x06,0x00
22.465906400000001,,0x01,0x07
22.468880200000001,,0x11,0x20
22.471853800000002,,0x36,0x04
22.474827600000001,,0x80,0x00
22.477801400000001,,0xF3,0x8D
22.513840399999999,,0xB0,0x0B
22.516458799999999,,0x00,0x00
22.519432599999998,,0x20,0x02
22.522406199999999,,0x8E,0x00
22.525379800000000,,0x01,0x07
22.528353599999999,,0x11,0x20
22.531327200000000,,0x36,0x04
22.534300999999999,,0x80,0x00
22.537274600000000,,0x7B,0x8D
22.573471000000001,,0xB0,0x0B
22.575931799999999,,0x00,0x00
22.578905400000000,,0x20,0x02
22.581879000000001,,0x06,0x00
22.584852600000001,,0x01,0x07
22.587826199999999,,0x11,0x20
22.590799799999999,,0x36,0x04
22.593773400000000,,0x80,0x00
22.596747199999999,,0xF3,0x8D
22.633085800000000,,0xB0,0x0B
22.635404000000001,,0x00,0x00
22.638377599999998,,0x20,0x02
22.641351199999999,,0x8E,0x00
22.644324800000000,,0x01,0x07
22.647298200000002,,0x11,0x20
22.650271799999999,,0x36,0x04
22.653245399999999,,0x80,0x00
22.656219000000000,,0x7B,0x8D
22.692715000000000,,0xB0,0x0B
22.694875199999998,,0x00,0x00
22.697848799999999,,0x20,0x02
22.700822400000000,,0x06,0x00
22.703796000000001,,0x01,0x07
22.706769600000001,,0x11,0x20
22.709743400000001,,0x36,0x04
22.712717000000001,,0x80,0x00
22.715690599999999,,0xF3,0x8D
22.751832799999999,,0xB0,0x0B
22.754348000000000,,0x00,0x00
22.757321800000000,,0x20,0x02
22.760295599999999,,0x8E,0x00
22.763269399999999,,0x01,0x07
22.766242999999999,,0x11,0x20
22.769216799999999,,0x36,0x04
22.772190399999999,,0x80,0x00
22.775164199999999,,0x7B,0x8D
22.811504800000002,,0xB0,0x0B
22.813822600000002,,0x00,0x00
22.816796199999999,,0x24,0x02
22.819769999999998,,0x06,0x00
22.822743599999999,,0x01,0x07
22.825717399999998,,0x11,0x20
22.828690999999999,,0x36,0x04
22.831664799999999,,0x81,0x00
22.834638399999999,,0xF8,0x8D
22.870689200000001,,0xB0,0x0B
22.873297200000000,,0x00,0x00
22.876270999999999,,0x24,0x02
22.879244600000000,,0x8E,0x00
22.882218399999999,,0x01,0x07
22.885192000000000,,0x11,0x20
22.888165799999999,,0x36,0x04
22.891139800000001,,0x81,0x00
22.894113600000001,,0x80,0x8D
22.930362800000001,,0xB0,0x0B
22.932773000000001,,0x00,0x00
22.935746800000000,,0x24,0x02
22.938720600000000,,0x06,0x00
22.941694399999999,,0x01,0x07
22.944668199999999,,0x11,0x20
22.947641999999998,,0x36,0x04
22.950616000000000,,0x81,0x00
22.953589800000000,,0xF8,0x8D
22.989658400000000,,0xB0,0x0B
22.992249000000001,,0x00,0x00
22.995222600000002,,0x24,0x02
22.998196400000001,,0x8E,0x00
23.001170200000001,,0x01,0x07
23.004144000000000,,0x11,0x20
23.007117800000000,,0x37,0x04
23.010091599999999,,0x81,0x00
23.013065399999999,,0x81,0x8D
23.049330600000001,,0xB0,0x0B
23.051723800000001,,0x00,0x00
23.054697399999998,,0x24,0x02
23.057670999999999,,0x06,0x00
23.060644799999999,,0x01,0x07
23.063618399999999,,0x11,0x20
23.066592000000000,,0x37,0x04
23.069565799999999,,0x81,0x00
23.072539400000000,,0xF9,0x8D
23.109018800000001,,0xB0,0x0B
23.111196600000000,,0x00,0x00
23.114170200000000,,0x24,0x02
23.117143800000001,,0x8E,0x00
23.120117600000000,,0x01,0x07
23.123091200000001,,0x11,0x20
23.126064800000002,,0x37,0x04
23.129038399999999,,0x81,0x00
23.132012199999998,,0x81,0x8D
23.168216999999999,,0xB0,0x0B
23.170669199999999,,0x00,0x00
23.173642800000000,,0x24,0x02
23.176616400000000,,0x06,0x00
23.179590200000000,,0x01,0x07
23.182563999999999,,0x11,0x20
23.185537600000000,,0x37,0x04
23.188511200000001,,0x81,0x00
23.191485000000000,,0xF9,0x8D
23.227848399999999,,0xB0,0x0B
23.230141799999998,,0x00,0x00
23.233115399999999,,0x20,0x02
23.236088800000001,,0x8E,0x00
23.239062400000002,,0x01,0x07
23.242035999999999,,0x11,0x20
23.245009599999999,,0x37,0x04
23.247983200000000,,0x80,0x00
23.250956800000001,,0x7C,0x8D
23.286980000000000,,0xB0,0x0B
23.289613200000002,,0x00,0x00
23.292586799999999,,0x20,0x02
23.295560399999999,,0x06,0x00
23.298534000000000,,0x01,0x07
23.301507600000001,,0x11,0x20
23.304481400000000,,0x37,0x04
23.307455000000001,,0x80,0x00
23.310428800000000,,0xF4,0x8D
23.346594400000001,,0xB0,0x0B
23.349087200000000,,0x00,0x00
23.352060800000000,,0x20,0x02
23.355034600000000,,0x8E,0x00
23.358008200000000,,0x01,0x07
23.360981800000001,,0x11,0x20
23.363955600000001,,0x37,0x04
23.366929200000001,,0x80,0x00
23.369903000000001,,0x7C,0x8D
23.406227999999999,,0xB0,0x0B
23.408561800000001,,0x00,0x00
23.411535600000001,,0x20,0x02
23.414509400000000,,0x06,0x00
23.417483000000001,,0x01,0x07
23.420456600000001,,0x11,0x20
23.423430400000001,,0x37,0x04
23.426404200000000,,0x80,0x00
23.429378000000000,,0xF4,0x8D
23.465862600000001,,0xB0,0x0B
23.468036999999999,,0x00,0x00
23.471010600000000,,0x20,0x02
23.473984200000000,,0x8E,0x00
23.476957800000001,,0x01,0x07
23.479931400000002,,0x11,0x20
23.482905200000001,,0x37,0x04
23.485878799999998,,0x80,0x00
23.488852600000001,,0x7C,0x8D
23.524970799999998,,0xB0,0x0B
23.527510599999999,,0x00,0x00
23.530484399999999,,0x20,0x02
23.533458199999998,,0x06,0x00
23.536431799999999,,0x01,0x07
23.539405599999998,,0x11,0x20
23.542379199999999,,0x37,0x04
23.545352999999999,,0x80,0x00
23.548326800000002,,0xF4,0x8D
23.584600999999999,,0xB0,0x0B
23.586985200000001,,0x00,0x00
23.589958800000002,,0x20,0x02
23.592932600000001,,0x8E,0x00
23.595906200000002,,0x01,0x07
23.598880000000001,,0x11,0x20
23.601853800000001,,0x37,0x04
23.604827600000000,,0x80,0x00
23.607801200000001,,0x7C,0x8D
23.644217600000001,,0xB0,0x0B
23.646459199999999,,0x00,0x00
23.649432800000000,,0x20,0x02
23.652406400000000,,0x06,0x00
23.655380000000001,,0x01,0x07
23.658353600000002,,0x11,0x20
23.661327400000001,,0x37,0x04
23.664300799999999,,0x80,0x00
23.667274599999999,,0xF4,0x8D
23.703338400000000,,0xB0,0x0B
23.705931199999998,,0x00,0x00
23.708904799999999,,0x20,0x02
23.711878400000000,,0x8E,0x00
23.714851800000002,,0x01,0x07
23.717825399999999,,0x11,0x20
23.720799000000000,,0x37,0x04
23.723772600000000,,0x80,0x00
23.726746200000001,,0x7C,0x8D
23.762967400000001,,0xB0,0x0B
23.765402600000002,,0x00,0x00
23.768376199999999,,0x20,0x02
23.771349600000001,,0x06,0x00
23.774323200000001,,0x01,0x07
23.777296799999998,,0x11,0x20
23.780270200000000,,0x37,0x04
23.783243800000001,,0x80,0x00
23.786217199999999,,0xF4,0x8D
23.822581000000000,,0xB0,0x0B
23.824874200000000,,0x00,0x00
23.827847800000001,,0x20,0x02
23.830821199999999,,0x8E,0x00
23.833794600000001,,0x01,0x07
23.836767999999999,,0x11,0x20
23.839741600000000,,0x37,0x04
23.842715399999999,,0x80,0x00
23.845689000000000,,0x7C,0x8D
23.881705400000001,,0xB0,0x0B
23.884345600000000,,0x00,0x00
23.887319200000000,,0x20,0x02
23.890292800000001,,0x06,0x00
23.893266400000002,,0x01,0x07
23.896239999999999,,0x11,0x20
23.899213799999998,,0x37,0x04
23.902187399999999,,0x80,0x00
23.905161000000000,,0xF4,0x8D
23.941344200000000,,0xB0,0x0B
23.943818799999999,,0x40,0x00
23.946792400000000,,0x20,0x02
23.949766199999999,,0x8E,0x00
23.952739800000000,,0x01,0x07
23.955713400000000,,0x11,0x20
23.958687000000001,,0x37,0x04
23.961660999999999,,0x81,0x00
23.964634600000000,,0xBD,0x8D
24.001153200000001,,0xB0,0x0B
24.003291800000000,,0x40,0x00
24.006265400000000,,0x20,0x02
24.009239200000000,,0x06,0x00
24.012212800000000,,0x01,0x07
24.015186400000001,,0x11,0x20
24.018160200000001,,0x38,0x04
24.021133800000001,,0x81,0x00
24.024107600000001,,0x36,0x8D
24.060333000000000,,0xB0,0x0B
24.062766000000000,,0x40,0x00
24.065739799999999,,0x20,0x02
24.068713599999999,,0x8E,0x00
24.071687200000000,,0x01,0x07
24.074660999999999,,0x11,0x20
24.077634799999998,,0x38,0x04
24.080608600000001,,0x81,0x00
24.083582400000001,,0xBE,0x8D
24.120007200000000,,0xB0,0x0B
24.122242000000000,,0x40,0x00
24.125215600000001,,0x20,0x02
24.128189400000000,,0x06,0x00
24.131163200000000,,0x01,0x07
24.134136800000000,,0x11,0x20
24.137110600000000,,0x38,0x04
24.140084600000002,,0x81,0x00
24.143058400000001,,0x36,0x8D
24.179189600000001,,0xB0,0x0B
24.181718199999999,,0x40,0x00
24.184691999999998,,0x20,0x02
24.187665800000001,,0x8E,0x00
24.190639600000001,,0x01,0x07
24.193613400000000,,0x11,0x20
24.196587000000001,,0x38,0x04
24.199560800000000,,0x81,0x00
24.202534600000000,,0xBE,0x8D
24.238863800000001,,0xB0,0x0B
24.241192399999999,,0x40,0x00
24.244166000000000,,0x20,0x02
24.247139600000001,,0x06,0x00
24.250113200000001,,0x01,0x07
24.253087000000001,,0x11,0x20
24.256060600000001,,0x38,0x04
24.259034000000000,,0x81,0x00
24.262007600000000,,0x36,0x8D
24.298050600000000,,0xB0,0x0B
24.300664999999999,,0x40,0x00
24.303638800000002,,0x20,0x02
24.306612399999999,,0x8E,0x00
24.309585999999999,,0x01,0x07
24.312559799999999,,0x11,0x20
24.315533200000001,,0x38,0x04
24.318507000000000,,0x81,0x00
24.321480800000000,,0xBE,0x8D
24.357754400000001,,0xB0,0x0B
24.360139600000000,,0x00,0x00
24.363113200000001,,0x20,0x02
24.366087000000000,,0x06,0x00
24.369060800000000,,0x01,0x07
24.372034400000000,,0x11,0x20
24.375008200000000,,0x38,0x04
24.377981999999999,,0x80,0x00
24.380955799999999,,0xF5,0x8D
24.417368799999998,,0xB0,0x0B
24.419613399999999,,0x00,0x00
24.422587199999999,,0x20,0x02
24.425560999999998,,0x8E,0x00
24.428534800000001,,0x01,0x07
24.431508399999998,,0x11,0x20
24.434481999999999,,0x38,0x04
24.437455799999999,,0x80,0x00
24.440429399999999,,0x7D,0x8D
24.476496000000001,,0xB0,0x0B
24.479087000000000,,0x00,0x00
24.482060600000001,,0x20,0x02
24.485033999999999,,0x06,0x00
24.488007600000000,,0x01,0x07
24.490981200000000,,0x11,0x20
24.493954800000001,,0x38,0x04
24.496928199999999,,0x80,0x00
24.499901800000000,,0xF5,0x8D
24.536105800000001,,0xB0,0x0B
24.538558200000001,,0x00,0x00
24.541532000000000,,0x20,0x02
24.544505600000001,,0x8E,0x00
24.547479200000001,,0x01,0x07
24.550452799999999,,0x11,0x20
24.553426399999999,,0x38,0x04
24.556400000000000,,0x80,0x00
24.559373600000001,,0x7D,0x8D
24.595737000000000,,0xB0,0x0B
24.598031400000000,,0x00,0x00
24.601005199999999,,0x20,0x02
24.603978800000000,,0x06,0x00
24.606952600000000,,0x01,0x07
24.609926399999999,,0x11,0x20
24.612900199999999,,0x38,0x04
24.615874000000002,,0x80,0x00
24.618847800000001,,0xF5,0x8D
24.655372400000001,,0xB0,0x0B
24.657506999999999,,0x00,0x00
24.660480799999998,,0x20,0x02
24.663454600000001,,0x8E,0x00
24.666428199999999,,0x01,0x07
24.669401799999999,,0x11,0x20
24.672375599999999,,0x38,0x04
24.675349400000002,,0x80,0x00
24.678322999999999,,0x7D,0x8D
24.714481599999999,,0xB0,0x0B
24.716980400000001,,0x00,0x00
24.719954200000000,,0x20,0x02
24.722927800000001,,0x06,0x00
24.725901600000000,,0x01,0x07
24.728875200000001,,0x11,0x20
24.731848800000002,,0x38,0x04
24.734822399999999,,0x80,0x00
24.737795999999999,,0xF5,0x8D
24.774111200000000,,0xB0,0x0B
24.776453400000001,,0x00,0x00
24.779427200000001,,0x20,0x02
24.782401000000000,,0x8E,0x00
24.785374600000001,,0x01,0x07
24.788348400000000,,0x11,0x20
24.791322000000001,,0x38,0x04
24.794295800000000,,0x80,0x00
24.797269400000001,,0x7D,0x8D
24.833726800000001,,0xB0,0x0B
24.835926799999999,,0x00,0x00
24.838900599999999,,0x20,0x02
24.841874199999999,,0x06,0x00
24.844847999999999,,0x01,0x07
24.847821400000001,,0x11,0x20
24.850795200000000,,0x38,0x04
24.853768800000001,,0x80,0x00
24.856742400000002,,0xF5,0x8D
24.892854199999999,,0xB0,0x0B
24.895400800000001,,0x00,0x00
24.898374600000000,,0x20,0x02
24.901348400000000,,0x8E,0x00
24.904322000000001,,0x01,0x07
24.907295800000000,,0x11,0x20
24.910269400000001,,0x38,0x04
24.913243200000000,,0x80,0x00
24.916216599999998,,0x7D,0x8D
24.952499599999999,,0xB0,0x0B
24.954874199999999,,0x00,0x00
24.957847999999998,,0x20,0x02
24.960821800000002,,0x06,0x00
24.963795800000000,,0x01,0x07
24.966769400000000,,0x11,0x20
24.969743200000000,,0x38,0x04
24.972716999999999,,0x80,0x00
24.975690799999999,,0xF5,0x8D
25.011724600000001,,0xB0,0x0B
25.014349599999999,,0x00,0x00
25.017323399999999,,0x20,0x02
25.020296999999999,,0x8E,0x00
25.023270600000000,,0x01,0x07
25.026244400000000,,0x11,0x20
25.029218199999999,,0x39,0x04
25.032191999999998,,0x80,0x00
25.035165599999999,,0x7E,0x8D
25.071358400000001,,0xB0,0x0B
25.073824399999999,,0x00,0x00
25.076798199999999,,0x20,0x02
25.079771999999998,,0x06,0x00
25.082745800000001,,0x01,0x07
25.085719399999999,,0x11,0x20
25.088692999999999,,0x39,0x04
25.091666799999999,,0x80,0x00
25.094640600000002,,0xF6,0x8D
25.130979400000001,,0xB0,0x0B
25.133299200000000,,0x00,0x00
25.136272800000000,,0x20,0x02
25.139246600000000,,0x8E,0x00
25.142220399999999,,0x01,0x07
25.145194000000000,,0x11,0x20
25.148167800000000,,0x39,0x04
25.151141800000001,,0x80,0x00
25.154115600000001,,0x7E,0x8D
25.190138000000001,,0xB0,0x0B
25.192773800000001,,0x00,0x00
25.195747600000001,,0x28,0x02
25.198721400000000,,0x06,0x00
25.201695200000000,,0x01,0x07
25.204668800000000,,0x11,0x20
25.207642400000001,,0x39,0x04
25.210616200000000,,0x81,0x00
25.213589800000001,,0xFF,0x8D
25.249834000000000,,0xB0,0x0B
25.252247000000001,,0x00,0x00
25.255220600000001,,0x28,0x02
25.258194199999998,,0x8E,0x00
25.261167799999999,,0x01,0x07
25.264141400000000,,0x11,0x20
25.267115000000000,,0x39,0x04
25.270088800000000,,0x81,0x00
25.273062400000001,,0x87,0x8D
25.309507000000000,,0xB0,0x0B
25.311720800000000,,0x00,0x00
25.314694400000000,,0x28,0x02
25.317668200000000,,0x06,0x00
25.320641999999999,,0x01,0x07
25.323615600000000,,0x11,0x20
25.326589400000000,,0x39,0x04
25.329563199999999,,0x81,0x00
25.332536999999999,,0xFF,0x8D
25.368688200000001,,0xB0,0x0B
25.371195000000000,,0x00,0x00
25.374168600000001,,0x28,0x02
25.377142200000002,,0x8E,0x00
25.380116000000001,,0x01,0x07
25.383089600000002,,0x11,0x20
25.386063400000001,,0x39,0x04
25.389036999999998,,0x81,0x00
25.392010800000001,,0x87,0x8D
25.428358200000002,,0xB0,0x0B
25.430667400000001,,0x00,0x00
25.433641000000001,,0x28,0x02
25.436614599999999,,0x06,0x00
25.439588199999999,,0x01,0x07
25.442561999999999,,0x11,0x20
25.445535400000001,,0x39,0x04
25.448509200000000,,0x81,0x00
25.451482800000001,,0xFF,0x8D
25.487537799999998,,0xB0,0x0B
25.490141800000000,,0x00,0x00
25.493115800000002,,0x28,0x02
25.496089399999999,,0x8E,0x00
25.499063199999998,,0x01,0x07
25.502037000000001,,0x11,0x20
25.505010599999999,,0x39,0x04
25.507984199999999,,0x81,0x00
25.510957999999999,,0x87,0x8D
25.547227400000001,,0xB0,0x0B
25.549616000000000,,0x00,0x00
25.552589800000000,,0x28,0x02
25.555563400000000,,0x06,0x00
25.558537200000000,,0x01,0x07
25.561510800000001,,0x11,0x20
25.564484400000001,,0x39,0x04
25.567458200000001,,0x81,0x00
25.570432000000000,,0xFF,0x8D
25.606916200000001,,0xB0,0x0B
25.609090999999999,,0x00,0x00
25.612065000000001,,0x28,0x02
25.615038800000001,,0x8E,0x00
25.618012600000000,,0x01,0x07
25.620986400000000,,0x11,0x20
25.623960199999999,,0x39,0x04
25.626933999999999,,0x81,0x00
25.629908000000000,,0x87,0x8D
25.666075599999999,,0xB0,0x0B
25.668568000000000,,0x00,0x00
25.671541800000000,,0x20,0x02
25.674515599999999,,0x06,0x00
25.677489399999999,,0x01,0x07
25.680463199999998,,0x11,0x20
25.683437000000001,,0x39,0x04
25.686410800000001,,0x80,0x00
25.689384600000000,,0xF6,0x8D
25.725691000000001,,0xB0,0x0B
25.728042599999998,,0x00,0x00
25.731016400000001,,0x20,0x02
25.733990200000001,,0x8E,0x00
25.736964000000000,,0x01,0x07
25.739937600000001,,0x11,0x20
25.742911400000001,,0x39,0x04
25.745885000000001,,0x80,0x00
25.748858800000001,,0x7E,0x8D
25.785325600000000,,0xB0,0x0B
25.787517399999999,,0x00,0x00
25.790491200000002,,0x20,0x02
25.793465000000001,,0x06,0x00
25.796438800000001,,0x01,0x07
25.799412600000000,,0x11,0x20
25.802386599999998,,0x39,0x04
25.805360400000001,,0x80,0x00
25.808334400000000,,0xF6,0x8D
25.844451400000001,,0xB0,0x0B
25.846993600000001,,0x00,0x00
25.849967400000001,,0x20,0x02
25.852941200000000,,0x8E,0x00
25.855914800000001,,0x01,0x07
25.858888600000000,,0x11,0x20
25.861862400000000,,0x39,0x04
25.864836199999999,,0x80,0x00
25.867809999999999,,0x7E,0x8D
25.904071399999999,,0xB0,0x0B
25.906469000000001,,0x00,0x00
25.909442800000001,,0x20,0x02
25.912416600000000,,0x06,0x00
25.915390400000000,,0x01,0x07
25.918364199999999,,0x11,0x20
25.921337999999999,,0x39,0x04
25.924311800000002,,0x80,0x00
25.927285800000000,,0xF6,0x8D
25.963320599999999,,0xB0,0x0B
25.965944400000001,,0x00,0x00
25.968917999999999,,0x20,0x02
25.971891800000002,,0x8E,0x00
25.974865399999999,,0x01,0x07
25.977839199999998,,0x11,0x20
25.980812799999999,,0x3A,0x04
25.983786599999998,,0x80,0x00
25.986760400000001,,0x7F,0x8D
26.022935600000000,,0xB0,0x0B
26.025418999999999,,0x00,0x00
26.028392600000000,,0x20,0x02
26.031366200000001,,0x06,0x00
26.034339800000001,,0x01,0x07
26.037313399999999,,0x11,0x20
26.040287200000002,,0x3A,0x04
26.043261000000001,,0x80,0x00
26.046234599999998,,0xF7,0x8D
26.082567600000001,,0xB0,0x0B
26.084891800000001,,0x00,0x00
26.087865399999998,,0x20,0x02
26.090838999999999,,0x8E,0x00
26.093812799999998,,0x01,0x07
26.096786200000000,,0x11,0x20
26.099759800000001,,0x3A,0x04
26.102733600000001,,0x80,0x00
26.105707200000001,,0x7F,0x8D
26.142198600000000,,0xB0,0x0B
26.144364800000002,,0x00,0x00
26.147338600000001,,0x20,0x02
26.150312199999998,,0x06,0x00
26.153286000000001,,0x01,0x07
26.156259800000001,,0x11,0x20
26.159233600000000,,0x3A,0x04
26.162207200000001,,0x80,0x00
26.165180800000002,,0xF7,0x8D
26.201309599999998,,0xB0,0x0B
26.203839800000001,,0x00,0x00
26.206813400000001,,0x20,0x02
26.209787200000001,,0x8E,0x00
26.212760800000002,,0x01,0x07
26.215734399999999,,0x11,0x20
26.218707999999999,,0x3A,0x04
26.221681799999999,,0x80,0x00
26.224655400000000,,0x7F,0x8D
26.260947800000000,,0xB0,0x0B
26.263314000000001,,0x00,0x00
26.266287800000001,,0x20,0x02
26.269261600000000,,0x06,0x00
26.272235400000000,,0x01,0x07
26.275209199999999,,0x11,0x20
26.278182800000000,,0x3A,0x04
26.281156599999999,,0x80,0x00
26.284130399999999,,0xF7,0x8D
26.320565999999999,,0xB0,0x0B
26.322789799999999,,0x00,0x00
26.325763599999998,,0x20,0x02
26.328737400000001,,0x8E,0x00
26.331711200000001,,0x01,0x07
26.334684800000002,,0x11,0x20
26.337658600000001,,0x3A,0x04
26.340632400000001,,0x80,0x00
26.343606000000001,,0x7F,0x8D
26.379689200000001,,0xB0,0x0B
26.382263200000001,,0x00,0x00
26.385236800000001,,0x20,0x02
26.388210399999998,,0x06,0x00
26.391183999999999,,0x01,0x07
26.394157799999999,,0x11,0x20
26.397131399999999,,0x3A,0x04
26.400105000000000,,0x80,0x00
26.403078600000001,,0xF7,0x8D
26.439320599999999,,0xB0,0x0B
26.441737799999999,,0x00,0x00
26.444711399999999,,0x20,0x02
26.447685199999999,,0x8E,0x00
26.450658799999999,,0x01,0x07
26.453632599999999,,0x11,0x20
26.456606200000000,,0x3A,0x04
26.459579999999999,,0x80,0x00
26.462553600000000,,0x7F,0x8D
26.498940200000000,,0xB0,0x0B
26.501212800000001,,0x00,0x00
26.504186600000001,,0x20,0x02
26.507160400000000,,0x06,0x00
26.510134200000000,,0x01,0x07
26.513107800000000,,0x11,0x20
26.516081400000001,,0x3A,0x04
26.519055200000000,,0x80,0x00
26.522028800000001,,0xF7,0x8D
26.558064399999999,,0xB0,0x0B
26.560685800000002,,0x00,0x00
26.563659399999999,,0x20,0x02
26.566633199999998,,0x8E,0x00
26.569606799999999,,0x01,0x07
26.572580599999998,,0x11,0x20
26.575554199999999,,0x3A,0x04
26.578527999999999,,0x80,0x00
26.581501800000002,,0x7F,0x8D
26.617679800000001,,0xB0,0x0B
26.620159000000001,,0x00,0x00
26.623132800000000,,0x20,0x02
26.626106400000001,,0x06,0x00
26.629079999999998,,0x01,0x07
26.632053599999999,,0x11,0x20
26.635027399999998,,0x3A,0x04
26.638001200000001,,0x80,0x00
26.640974799999999,,0xF7,0x8D
26.677310200000001,,0xB0,0x0B
26.679633400000000,,0x00,0x00
26.682607000000001,,0x20,0x02
26.685580800000000,,0x8E,0x00
26.688554199999999,,0x01,0x07
26.691527799999999,,0x11,0x20
26.694501599999999,,0x3A,0x04
26.697475200000000,,0x80,0x00
26.700448999999999,,0x7F,0x8D
26.736940199999999,,0xB0,0x0B
26.739106600000000,,0x00,0x00
26.742080200000000,,0x20,0x02
26.745053800000001,,0x06,0x00
26.748027600000000,,0x01,0x07
26.751001200000001,,0x11,0x20
26.753975000000001,,0x3A,0x04
26.756948600000001,,0x80,0x00
26.759922199999998,,0xF7,0x8D
26.796049000000000,,0xB0,0x0B
26.798579199999999,,0x00,0x00
26.801552800000000,,0x20,0x02
26.804526400000000,,0x8E,0x00
26.807500000000001,,0x01,0x07
26.810473600000002,,0x11,0x20
26.813447199999999,,0x3A,0x04
26.816420999999998,,0x80,0x00
26.819394599999999,,0x7F,0x8D
26.855679400000000,,0xB0,0x0B
26.858052600000001,,0x00,0x00
26.861026400000000,,0x20,0x02
26.864000000000001,,0x06,0x00
26.866973600000001,,0x01,0x07
26.869947400000001,,0x11,0x20
26.872921000000002,,0x3A,0x04
26.875894599999999,,0x80,0x00
26.878868199999999,,0xF7,0x8D
26.915296999999999,,0xB0,0x0B
26.917526599999999,,0x00,0x00
26.920500400000002,,0x20,0x02
26.923473999999999,,0x8E,0x00
26.926447799999998,,0x01,0x07
26.929421600000001,,0x11,0x20
26.932395199999998,,0x3A,0x04
26.935369000000001,,0x80,0x00
26.938342800000001,,0x7F,0x8D
26.974551200000001,,0xB0,0x0B
26.977001600000001,,0x00,0x00
26.979975400000001,,0x20,0x02
26.982949000000001,,0x06,0x00
26.985922800000001,,0x01,0x07
26.988896600000000,,0x11,0x20
26.991870400000000,,0x3B,0x04
26.994844000000001,,0x80,0x00
26.997817800000000,,0xF8,0x8D
27.034183800000001,,0xB0,0x0B
27.036476400000002,,0x00,0x00
27.039450200000001,,0x20,0x02
27.042423800000002,,0x8E,0x00
27.045397399999999,,0x01,0x07
27.048371199999998,,0x11,0x20
27.051345000000001,,0x3B,0x04
27.054318599999998,,0x80,0x00
27.057292400000001,,0x80,0x8D
27.093801200000001,,0xB0,0x0B
27.095950999999999,,0x00,0x00
27.098924799999999,,0x20,0x02
27.101898400000000,,0x06,0x00
27.104872000000000,,0x01,0x07
27.107845600000001,,0x11,0x20
27.110819400000000,,0x3B,0x04
27.113793200000000,,0x80,0x00
27.116766999999999,,0xF8,0x8D
27.152927600000002,,0xB0,0x0B
27.155425399999999,,0x00,0x00
27.158398999999999,,0x20,0x02
27.161372600000000,,0x8E,0x00
27.164346200000001,,0x01,0x07
27.167319800000001,,0x11,0x20
27.170293399999998,,0x3B,0x04
27.173267200000002,,0x80,0x00
27.176240799999999,,0x80,0x8D
27.212546000000000,,0xB0,0x0B
27.214899800000001,,0x00,0x00
27.217873399999998,,0x20,0x02
27.220846999999999,,0x06,0x00
27.223820600000000,,0x01,0x07
27.226794200000001,,0x11,0x20
27.229768000000000,,0x3B,0x04
27.232741600000001,,0x80,0x00
27.235715400000000,,0xF8,0x8D
27.272186800000000,,0xB0,0x0B
27.274373000000001,,0x00,0x00
27.277346600000001,,0x20,0x02
27.280320400000001,,0x8E,0x00
27.283294000000001,,0x01,0x07
27.286267800000001,,0x11,0x20
27.289241400000002,,0x3B,0x04
27.292215200000001,,0x80,0x00
27.295188799999998,,0x80,0x8D
27.331310599999998,,0xB0,0x0B
27.333846600000001,,0x00,0x00
27.336820199999998,,0x20,0x02
27.339793799999999,,0x06,0x00
27.342767400000000,,0x01,0x07
27.345741000000000,,0x11,0x20
27.348714800000000,,0x3B,0x04
27.351688400000000,,0x80,0x00
27.354662200000000,,0xF8,0x8D
27.390927600000001,,0xB0,0x0B
27.393320200000002,,0x00,0x00
27.396293799999999,,0x20,0x02
27.399267399999999,,0x8E,0x00
27.402241000000000,,0x01,0x07
27.405214399999998,,0x11,0x20
27.408187999999999,,0x3B,0x04
27.411161799999999,,0x80,0x00
27.414135399999999,,0x80,0x8D
27.450558399999998,,0xB0,0x0B
27.452793000000000,,0x00,0x00
27.455766600000000,,0x20,0x02
27.458739999999999,,0x06,0x00
27.461713799999998,,0x01,0x07
27.464687399999999,,0x11,0x20
27.467661000000000,,0x3B,0x04
27.470634799999999,,0x80,0x00
27.473608400000000,,0xF8,0x8D
