Time [s],Packet ID,MOSI,MISO
0.002505600000000,0,0xB0,0x0B
0.004880600000000,,0x00,0x00
0.007857400000000,,0x20,0x02
0.010834000000000,,0x06,0x00
0.013810800000000,,0x00,0x0F
0.016787200000000,,0x0E,0x20
0.019763800000000,,0x11,0x04
0.022740400000000,,0x80,0x00
0.025717200000000,,0xCA,0x95
0.062259400000000,,0xB0,0x0B
0.064412800000000,,0x00,0x00
0.067389400000000,,0x20,0x02
0.070366000000000,,0x8E,0x00
0.073342800000000,,0x00,0x0F
0.076319400000000,,0x0E,0x20
0.079296200000000,,0x11,0x04
0.082272800000000,,0x80,0x00
0.085249400000000,,0x52,0x95
0.121541600000000,,0xB0,0x0B
0.123945400000000,,0x00,0x00
0.126921800000000,,0x20,0x02
0.129898400000000,,0x06,0x00
0.132874600000000,,0x00,0x0F
0.135851200000000,,0x0E,0x20
0.138827800000000,,0x11,0x04
0.141804200000000,,0x80,0x00
0.144781000000000,,0xCA,0x95
0.181295200000000,,0xB0,0x0B
0.183476000000000,,0x00,0x00
0.186452400000000,,0x20,0x02
0.189429000000000,,0x8E,0x00
0.192405400000000,,0x00,0x0F
0.195382000000000,,0x0E,0x20
0.198358400000000,,0x11,0x04
0.201334800000000,,0x80,0x00
0.204311400000000,,0x52,0x95
0.240570600000000,,0xB0,0x0B
0.243005200000000,,0x00,0x00
0.245981800000000,,0x20,0x02
0.248958200000000,,0x06,0x00
0.251934600000000,,0x00,0x0F
0.254911000000000,,0x0E,0x20
0.257887800000000,,0x11,0x04
0.260864400000000,,0x80,0x00
0.263841000000000,,0xCA,0x95
0.300340800000000,,0xB0,0x0B
0.302536600000000,,0x00,0x00
0.305513200000000,,0x20,0x02
0.308489600000000,,0x8E,0x00
0.311466200000000,,0x00,0x0F
0.314442600000000,,0x0E,0x20
0.317419200000000,,0x11,0x04
0.320395800000000,,0x80,0x00
0.323372400000000,,0x52,0x95
0.359602800000000,,0xB0,0x0B
0.362068600000000,,0x00,0x00
0.365045400000000,,0x20,0x02
0.368022000000000,,0x06,0x00
0.370998800000000,,0x00,0x0F
0.373975400000000,,0x0E,0x20
0.376952000000000,,0x11,0x04
0.379928600000000,,0x80,0x00
0.382905400000000,,0xCA,0x95
0.419373800000000,,0xB0,0x0B
0.421600600000000,,0x00,0x00
0.424577200000000,,0x20,0x02
0.427553600000000,,0x8E,0x00
0.430530000000000,,0x00,0x0F
0.433506400000000,,0x0E,0x20
0.436483000000000,,0x11,0x04
0.439459600000000,,0x80,0x00
0.442436200000000,,0x52,0x95
0.478633600000000,,0xB0,0x0B
0.481133400000000,,0x00,0x00
0.484110000000000,,0x20,0x02
0.487086600000000,,0x06,0x00
0.490063200000000,,0x00,0x0F
0.493039800000000,,0x0E,0x20
0.496016400000000,,0x11,0x04
0.498993000000000,,0x80,0x00
0.501969600000000,,0xCA,0x95
0.538404800000000,,0xB0,0x0B
0.540665200000000,,0x00,0x00
0.543641800000000,,0x20,0x02
0.546618400000000,,0x8E,0x00
0.549595000000000,,0x00,0x0F
0.552571600000000,,0x0E,0x20
0.555548200000000,,0x11,0x04
0.558524800000000,,0x80,0x00
0.561501600000000,,0x52,0x95
0.597683800000000,,0xB0,0x0B
0.600197800000000,,0x00,0x00
0.603174400000000,,0x20,0x02
0.606150800000000,,0x06,0x00
0.609127400000000,,0x00,0x0F
0.612104200000000,,0x0E,0x20
0.615080800000000,,0x11,0x04
0.618057400000000,,0x80,0x00
0.621034200000000,,0xCA,0x95
0.657438000000000,,0xB0,0x0B
0.659729800000000,,0x00,0x00
0.662706400000000,,0x20,0x02
0.665683200000000,,0x8E,0x00
0.668659600000000,,0x00,0x0F
0.671636200000000,,0x0E,0x20
0.674613000000000,,0x11,0x04
0.677589600000000,,0x80,0x00
0.680566200000000,,0x52,0x95
0.716716800000000,,0xB0,0x0B
0.719262400000000,,0x00,0x00
0.722239000000000,,0x20,0x02
0.725215600000000,,0x06,0x00
0.728192200000000,,0x00,0x0F
0.731168600000000,,0x0E,0x20
0.734145000000000,,0x11,0x04
0.737121800000000,,0x80,0x00
0.740098200000000,,0xCA,0x95
0.776472800000000,,0xB0,0x0B
0.778794400000000,,0x00,0x00
0.781771000000000,,0x20,0x02
0.784747800000000,,0x8E,0x00
0.787724200000000,,0x00,0x0F
0.790701000000000,,0x0E,0x20
0.793677800000000,,0x11,0x04
0.796654400000000,,0x80,0x00
0.799632200000000,,0x52,0x95
0.835959000000000,,0xB0,0x0B
0.838329600000000,,0x00,0x00
0.841306400000000,,0x20,0x02
0.844283000000000,,0x06,0x00
0.847259800000000,,0x00,0x0F
0.850236400000000,,0x0E,0x20
0.853213000000000,,0x12,0x04
0.856189600000000,,0x80,0x00
0.859166200000000,,0xCB,0x95
0.895237000000000,,0xB0,0x0B
0.897862000000000,,0x00,0x00
0.900838800000000,,0x20,0x02
0.903815400000000,,0x8E,0x00
0.906792000000000,,0x00,0x0F
0.909768600000000,,0x0E,0x20
0.912745000000000,,0x12,0x04
0.915721600000000,,0x80,0x00
0.918698000000000,,0x53,0x95
0.954989200000000,,0xB0,0x0B
0.957392600000000,,0x00,0x00
0.960369200000000,,0x20,0x02
0.963345800000000,,0x06,0x00
0.966322400000000,,0x00,0x0F
0.969298800000000,,0x0E,0x20
0.972275400000000,,0x12,0x04
0.975252000000000,,0x80,0x00
0.978228600000000,,0xCB,0x95
1.014757600000000,,0xB0,0x0B
1.016923600000000,,0x00,0x00
1.019900200000000,,0x20,0x02
1.022876600000000,,0x8E,0x00
1.025853200000000,,0x00,0x0F
1.028829800000000,,0x0E,0x20
1.031806400000000,,0x12,0x04
1.034783000000000,,0x80,0x00
1.037759600000000,,0x53,0x95
1.074017000000000,,0xB0,0x0B
1.076455400000000,,0x00,0x00
1.079432200000000,,0x20,0x02
1.082408800000000,,0x06,0x00
1.085385400000000,,0x00,0x0F
1.088362200000000,,0x0E,0x20
1.091339000000000,,0x12,0x04
1.094315800000000,,0x80,0x00
1.097292600000000,,0xCB,0x95
1.133796400000000,,0xB0,0x0B
1.135990400000000,,0x00,0x00
1.138967000000000,,0x20,0x02
1.141943800000000,,0x8E,0x00
1.144920400000000,,0x00,0x0F
1.147897200000000,,0x0E,0x20
1.150873800000000,,0x12,0x04
1.153850200000000,,0x80,0x00
1.156826800000000,,0x53,0x95
1.193075000000000,,0xB0,0x0B
1.195522400000000,,0x00,0x00
1.198499000000000,,0x20,0x02
1.201475800000000,,0x06,0x00
1.204452400000000,,0x00,0x0F
1.207429000000000,,0x0E,0x20
1.210405800000000,,0x12,0x04
1.213382400000000,,0x80,0x00
1.216359000000000,,0xCB,0x95
1.252830400000000,,0xB0,0x0B
1.255055400000000,,0x00,0x00
1.258032000000000,,0x20,0x02
1.261008600000000,,0x8E,0x00
1.263985000000000,,0x00,0x0F
1.266961600000000,,0x0E,0x20
1.269938000000000,,0x12,0x04
1.272914600000000,,0x80,0x00
1.275891200000000,,0x53,0x95
1.312104800000000,,0xB0,0x0B
1.314586600000000,,0x00,0x00
1.317563200000000,,0x20,0x02
1.320539600000000,,0x06,0x00
1.323516200000000,,0x00,0x0F
1.326492800000000,,0x0E,0x20
1.329469200000000,,0x12,0x04
1.332445800000000,,0x80,0x00
1.335422600000000,,0xCB,0x95
1.371860200000000,,0xB0,0x0B
1.374119200000000,,0x00,0x00
1.377096000000000,,0x20,0x02
1.380072600000000,,0x8E,0x00
1.383049200000000,,0x00,0x0F
1.386025800000000,,0x0E,0x20
1.389002400000000,,0x12,0x04
1.391979000000000,,0x80,0x00
1.394955600000000,,0x53,0x95
1.431139600000000,,0xB0,0x0B
1.433652400000000,,0x00,0x00
1.436629000000000,,0x20,0x02
1.439605600000000,,0x06,0x00
1.442582200000000,,0x00,0x0F
1.445558800000000,,0x0E,0x20
1.448535400000000,,0x12,0x04
1.451512000000000,,0x80,0x00
1.454488600000000,,0xCB,0x95
1.490909400000000,,0xB0,0x0B
1.493184000000000,,0x00,0x00
1.496160400000000,,0x20,0x02
1.499136800000000,,0x8E,0x00
1.502113200000000,,0x00,0x0F
1.505089600000000,,0x0E,0x20
1.508066000000000,,0x12,0x04
1.511042400000000,,0x80,0x00
1.514018800000000,,0x53,0x95
1.550170000000000,,0xB0,0x0B
1.552714000000000,,0x00,0x00
1.555690600000000,,0x20,0x02
1.558667200000000,,0x06,0x00
1.561643800000000,,0x00,0x0F
1.564620400000000,,0x0E,0x20
1.567597000000000,,0x12,0x04
1.570573400000000,,0x80,0x00
1.573550000000000,,0xCB,0x95
1.609939400000000,,0xB0,0x0B
1.612243400000000,,0x00,0x00
1.615219800000000,,0x20,0x02
1.618196200000000,,0x8E,0x00
1.621172400000000,,0x00,0x0F
1.624148800000000,,0x0E,0x20
1.627125200000000,,0x12,0x04
1.630101800000000,,0x80,0x00
1.633078200000000,,0x53,0x95
1.669196600000000,,0xB0,0x0B
1.671772200000000,,0x00,0x00
1.674748600000000,,0x20,0x02
1.677725200000000,,0x06,0x00
1.680701600000000,,0x00,0x0F
1.683678200000000,,0x0E,0x20
1.686654600000000,,0x12,0x04
1.689631200000000,,0x80,0x00
1.692607800000000,,0xCB,0x95
1.728965200000000,,0xB0,0x0B
1.731304800000000,,0x00,0x00
1.734281600000000,,0x20,0x02
1.737258200000000,,0x8E,0x00
1.740235000000000,,0x00,0x0F
1.743211800000000,,0x0E,0x20
1.746188400000000,,0x12,0x04
1.749165200000000,,0x80,0x00
1.752141800000000,,0x53,0x95
1.788261600000000,,0xB0,0x0B
1.790837600000000,,0x00,0x00
1.793814400000000,,0x20,0x02
1.796791000000000,,0x06,0x00
1.799767600000000,,0x00,0x0F
1.802744400000000,,0x0E,0x20
1.805721000000000,,0x12,0x04
1.808697800000000,,0x80,0x00
1.811674400000000,,0xCB,0x95
1.847980000000000,,0xB0,0x0B
1.850372000000000,,0x01,0x00
1.853348600000000,,0x20,0x02
1.856325200000000,,0x8E,0x00
1.859302000000000,,0x00,0x0F
1.862278800000000,,0x0E,0x20
1.865255400000000,,0x13,0x04
1.868232200000000,,0x81,0x00
1.871208800000000,,0x56,0x95
1.907731200000000,,0xB0,0x0B
1.909906200000000,,0x01,0x00
1.912882800000000,,0x20,0x02
1.915859400000000,,0x06,0x00
1.918836200000000,,0x00,0x0F
1.921813000000000,,0x0E,0x20
1.924789600000000,,0x13,0x04
1.927766400000000,,0x81,0x00
1.930743000000000,,0xCE,0x95
1.966972200000000,,0xB0,0x0B
1.969440800000000,,0x00,0x01
1.972417400000000,,0x20,0x01
1.975394200000000,,0x8E,0x00
1.978370800000000,,0x00,0x0F
1.981347600000000,,0x0E,0x20
1.984324400000000,,0x13,0x04
1.987301000000000,,0x80,0x00
1.990278000000000,,0x54,0x95
2.026668600000000,,0xB0,0x0B
2.028975800000000,,0x00,0x01
2.031952800000000,,0x20,0x01
2.034929600000000,,0x06,0x00
2.037906200000000,,0x00,0x0F
2.040883200000000,,0x0E,0x20
2.043859800000000,,0x13,0x04
2.046836600000000,,0x80,0x00
2.049813400000000,,0xCC,0x95
2.086056200000000,,0xB0,0x0B
2.088511000000000,,0x00,0x01
2.091488000000000,,0x20,0x01
2.094464600000000,,0x8E,0x00
2.097441200000000,,0x00,0x0F
2.100418000000000,,0x0E,0x20
2.103394800000000,,0x13,0x04
2.106371200000000,,0x80,0x00
2.109348000000000,,0x54,0x95
2.145416000000000,,0xB0,0x0B
2.148045000000000,,0x00,0x01
2.151021600000000,,0x20,0x01
2.153998400000000,,0x06,0x00
2.156975000000000,,0x00,0x0F
2.159951800000000,,0x0E,0x20
2.162928400000000,,0x13,0x04
2.165905200000000,,0x80,0x00
2.168881800000000,,0xCC,0x95
2.205342800000000,,0xB0,0x0B
2.207577600000000,,0x00,0x01
2.210554200000000,,0x20,0x01
2.213531000000000,,0x8E,0x00
2.216507400000000,,0x00,0x0F
2.219484000000000,,0x0E,0x20
2.222460800000000,,0x13,0x04
2.225437400000000,,0x80,0x00
2.228414000000000,,0x54,0x95
2.264703600000000,,0xB0,0x0B
2.267109400000000,,0x00,0x01
2.270086200000000,,0x20,0x01
2.273063000000000,,0x06,0x00
2.276039800000000,,0x00,0x0F
2.279016400000000,,0x0E,0x20
2.281993000000000,,0x13,0x04
2.284969800000000,,0x80,0x00
2.287946400000000,,0xCC,0x95
2.324081600000000,,0xB0,0x0B
2.326643800000000,,0x00,0x01
2.329620600000000,,0x20,0x01
2.332597200000000,,0x8E,0x00
2.335574000000000,,0x00,0x0F
2.338550600000000,,0x0E,0x20
2.341527200000000,,0x13,0x04
2.344504000000000,,0x80,0x00
2.347480600000000,,0x54,0x95
2.384007800000000,,0xB0,0x0B
2.386177400000000,,0x00,0x01
2.389154200000000,,0x20,0x01
2.392131000000000,,0x06,0x00
2.395107800000000,,0x00,0x0F
2.398084600000000,,0x0E,0x20
2.401061400000000,,0x13,0x04
2.404038200000000,,0x80,0x00
2.407014800000000,,0xCC,0x95
2.443370400000000,,0xB0,0x0B
2.445713600000000,,0x00,0x01
2.448690400000000,,0x20,0x01
2.451667400000000,,0x8E,0x00
2.454644400000000,,0x00,0x0F
2.457621200000000,,0x0E,0x20
2.460598000000000,,0x13,0x04
2.463574800000000,,0x80,0x00
2.466551600000000,,0x54,0x95
2.502749000000000,,0xB0,0x0B
2.505249800000000,,0x00,0x01
2.508226600000000,,0x20,0x01
2.511203600000000,,0x06,0x00
2.514180600000000,,0x00,0x0F
2.517157400000000,,0x0E,0x20
2.520134400000000,,0x13,0x04
2.523111400000000,,0x80,0x00
2.526088400000000,,0xCC,0x95
2.562663400000000,,0xB0,0x0B
2.564786200000000,,0x00,0x01
2.567762800000000,,0x20,0x01
2.570739600000000,,0x8E,0x00
2.573716400000000,,0x00,0x0F
2.576693000000000,,0x0E,0x20
2.579669800000000,,0x13,0x04
2.582646400000000,,0x80,0x00
2.585623000000000,,0x54,0x95
2.622043400000000,,0xB0,0x0B
2.624320600000000,,0x00,0x01
2.627297200000000,,0x20,0x01
2.630273800000000,,0x06,0x00
2.633250400000000,,0x00,0x0F
2.636227000000000,,0x0E,0x20
2.639203600000000,,0x13,0x04
2.642180400000000,,0x80,0x00
2.645156800000000,,0xCC,0x95
2.681420600000000,,0xB0,0x0B
2.683853000000000,,0x00,0x01
2.686829800000000,,0x20,0x01
2.689806400000000,,0x8E,0x00
2.692783200000000,,0x00,0x0F
2.695759800000000,,0x0E,0x20
2.698736400000000,,0x13,0x04
2.701713000000000,,0x80,0x00
2.704689600000000,,0x54,0x95
2.740779000000000,,0xB0,0x0B
2.743386200000000,,0x00,0x01
2.746362800000000,,0x20,0x01
2.749339600000000,,0x06,0x00
2.752316200000000,,0x00,0x0F
2.755293000000000,,0x0E,0x20
2.758269800000000,,0x13,0x04
2.761246600000000,,0x80,0x00
2.764223400000000,,0xCC,0x95
2.800584600000000,,0xB0,0x0B
2.802921400000000,,0x00,0x01
2.805898200000000,,0x20,0x01
2.808875000000000,,0x8E,0x00
2.811851800000000,,0x00,0x0F
2.814828400000000,,0x0E,0x20
2.817805200000000,,0x14,0x04
2.820782000000000,,0x80,0x00
2.823758600000000,,0x55,0x95
2.859945200000000,,0xB0,0x0B
2.862456000000000,,0x00,0x01
2.865432600000000,,0x20,0x01
2.868409400000000,,0x06,0x00
2.871386200000000,,0x00,0x0F
2.874363000000000,,0x0E,0x20
2.877339600000000,,0x14,0x04
2.880316400000000,,0x80,0x00
2.883293400000000,,0xCD,0x95
2.919874600000000,,0xB0,0x0B
2.921993400000000,,0x00,0x01
2.924970400000000,,0x20,0x01
2.927947200000000,,0x8E,0x00
2.930924000000000,,0x00,0x0F
2.933900800000000,,0x0E,0x20
2.936877400000000,,0x14,0x04
2.939854200000000,,0x80,0x00
2.942831000000000,,0x55,0x95
2.979255400000000,,0xB0,0x0B
2.981528800000000,,0x00,0x01
2.984505600000000,,0x20,0x01
2.987482400000000,,0x06,0x00
2.990459200000000,,0x00,0x0F
2.993436000000000,,0x0E,0x20
2.996412800000000,,0x14,0x04
2.999389800000000,,0x80,0x00
3.002366800000000,,0xCD,0x95
3.038621800000000,,0xB0,0x0B
3.041065800000000,,0x00,0x01
3.044042800000000,,0x20,0x01
3.047019600000000,,0x8E,0x00
3.049996200000000,,0x00,0x0F
3.052973000000000,,0x0E,0x20
3.055949800000000,,0x14,0x04
3.058926400000000,,0x80,0x00
3.061903200000000,,0x55,0x95
3.098007800000000,,0xB0,0x0B
3.100600400000000,,0x00,0x01
3.103577200000000,,0x20,0x01
3.106553800000000,,0x06,0x00
3.109530600000000,,0x00,0x0F
3.112507400000000,,0x0E,0x20
3.115484400000000,,0x14,0x04
3.118461200000000,,0x80,0x00
3.121438000000000,,0xCD,0x95
3.157920800000000,,0xB0,0x0B
3.160135800000000,,0x00,0x01
3.163112800000000,,0x20,0x01
3.166089600000000,,0x8E,0x00
3.169066400000000,,0x00,0x0F
3.172043200000000,,0x0E,0x20
3.175020200000000,,0x14,0x04
3.177996800000000,,0x80,0x00
3.180973600000000,,0x55,0x95
3.217297200000000,,0xB0,0x0B
3.219672200000000,,0x00,0x01
3.222649000000000,,0x20,0x01
3.225625800000000,,0x06,0x00
3.228602600000000,,0x00,0x0F
3.231579400000000,,0x0E,0x20
3.234556200000000,,0x14,0x04
3.237533000000000,,0x80,0x00
3.240509800000000,,0xCD,0x95
3.276676200000000,,0xB0,0x0B
3.279208000000000,,0x00,0x01
3.282184800000000,,0x20,0x01
3.285161800000000,,0x8E,0x00
3.288138600000000,,0x00,0x0F
3.291115400000000,,0x0E,0x20
3.294092200000000,,0x14,0x04
3.297068800000000,,0x80,0x00
3.300045600000000,,0x55,0x95
3.336587800000000,,0xB0,0x0B
3.338742400000000,,0x00,0x01
3.341719000000000,,0x20,0x01
3.344695600000000,,0x06,0x00
3.347672200000000,,0x00,0x0F
3.350649000000000,,0x0E,0x20
3.353625800000000,,0x14,0x04
3.356602200000000,,0x80,0x00
3.359578800000000,,0xCD,0x95
3.395963200000000,,0xB0,0x0B
3.398274800000000,,0x00,0x01
3.401251800000000,,0x20,0x01
3.404228800000000,,0x8E,0x00
3.407205400000000,,0x00,0x0F
3.410182200000000,,0x0E,0x20
3.413158800000000,,0x14,0x04
3.416135400000000,,0x80,0x00
3.419112000000000,,0x55,0x95
3.455325200000000,,0xB0,0x0B
3.457808400000000,,0x00,0x01
3.460785200000000,,0x20,0x01
3.463761600000000,,0x06,0x00
3.466738200000000,,0x00,0x0F
3.469715000000000,,0x0E,0x20
3.472691800000000,,0x14,0x04
3.475668400000000,,0x80,0x00
3.478645200000000,,0xCD,0x95
3.514704000000000,,0xB0,0x0B
3.517344600000000,,0x00,0x01
3.520321400000000,,0x20,0x01
3.523298200000000,,0x8E,0x00
3.526275000000000,,0x00,0x0F
3.529251800000000,,0x0E,0x20
3.532228800000000,,0x14,0x04
3.535205400000000,,0x80,0x00
3.538182000000000,,0x55,0x95
3.574632000000000,,0xB0,0x0B
3.576879400000000,,0x00,0x01
3.579856200000000,,0x20,0x01
3.582833000000000,,0x06,0x00
3.585809600000000,,0x00,0x0F
3.588786200000000,,0x0E,0x20
3.591763000000000,,0x14,0x04
3.594739600000000,,0x80,0x00
3.597716400000000,,0xCD,0x95
3.633993000000000,,0xB0,0x0B
3.636414600000000,,0x00,0x01
3.639391400000000,,0x20,0x01
3.642368200000000,,0x8E,0x00
3.645345000000000,,0x00,0x0F
3.648321600000000,,0x0E,0x20
3.651298400000000,,0x14,0x04
3.654275400000000,,0x80,0x00
3.657252200000000,,0x55,0x95
3.693372200000000,,0xB0,0x0B
3.695951400000000,,0x00,0x01
3.698928200000000,,0x20,0x01
3.701905000000000,,0x06,0x00
3.704882000000000,,0x00,0x0F
3.707858600000000,,0x0E,0x20
3.710835400000000,,0x14,0x04
3.713812400000000,,0x80,0x00
3.716789200000000,,0xCD,0x95
3.753284000000000,,0xB0,0x0B
3.755488000000000,,0x00,0x01
3.758464800000000,,0x20,0x01
3.761441600000000,,0x8E,0x00
3.764418600000000,,0x00,0x0F
3.767395200000000,,0x0E,0x20
3.770372000000000,,0x14,0x04
3.773348800000000,,0x80,0x00
3.776325400000000,,0x55,0x95
3.812536000000000,,0xB0,0x0B
3.815023000000000,,0x00,0x01
3.817999400000000,,0x20,0x01
3.820976200000000,,0x06,0x00
3.823952800000000,,0x00,0x0F
3.826929200000000,,0x0E,0x20
3.829906000000000,,0x15,0x04
3.832882600000000,,0x80,0x00
3.835859200000000,,0xCE,0x95
3.872461400000000,,0xB0,0x0B
3.874558600000000,,0x00,0x01
3.877535200000000,,0x20,0x01
3.880512000000000,,0x8E,0x00
3.883488600000000,,0x00,0x0F
3.886465200000000,,0x0E,0x20
3.889441800000000,,0x15,0x04
3.892418400000000,,0x80,0x00
3.895395200000000,,0x56,0x95
3.931786800000000,,0xB0,0x0B
3.934093600000000,,0x00,0x01
3.937070400000000,,0x20,0x01
3.940047200000000,,0x06,0x00
3.943024000000000,,0x00,0x0F
3.946001000000000,,0x0E,0x20
3.948977800000000,,0x15,0x04
3.951954600000000,,0x80,0x00
3.954931400000000,,0xCE,0x95
3.991164600000000,,0xB0,0x0B
3.993629400000000,,0x00,0x01
3.996606200000000,,0x20,0x01
3.999583000000000,,0x8E,0x00
4.002559800000000,,0x00,0x0F
4.005536800000000,,0x0E,0x20
4.008513400000000,,0x15,0x04
4.011490200000000,,0x80,0x00
4.014467000000000,,0x56,0x95
4.050527800000000,,0xB0,0x0B
4.053164800000000,,0x00,0x01
4.056141600000000,,0x20,0x01
4.059118200000000,,0x06,0x00
4.062095000000000,,0x00,0x0F
4.065071600000000,,0x0E,0x20
4.068048400000000,,0x15,0x04
4.071025200000000,,0x80,0x00
4.074002000000000,,0xCE,0x95
4.110463600000000,,0xB0,0x0B
4.112699600000000,,0x00,0x01
4.115676200000000,,0x20,0x01
4.118652800000000,,0x8E,0x00
4.121629600000000,,0x00,0x0F
4.124606400000000,,0x0E,0x20
4.127583000000000,,0x15,0x04
4.130559800000000,,0x80,0x00
4.133536400000000,,0x56,0x95
4.169838600000000,,0xB0,0x0B
4.172232800000000,,0x00,0x01
4.175209600000000,,0x20,0x01
4.178186200000000,,0x06,0x00
4.181163200000000,,0x00,0x0F
4.184140000000000,,0x0E,0x20
4.187116600000000,,0x15,0x04
4.190093400000000,,0x80,0x00
4.193070400000000,,0xCE,0x95
4.229202200000000,,0xB0,0x0B
4.231768400000000,,0x00,0x01
4.234745000000000,,0x20,0x01
4.237721800000000,,0x8E,0x00
4.240698600000000,,0x00,0x0F
4.243675200000000,,0x0E,0x20
4.246651800000000,,0x15,0x04
4.249628400000000,,0x80,0x00
4.252605200000000,,0x56,0x95
4.289131800000000,,0xB0,0x0B
4.291304000000000,,0x00,0x01
4.294280800000000,,0x20,0x01
4.297257400000000,,0x06,0x00
4.300234200000000,,0x00,0x0F
4.303211000000000,,0x0E,0x20
4.306187800000000,,0x15,0x04
4.309164600000000,,0x80,0x00
4.312141600000000,,0xCE,0x95
4.348493600000000,,0xB0,0x0B
4.350839200000000,,0x00,0x01
4.353816000000000,,0x20,0x01
4.356792800000000,,0x8E,0x00
4.359769400000000,,0x00,0x0F
4.362746400000000,,0x0E,0x20
4.365723200000000,,0x15,0x04
4.368700000000000,,0x80,0x00
4.371676800000000,,0x56,0x95
4.407874400000000,,0xB0,0x0B
4.410375800000000,,0x00,0x01
4.413352600000000,,0x20,0x01
4.416329400000000,,0x06,0x00
4.419306000000000,,0x00,0x0F
4.422282800000000,,0x0E,0x20
4.425259600000000,,0x15,0x04
4.428236400000000,,0x80,0x00
4.431213400000000,,0xCE,0x95
4.467802000000000,,0xB0,0x0B
4.469912600000000,,0x00,0x01
4.472889200000000,,0x20,0x01
4.475866000000000,,0x8E,0x00
4.478842400000000,,0x00,0x0F
4.481819000000000,,0x0E,0x20
4.484795800000000,,0x15,0x04
4.487772600000000,,0x80,0x00
4.490749400000000,,0x56,0x95
4.527162800000000,,0xB0,0x0B
4.529447400000000,,0x00,0x01
4.532424200000000,,0x20,0x01
4.535400800000000,,0x06,0x00
4.538377400000000,,0x00,0x0F
4.541354200000000,,0x0E,0x20
4.544331000000000,,0x15,0x04
4.547307600000000,,0x80,0x00
4.550284400000000,,0xCE,0x95
4.586540800000000,,0xB0,0x0B
4.588983200000000,,0x00,0x01
4.591960000000000,,0x20,0x01
4.594936600000000,,0x8E,0x00
4.597913400000000,,0x00,0x0F
4.600890000000000,,0x0E,0x20
4.603866800000000,,0x15,0x04
4.606843600000000,,0x80,0x00
4.609820600000000,,0x56,0x95
4.645903200000000,,0xB0,0x0B
4.648519400000000,,0x00,0x01
4.651496400000000,,0x20,0x01
4.654473200000000,,0x06,0x00
4.657449800000000,,0x00,0x0F
4.660426600000000,,0x0E,0x20
4.663403400000000,,0x15,0x04
4.666380000000000,,0x80,0x00
4.669356600000000,,0xCE,0x95
4.705832800000000,,0xB0,0x0B
4.708053600000000,,0x00,0x01
4.711030400000000,,0x20,0x01
4.714007200000000,,0x8E,0x00
4.716983600000000,,0x00,0x0F
4.719960200000000,,0x0E,0x20
4.722936800000000,,0x15,0x04
4.725913400000000,,0x80,0x00
4.728890000000000,,0x56,0x95
4.765222400000000,,0xB0,0x0B
4.767587800000000,,0x00,0x01
4.770564400000000,,0x20,0x02
4.773541200000000,,0x06,0x00
4.776518000000000,,0x00,0x0F
4.779494600000000,,0x0E,0x20
4.782471400000000,,0x15,0x04
4.785448200000000,,0x80,0x00
4.788424800000000,,0xCE,0x96
4.824994200000000,,0xB0,0x0B
4.827121200000000,,0x00,0x01
4.830098000000000,,0x20,0x02
4.833074600000000,,0x8E,0x00
4.836051400000000,,0x00,0x0F
4.839028000000000,,0x0E,0x20
4.842004600000000,,0x16,0x04
4.844981200000000,,0x80,0x00
4.847958000000000,,0x57,0x96
4.884371600000000,,0xB0,0x0B
4.886654000000000,,0x00,0x01
4.889630600000000,,0x20,0x02
4.892607200000000,,0x06,0x00
4.895583800000000,,0x00,0x0F
4.898560400000000,,0x0E,0x20
4.901537000000000,,0x16,0x04
4.904513800000000,,0x80,0x00
4.907490400000000,,0xCF,0x96
4.943734200000000,,0xB0,0x0B
4.946188000000000,,0x00,0x01
4.949164800000000,,0x20,0x02
4.952141600000000,,0x8E,0x00
4.955118400000000,,0x00,0x0F
4.958095000000000,,0x0E,0x20
4.961071800000000,,0x16,0x04
4.964048400000000,,0x80,0x00
4.967025200000000,,0x57,0x96
5.003112600000000,,0xB0,0x0B
5.005723600000000,,0x00,0x01
5.008700200000000,,0x20,0x02
5.011677000000000,,0x06,0x00
5.014653800000000,,0x00,0x0F
5.017630400000000,,0x0E,0x20
5.020607200000000,,0x16,0x04
5.023583800000000,,0x80,0x00
5.026560600000000,,0xCF,0x96
5.063045800000000,,0xB0,0x0B
5.065255600000000,,0x00,0x01
5.068232200000000,,0x20,0x02
5.071209000000000,,0x8E,0x00
5.074185600000000,,0x00,0x0F
5.077162200000000,,0x0E,0x20
5.080138800000000,,0x16,0x04
5.083115600000000,,0x80,0x00
5.086092200000000,,0x57,0x96
5.122405800000000,,0xB0,0x0B
5.124787800000000,,0x00,0x01
5.127764200000000,,0x20,0x02
5.130741000000000,,0x06,0x00
5.133717600000000,,0x00,0x0F
5.136694200000000,,0x0E,0x20
5.139670600000000,,0x16,0x04
5.142647400000000,,0x80,0x00
5.145623800000000,,0xCF,0x96
5.181782200000000,,0xB0,0x0B
5.184319800000000,,0x00,0x01
5.187296400000000,,0x20,0x02
5.190273000000000,,0x8E,0x00
5.193249600000000,,0x00,0x0F
5.196226000000000,,0x0E,0x20
5.199202600000000,,0x16,0x04
5.202179400000000,,0x80,0x00
5.205156000000000,,0x57,0x96
5.241692200000000,,0xB0,0x0B
5.243852200000000,,0x00,0x01
5.246828800000000,,0x20,0x02
5.249805400000000,,0x06,0x00
5.252782000000000,,0x00,0x0F
5.255758800000000,,0x0E,0x20
5.258735400000000,,0x16,0x04
5.261712200000000,,0x80,0x00
5.264688800000000,,0xCF,0x96
5.301068600000000,,0xB0,0x0B
5.303385400000000,,0x00,0x01
5.306362200000000,,0x20,0x02
5.309338600000000,,0x8E,0x00
5.312315400000000,,0x00,0x0F
5.315292200000000,,0x0E,0x20
5.318268800000000,,0x16,0x04
5.321245400000000,,0x80,0x00
5.324222000000000,,0x57,0x96
5.360442800000000,,0xB0,0x0B
5.362918000000000,,0x00,0x01
5.365894800000000,,0x20,0x02
5.368871400000000,,0x06,0x00
5.371848000000000,,0x00,0x0F
5.374824600000000,,0x0E,0x20
5.377801000000000,,0x16,0x04
5.380777600000000,,0x80,0x00
5.383754400000000,,0xCF,0x96
5.419805200000000,,0xB0,0x0B
5.422451800000000,,0x00,0x01
5.425428600000000,,0x20,0x02
5.428405400000000,,0x8E,0x00
5.431382200000000,,0x00,0x0F
5.434359000000000,,0x0E,0x20
5.437335600000000,,0x16,0x04
5.440312400000000,,0x80,0x00
5.443289200000000,,0x57,0x96
5.479733400000000,,0xB0,0x0B
5.481987400000000,,0x00,0x01
5.484964200000000,,0x20,0x02
5.487941000000000,,0x06,0x00
5.490917800000000,,0x00,0x0F
5.493894600000000,,0x0E,0x20
5.496871400000000,,0x16,0x04
5.499848200000000,,0x80,0x00
5.502824800000000,,0xCF,0x96
5.539095600000000,,0xB0,0x0B
5.541522200000000,,0x00,0x01
5.544499000000000,,0x20,0x02
5.547475600000000,,0x8E,0x00
5.550452400000000,,0x00,0x0F
5.553429200000000,,0x0E,0x20
5.556405800000000,,0x16,0x04
5.559382600000000,,0x80,0x00
5.562359000000000,,0x57,0x96
5.598471200000000,,0xB0,0x0B
5.601056200000000,,0x00,0x01
5.604032800000000,,0x20,0x02
5.607009400000000,,0x06,0x00
5.609986200000000,,0x00,0x0F
5.612963000000000,,0x0E,0x20
5.615939600000000,,0x16,0x04
5.618916200000000,,0x80,0x00
5.621893000000000,,0xCF,0x96
5.658398000000000,,0xB0,0x0B
5.660590600000000,,0x00,0x01
5.663567400000000,,0x20,0x02
5.666544200000000,,0x8E,0x00
5.669521000000000,,0x00,0x0F
5.672497800000000,,0x0E,0x20
5.675474600000000,,0x16,0x04
5.678451200000000,,0x80,0x00
5.681427800000000,,0x57,0x96
5.717760600000000,,0xB0,0x0B
5.720124600000000,,0x00,0x01
5.723101400000000,,0x20,0x02
5.726078200000000,,0x06,0x00
5.729055000000000,,0x00,0x0F
5.732031800000000,,0x0E,0x20
5.735008800000000,,0x16,0x04
5.737985600000000,,0x80,0x00
5.740962400000000,,0xCF,0x96
5.777563800000000,,0xB0,0x0B
5.779661000000000,,0x00,0x01
5.782637600000000,,0x20,0x02
5.785614400000000,,0x8E,0x00
5.788591000000000,,0x00,0x0F
5.791567800000000,,0x0E,0x20
5.794544600000000,,0x17,0x04
5.797521200000000,,0x80,0x00
5.800498000000000,,0x58,0x96
5.836886600000000,,0xB0,0x0B
5.839194800000000,,0x00,0x01
5.842171400000000,,0x20,0x02
5.845148200000000,,0x06,0x00
5.848125000000000,,0x00,0x0F
5.851101600000000,,0x0E,0x20
5.854078600000000,,0x17,0x04
5.857055200000000,,0x80,0x00
5.860032200000000,,0xD0,0x96
5.896266000000000,,0xB0,0x0B
5.898730000000000,,0x00,0x01
5.901706800000000,,0x20,0x02
5.904683400000000,,0x8E,0x00
5.907660000000000,,0x00,0x0F
5.910636600000000,,0x0E,0x20
5.913613000000000,,0x17,0x04
5.916589600000000,,0x80,0x00
5.919566000000000,,0x58,0x96
5.955640000000000,,0xB0,0x0B
5.958262400000000,,0x00,0x01
5.961239000000000,,0x20,0x02
5.964215800000000,,0x06,0x00
5.967192400000000,,0x00,0x0F
5.970169000000000,,0x0E,0x20
5.973145800000000,,0x17,0x04
5.976122400000000,,0x80,0x00
5.979099200000000,,0xD0,0x96
6.015551200000000,,0xB0,0x0B
6.017796000000000,,0x00,0x01
6.020772600000000,,0x20,0x02
6.023749200000000,,0x8E,0x00
6.026726000000000,,0x00,0x0F
6.029702600000000,,0x0E,0x20
6.032679200000000,,0x17,0x04
6.035656000000000,,0x80,0x00
6.038632600000000,,0x58,0x96
6.074936400000000,,0xB0,0x0B
6.077330400000000,,0x00,0x01
6.080307200000000,,0x20,0x02
6.083284000000000,,0x06,0x00
6.086260600000000,,0x00,0x0F
6.089237400000000,,0x0E,0x20
6.092214000000000,,0x17,0x04
6.095190800000000,,0x80,0x00
6.098167600000000,,0xD0,0x96
6.134297800000000,,0xB0,0x0B
6.136865400000000,,0x00,0x01
6.139841800000000,,0x20,0x02
6.142818600000000,,0x8E,0x00
6.145795200000000,,0x00,0x0F
6.148771800000000,,0x0E,0x20
6.151748600000000,,0x17,0x04
6.154725400000000,,0x80,0x00
6.157702000000000,,0x58,0x96
6.194221600000000,,0xB0,0x0B
6.196398000000000,,0x00,0x01
6.199374400000000,,0x20,0x02
6.202351200000000,,0x06,0x00
6.205327800000000,,0x00,0x0F
6.208304200000000,,0x0E,0x20
6.211280800000000,,0x17,0x04
6.214257600000000,,0x80,0x00
6.217234200000000,,0xD0,0x96
6.253597600000000,,0xB0,0x0B
6.255931200000000,,0x00,0x01
6.258907800000000,,0x20,0x02
6.261884600000000,,0x8E,0x00
6.264861400000000,,0x00,0x0F
6.267838000000000,,0x0E,0x20
6.270814800000000,,0x17,0x04
6.273791400000000,,0x80,0x00
6.276768000000000,,0x58,0x96
6.312956800000000,,0xB0,0x0B
6.315465800000000,,0x00,0x01
6.318442400000000,,0x20,0x02
6.321419200000000,,0x06,0x00
6.324396200000000,,0x00,0x0F
6.327372800000000,,0x0E,0x20
6.330349600000000,,0x17,0x04
6.333326400000000,,0x80,0x00
6.336303200000000,,0xD0,0x96
6.372884000000000,,0xB0,0x0B
6.375002600000000,,0x00,0x01
6.377979400000000,,0x20,0x02
6.380956200000000,,0x8E,0x00
6.383932800000000,,0x00,0x0F
6.386909600000000,,0x0E,0x20
6.389886400000000,,0x17,0x04
6.392863200000000,,0x80,0x00
6.395840000000000,,0x58,0x96
6.432244200000000,,0xB0,0x0B
6.434536400000000,,0x00,0x01
6.437513000000000,,0x20,0x02
6.440489800000000,,0x06,0x00
6.443466600000000,,0x00,0x0F
6.446443400000000,,0x0E,0x20
6.449420200000000,,0x17,0x04
6.452397000000000,,0x80,0x00
6.455373600000000,,0xD0,0x96
6.491621600000000,,0xB0,0x0B
6.494069400000000,,0x00,0x01
6.497046000000000,,0x20,0x02
6.500022600000000,,0x8E,0x00
6.502999400000000,,0x00,0x0F
6.505976000000000,,0x0E,0x20
6.508952800000000,,0x17,0x04
6.511929600000000,,0x80,0x00
6.514906200000000,,0x58,0x96
6.550996400000000,,0xB0,0x0B
6.553601400000000,,0x00,0x01
6.556578000000000,,0x20,0x02
6.559554600000000,,0x06,0x00
6.562531200000000,,0x00,0x0F
6.565507800000000,,0x0E,0x20
6.568484400000000,,0x17,0x04
6.571461000000000,,0x80,0x00
6.574437600000000,,0xD0,0x96
6.610904200000000,,0xB0,0x0B
6.613133600000000,,0x00,0x01
6.616110200000000,,0x20,0x02
6.619086800000000,,0x8E,0x00
6.622063600000000,,0x00,0x0F
6.625040200000000,,0x0E,0x20
6.628016800000000,,0x17,0x04
6.630993400000000,,0x80,0x00
6.633970000000000,,0x58,0x96
6.670278600000000,,0xB0,0x0B
6.672666400000000,,0x00,0x01
6.675643000000000,,0x20,0x02
6.678619600000000,,0x06,0x00
6.681596200000000,,0x00,0x0F
6.684572800000000,,0x0E,0x20
6.687549400000000,,0x17,0x04
6.690526000000000,,0x80,0x00
6.693502800000000,,0xD0,0x96
6.729639200000000,,0xB0,0x0B
6.732199200000000,,0x00,0x01
6.735176000000000,,0x20,0x02
6.738152400000000,,0x8E,0x00
6.741129200000000,,0x00,0x0F
6.744105800000000,,0x0E,0x20
6.747082200000000,,0x17,0x04
6.750058800000000,,0x80,0x00
6.753035200000000,,0x58,0x96
6.789435400000000,,0xB0,0x0B
6.791730400000000,,0x00,0x01
6.794707000000000,,0x20,0x02
6.797683400000000,,0x06,0x00
6.800659600000000,,0x00,0x0F
6.803636000000000,,0x0E,0x20
6.806612400000000,,0x18,0x04
6.809588800000000,,0x80,0x00
6.812565200000000,,0xD1,0x96
6.848807000000000,,0xB0,0x0B
6.851258800000000,,0x00,0x01
6.854235400000000,,0x20,0x02
6.857212000000000,,0x8E,0x00
6.860188400000000,,0x00,0x0F
6.863165000000000,,0x0E,0x20
6.866141400000000,,0x18,0x04
6.869117800000000,,0x80,0x00
6.872094200000000,,0x59,0x96
6.908165200000000,,0xB0,0x0B
6.910788000000000,,0x00,0x01
6.913764400000000,,0x20,0x02
6.916740800000000,,0x06,0x00
6.919717200000000,,0x00,0x0F
6.922693600000000,,0x0E,0x20
6.925670000000000,,0x18,0x04
6.928646400000000,,0x80,0x00
6.931622800000000,,0xD1,0x96
6.968084400000000,,0xB0,0x0B
6.970315400000000,,0x00,0x01
6.973291600000000,,0x20,0x02
6.976268000000000,,0x8E,0x00
6.979244200000000,,0x00,0x0F
6.982220400000000,,0x0E,0x20
6.985196600000000,,0x18,0x04
6.988173000000000,,0x80,0x00
6.991149400000000,,0x59,0x96
7.027439400000000,,0xB0,0x0B
7.029843000000000,,0x00,0x01
7.032819600000000,,0x20,0x02
7.035796000000000,,0x06,0x00
7.038772400000000,,0x00,0x0F
7.041749000000000,,0x0E,0x20
7.044725400000000,,0x18,0x04
7.047702000000000,,0x80,0x00
7.050678200000000,,0xD1,0x96
7.086820200000000,,0xB0,0x0B
7.089372200000000,,0x00,0x01
7.092348800000000,,0x20,0x02
7.095325200000000,,0x8E,0x00
7.098301400000000,,0x00,0x0F
7.101277800000000,,0x0E,0x20
7.104254400000000,,0x18,0x04
7.107231000000000,,0x80,0x00
7.110207400000000,,0x59,0x96
7.146742200000000,,0xB0,0x0B
7.148902600000000,,0x00,0x01
7.151879200000000,,0x20,0x02
7.154855600000000,,0x06,0x00
7.157832200000000,,0x00,0x0F
7.160808800000000,,0x0E,0x20
7.163785400000000,,0x18,0x04
7.166761800000000,,0x80,0x00
7.169738200000000,,0xD1,0x96
7.206100200000000,,0xB0,0x0B
7.208433800000000,,0x00,0x01
7.211410200000000,,0x20,0x02
7.214387000000000,,0x8E,0x00
7.217363800000000,,0x00,0x0F
7.220340600000000,,0x0E,0x20
7.223317400000000,,0x18,0x04
7.226294000000000,,0x80,0x00
7.229270800000000,,0x59,0x96
7.265476800000000,,0xB0,0x0B
7.267966600000000,,0x00,0x01
7.270943000000000,,0x20,0x02
7.273919600000000,,0x06,0x00
7.276896200000000,,0x00,0x0F
7.279872800000000,,0x0E,0x20
7.282849400000000,,0x18,0x04
7.285825800000000,,0x80,0x00
7.288802400000000,,0xD1,0x96
7.325388000000000,,0xB0,0x0B
7.327498600000000,,0x00,0x01
7.330475200000000,,0x20,0x02
7.333451800000000,,0x8E,0x00
7.336428200000000,,0x00,0x0F
7.339404800000000,,0x0E,0x20
7.342381400000000,,0x18,0x04
7.345358200000000,,0x80,0x00
7.348334800000000,,0x59,0x96
7.384762600000000,,0xB0,0x0B
7.387030400000000,,0x00,0x01
7.390007000000000,,0x20,0x02
7.392983800000000,,0x06,0x00
7.395960600000000,,0x00,0x0F
7.398937200000000,,0x0E,0x20
7.401914000000000,,0x18,0x04
7.404890800000000,,0x80,0x00
7.407867600000000,,0xD1,0x96
7.444137400000000,,0xB0,0x0B
7.446564200000000,,0x00,0x01
7.449540800000000,,0x20,0x02
7.452517600000000,,0x8E,0x00
7.455494000000000,,0x00,0x0F
7.458470600000000,,0x0E,0x20
7.461447200000000,,0x18,0x04
7.464423800000000,,0x80,0x00
7.467400400000000,,0x59,0x96
7.503497000000000,,0xB0,0x0B
7.506096000000000,,0x00,0x01
7.509072400000000,,0x20,0x02
7.512049000000000,,0x06,0x00
7.515025600000000,,0x00,0x0F
7.518002200000000,,0x0E,0x20
7.520978600000000,,0x18,0x04
7.523955200000000,,0x80,0x00
7.526931800000000,,0xD1,0x96
7.563423200000000,,0xB0,0x0B
7.565627600000000,,0x00,0x01
7.568604000000000,,0x20,0x02
7.571580400000000,,0x8E,0x00
7.574557000000000,,0x00,0x0F
7.577533400000000,,0x0E,0x20
7.580510000000000,,0x18,0x04
7.583486600000000,,0x80,0x00
7.586463000000000,,0x59,0x96
7.622781000000000,,0xB0,0x0B
7.625158400000000,,0x00,0x01
7.628135000000000,,0x20,0x02
7.631111600000000,,0x06,0x00
7.634088200000000,,0x00,0x0F
7.637064800000000,,0x0E,0x20
7.640041200000000,,0x18,0x04
7.643017800000000,,0x80,0x00
7.645994200000000,,0xD1,0x96
7.682153400000000,,0xB0,0x0B
7.684688400000000,,0x00,0x01
7.687664800000000,,0x20,0x02
7.690641200000000,,0x8E,0x00
7.693617600000000,,0x00,0x0F
7.696594200000000,,0x0E,0x20
7.699570400000000,,0x18,0x04
7.702547000000000,,0x80,0x00
7.705523400000000,,0x59,0x96
7.742091400000000,,0xB0,0x0B
7.744219000000000,,0x00,0x01
7.747195600000000,,0x20,0x02
7.750172000000000,,0x06,0x00
7.753148600000000,,0x00,0x0F
7.756125400000000,,0x0E,0x20
7.759101800000000,,0x18,0x04
7.762078600000000,,0x80,0x00
7.765055200000000,,0xD1,0x96
7.801314200000000,,0xB0,0x0B
7.803750000000000,,0x00,0x01
7.806726600000000,,0x20,0x02
7.809703200000000,,0x8E,0x00
7.812679600000000,,0x00,0x0F
7.815656200000000,,0x0E,0x20
7.818632600000000,,0x19,0x04
7.821609200000000,,0x80,0x00
7.824585800000000,,0x5A,0x96
7.860688000000000,,0xB0,0x0B
7.863280400000000,,0x00,0x01
7.866257200000000,,0x20,0x02
7.869233600000000,,0x06,0x00
7.872210200000000,,0x00,0x0F
7.875186800000000,,0x0E,0x20
7.878163400000000,,0x19,0x04
7.881140000000000,,0x80,0x00
7.884116400000000,,0xD2,0x96
7.920596400000000,,0xB0,0x0B
7.922811200000000,,0x00,0x01
7.925787800000000,,0x20,0x02
7.928764200000000,,0x8E,0x00
7.931740800000000,,0x00,0x0F
7.934717200000000,,0x0E,0x20
7.937693800000000,,0x19,0x04
7.940670200000000,,0x80,0x00
7.943646800000000,,0x5A,0x96
7.979967000000000,,0xB0,0x0B
7.982342000000000,,0x00,0x01
7.985318600000000,,0x20,0x02
7.988295000000000,,0x06,0x00
7.991271600000000,,0x00,0x0F
7.994248200000000,,0x0E,0x20
7.997224800000000,,0x19,0x04
8.000201199999999,,0x80,0x00
8.003177800000000,,0xD2,0x96
8.039348600000000,,0xB0,0x0B
8.041873199999999,,0x00,0x01
8.044849800000000,,0x20,0x02
8.047826400000000,,0x8E,0x00
8.050802800000000,,0x00,0x0F
8.053779199999999,,0x0E,0x20
8.056755799999999,,0x19,0x04
8.059732400000000,,0x80,0x00
8.062709000000000,,0x5A,0x96
8.099256799999999,,0xB0,0x0B
8.101403800000000,,0x00,0x01
8.104380400000000,,0x20,0x02
8.107356800000000,,0x06,0x00
8.110333400000000,,0x00,0x0F
8.113310000000000,,0x0E,0x20
8.116286400000000,,0x19,0x04
8.119262800000000,,0x80,0x00
8.122239199999999,,0xD2,0x96
8.158645800000000,,0xB0,0x0B
8.160933600000000,,0x20,0x01
8.163909800000001,,0x20,0x02
8.166886399999999,,0x8E,0x00
8.169862600000000,,0x00,0x0F
8.172839000000000,,0x0E,0x20
8.175815399999999,,0x19,0x04
8.178792000000000,,0x81,0x00
8.181768399999999,,0x7B,0x96
8.218055400000001,,0xB0,0x0B
8.220462599999999,,0x20,0x01
8.223439200000000,,0x20,0x02
8.226415800000000,,0x06,0x00
8.229392199999999,,0x00,0x0F
8.232368599999999,,0x0E,0x20
8.235345000000001,,0x19,0x04
8.238321200000000,,0x81,0x00
8.241297599999999,,0xF3,0x96
8.277480000000001,,0xB0,0x0B
8.279991799999999,,0x20,0x01
8.282968199999999,,0x20,0x02
8.285944799999999,,0x8E,0x00
8.288921200000001,,0x00,0x0F
8.291897600000000,,0x0E,0x20
8.294874000000000,,0x19,0x04
8.297850400000000,,0x81,0x00
8.300827000000000,,0x7B,0x96
8.336922599999999,,0xB0,0x0B
8.339523000000000,,0x00,0x01
8.342499600000000,,0x20,0x02
8.345476200000000,,0x06,0x00
8.348452800000000,,0x00,0x0F
8.351429400000001,,0x0E,0x20
8.354405800000000,,0x19,0x04
8.357382200000000,,0x80,0x00
8.360358800000000,,0xD2,0x96
8.396829200000001,,0xB0,0x0B
8.399054000000000,,0x00,0x01
8.402030800000000,,0x20,0x02
8.405007400000001,,0x8E,0x00
8.407984000000001,,0x00,0x0F
8.410960800000000,,0x0E,0x20
8.413937400000000,,0x19,0x04
8.416914000000000,,0x80,0x00
8.419890600000000,,0x5A,0x96
8.456205799999999,,0xB0,0x0B
8.458586800000001,,0x00,0x01
8.461563600000000,,0x20,0x02
8.464540200000000,,0x06,0x00
8.467517000000001,,0x00,0x0F
8.470493599999999,,0x0E,0x20
8.473470200000000,,0x19,0x04
8.476446800000000,,0x80,0x00
8.479423400000000,,0xD2,0x96
8.515563600000000,,0xB0,0x0B
8.518119199999999,,0x00,0x01
8.521095600000001,,0x20,0x02
8.524072200000001,,0x8E,0x00
8.527049000000000,,0x00,0x0F
8.530025400000000,,0x0E,0x20
8.533002000000000,,0x19,0x04
8.535978600000000,,0x80,0x00
8.538955200000000,,0x5A,0x96
8.575487000000001,,0xB0,0x0B
8.577650400000000,,0x00,0x01
8.580626799999999,,0x20,0x02
8.583603399999999,,0x06,0x00
8.586580000000000,,0x00,0x0F
8.589556600000000,,0x0E,0x20
8.592533200000000,,0x19,0x04
8.595509800000000,,0x80,0x00
8.598486400000001,,0xD2,0x96
8.634860600000000,,0xB0,0x0B
8.637182800000000,,0x00,0x01
8.640159400000000,,0x20,0x02
8.643136000000000,,0x8E,0x00
8.646112600000000,,0x00,0x0F
8.649089200000001,,0x0E,0x20
8.652065800000001,,0x19,0x04
8.655042600000000,,0x80,0x00
8.658019200000000,,0x5A,0x96
8.694223800000000,,0xB0,0x0B
8.696714999999999,,0x00,0x01
8.699691600000000,,0x20,0x02
8.702668200000000,,0x06,0x00
8.705644800000000,,0x00,0x0F
8.708621200000000,,0x0E,0x20
8.711597800000000,,0x19,0x04
8.714574199999999,,0x80,0x00
8.717550800000000,,0xD2,0x96
8.754055400000000,,0xB0,0x0B
8.756245399999999,,0x20,0x01
8.759221800000001,,0x20,0x02
8.762198400000001,,0x8E,0x00
8.765174800000000,,0x00,0x0F
8.768151400000001,,0x0E,0x20
8.771127800000000,,0x1A,0x04
8.774104400000001,,0x81,0x00
8.777080800000000,,0x7C,0x96
8.813467599999999,,0xB0,0x0B
8.815775199999999,,0x20,0x01
8.818751600000001,,0x20,0x02
8.821728000000000,,0x06,0x00
8.824704600000000,,0x00,0x0F
8.827681000000000,,0x0E,0x20
8.830657400000000,,0x1A,0x04
8.833634000000000,,0x81,0x00
8.836610400000000,,0xF4,0x96
8.872891400000000,,0xB0,0x0B
8.875305800000000,,0x00,0x01
8.878282199999999,,0x20,0x02
8.881258799999999,,0x8E,0x00
8.884235400000000,,0x00,0x0F
8.887211799999999,,0x0E,0x20
8.890188400000000,,0x1A,0x04
8.893165000000000,,0x80,0x00
8.896141399999999,,0x5B,0x96
8.932287799999999,,0xB0,0x0B
8.934837000000000,,0x20,0x01
8.937813600000000,,0x20,0x02
8.940790399999999,,0x06,0x00
8.943766999999999,,0x00,0x0F
8.946743600000000,,0x0E,0x20
8.949719999999999,,0x1A,0x04
8.952696599999999,,0x81,0x00
8.955673400000000,,0xF4,0x96
8.992252600000000,,0xB0,0x0B
8.994371200000000,,0x20,0x01
8.997348000000001,,0x20,0x02
9.000324600000001,,0x8E,0x00
9.003301199999999,,0x00,0x0F
9.006277799999999,,0x0E,0x20
9.009254400000000,,0x1A,0x04
9.012231200000000,,0x81,0x00
9.015207999999999,,0x7C,0x96
9.051694200000000,,0xB0,0x0B
9.053905200000001,,0x20,0x01
9.056881799999999,,0x20,0x02
9.059858200000001,,0x06,0x00
9.062835000000000,,0x00,0x0F
9.065811600000000,,0x0E,0x20
9.068788200000000,,0x1A,0x04
9.071764800000000,,0x81,0x00
9.074741599999999,,0xF4,0x96
9.111105800000001,,0xB0,0x0B
9.113438000000000,,0x20,0x01
9.116414400000000,,0x20,0x02
9.119391000000000,,0x8E,0x00
9.122367600000000,,0x00,0x0F
9.125344200000001,,0x0E,0x20
9.128321000000000,,0x1A,0x04
9.131297399999999,,0x81,0x00
9.134274000000000,,0x7C,0x96
9.170547600000001,,0xB0,0x0B
9.172968400000000,,0x00,0x01
9.175945000000000,,0x20,0x02
9.178921400000000,,0x06,0x00
9.181897800000000,,0x00,0x0F
9.184874600000001,,0x0E,0x20
9.187851200000001,,0x1A,0x04
9.190827600000000,,0x80,0x00
9.193804399999999,,0xD3,0x96
9.229922400000000,,0xB0,0x0B
9.232499400000000,,0x00,0x01
9.235476200000001,,0x20,0x02
9.238452799999999,,0x8E,0x00
9.241429600000000,,0x00,0x0F
9.244406400000001,,0x0E,0x20
9.247382999999999,,0x1A,0x04
9.250359599999999,,0x80,0x00
9.253336200000000,,0x5B,0x96
9.289833399999999,,0xB0,0x0B
9.292032799999999,,0x00,0x01
9.295009400000000,,0x20,0x02
9.297986200000000,,0x06,0x00
9.300962800000001,,0x00,0x0F
9.303939400000001,,0x0E,0x20
9.306915999999999,,0x1A,0x04
9.309892800000000,,0x80,0x00
9.312869400000000,,0xD3,0x96
9.349207800000000,,0xB0,0x0B
9.351566399999999,,0x00,0x01
9.354543000000000,,0x20,0x02
9.357519800000000,,0x8E,0x00
9.360496400000001,,0x00,0x0F
9.363473000000001,,0x0E,0x20
9.366449599999999,,0x1A,0x04
9.369426199999999,,0x80,0x00
9.372403000000000,,0x5B,0x96
9.408565800000000,,0xB0,0x0B
9.411098800000000,,0x00,0x01
9.414075400000000,,0x20,0x02
9.417052000000000,,0x06,0x00
9.420028600000000,,0x00,0x0F
9.423005200000000,,0x0E,0x20
9.425981800000001,,0x1A,0x04
9.428958400000001,,0x80,0x00
9.431934999999999,,0xD3,0x96
9.468490400000000,,0xB0,0x0B
9.470630399999999,,0x00,0x01
9.473606999999999,,0x20,0x02
9.476583400000001,,0x8E,0x00
9.479559999999999,,0x00,0x0F
9.482536400000001,,0x0E,0x20
9.485512800000000,,0x1A,0x04
9.488489200000000,,0x80,0x00
9.491465800000000,,0x5B,0x96
9.527864800000000,,0xB0,0x0B
9.530161400000001,,0x00,0x01
9.533137999999999,,0x20,0x02
9.536114599999999,,0x06,0x00
9.539091200000000,,0x00,0x0F
9.542067800000000,,0x0E,0x20
9.545044400000000,,0x1A,0x04
9.548021000000000,,0x80,0x00
9.550997600000001,,0xD3,0x96
9.587225000000000,,0xB0,0x0B
9.589691800000001,,0x00,0x01
9.592668200000000,,0x20,0x02
9.595644800000001,,0x8E,0x00
9.598621200000000,,0x00,0x0F
9.601597999999999,,0x0E,0x20
9.604574599999999,,0x1A,0x04
9.607551200000000,,0x80,0x00
9.610527599999999,,0x5B,0x96
9.646599800000001,,0xB0,0x0B
9.649222200000001,,0x00,0x01
9.652198800000001,,0x20,0x02
9.655175200000000,,0x06,0x00
9.658151800000001,,0x00,0x0F
9.661128000000000,,0x0E,0x20
9.664104399999999,,0x1A,0x04
9.667080800000001,,0x80,0x00
9.670057200000000,,0xD3,0x96
9.706507200000001,,0xB0,0x0B
9.708750999999999,,0x00,0x01
9.711727600000000,,0x20,0x02
9.714703999999999,,0x8E,0x00
9.717680600000000,,0x00,0x0F
9.720656999999999,,0x0E,0x20
9.723633599999999,,0x1A,0x04
9.726610000000001,,0x80,0x00
9.729586400000001,,0x5B,0x96
9.765753399999999,,0xB0,0x0B
9.768279800000000,,0x00,0x01
9.771256200000000,,0x20,0x02
9.774232400000001,,0x06,0x00
9.777208600000000,,0x00,0x0F
9.780184999999999,,0x0E,0x20
9.783161200000000,,0x1B,0x04
9.786137600000000,,0x80,0x00
9.789114000000000,,0xD4,0x96
9.825671600000000,,0xB0,0x0B
9.827807000000000,,0x00,0x01
9.830783400000000,,0x20,0x02
9.833759799999999,,0x8E,0x00
9.836736399999999,,0x00,0x0F
9.839713000000000,,0x0E,0x20
9.842689600000000,,0x1B,0x04
9.845666000000000,,0x80,0x00
9.848642600000000,,0x5C,0x96
9.885030600000000,,0xB0,0x0B
9.887338400000001,,0x00,0x01
9.890314800000001,,0x20,0x02
9.893291600000000,,0x06,0x00
9.896268200000000,,0x00,0x0F
9.899244800000000,,0x0E,0x20
9.902221400000000,,0x1B,0x04
9.905198199999999,,0x80,0x00
9.908174799999999,,0xD4,0x96
9.944406400000000,,0xB0,0x0B
9.946870000000001,,0x00,0x01
9.949846600000001,,0x20,0x02
9.952823199999999,,0x8E,0x00
9.955799400000000,,0x00,0x0F
9.958776000000000,,0x0E,0x20
9.961752400000000,,0x1B,0x04
9.964728800000000,,0x80,0x00
9.967705400000000,,0x5C,0x96
10.003764000000000,,0xB0,0x0B
10.006399800000001,,0x00,0x01
10.009376400000001,,0x20,0x02
10.012352999999999,,0x06,0x00
10.015329599999999,,0x00,0x0F
10.018306200000000,,0x0E,0x20
10.021282800000000,,0x1B,0x04
10.024259400000000,,0x80,0x00
10.027236000000000,,0xD4,0x96
10.063697599999999,,0xB0,0x0B
10.065932000000000,,0x00,0x01
10.068908600000000,,0x20,0x02
10.071885200000001,,0x8E,0x00
10.074861800000001,,0x00,0x0F
10.077838399999999,,0x0E,0x20
10.080814800000001,,0x1B,0x04
10.083791400000001,,0x80,0x00
10.086767999999999,,0x5C,0x96
10.123072000000001,,0xB0,0x0B
10.125461400000001,,0x00,0x01
10.128437800000000,,0x20,0x02
10.131414200000000,,0x06,0x00
10.134390600000000,,0x00,0x0F
10.137366999999999,,0x0E,0x20
10.140343400000001,,0x1B,0x04
10.143319999999999,,0x80,0x00
10.146296400000001,,0xD4,0x96
10.182430800000001,,0xB0,0x0B
10.184990200000000,,0x00,0x01
10.187966800000000,,0x20,0x02
10.190943200000000,,0x8E,0x00
10.193919800000000,,0x00,0x0F
10.196896400000000,,0x0E,0x20
10.199872800000000,,0x1B,0x04
10.202849400000000,,0x80,0x00
10.205826000000000,,0x5C,0x96
10.242353400000001,,0xB0,0x0B
10.244521400000000,,0x00,0x01
10.247498000000000,,0x20,0x02
10.250474400000000,,0x06,0x00
10.253450800000000,,0x00,0x0F
10.256427400000000,,0x0E,0x20
10.259403799999999,,0x1B,0x04
10.262380400000000,,0x80,0x00
10.265356799999999,,0xD4,0x96
10.301710999999999,,0xB0,0x0B
10.304051599999999,,0x00,0x01
10.307028200000000,,0x20,0x02
10.310004599999999,,0x8E,0x00
10.312981000000001,,0x00,0x0F
10.315957400000000,,0x0E,0x20
10.318934000000000,,0x1B,0x04
10.321910400000000,,0x80,0x00
10.324887000000000,,0x5C,0x96
10.361084000000000,,0xB0,0x0B
10.363581200000000,,0x00,0x01
10.366557800000001,,0x20,0x02
10.369534200000000,,0x06,0x00
10.372510600000000,,0x00,0x0F
10.375487400000001,,0x0E,0x20
10.378463800000000,,0x1B,0x04
10.381440200000000,,0x80,0x00
10.384416600000000,,0xD4,0x96
10.421005200000000,,0xB0,0x0B
10.423111799999999,,0x00,0x01
10.426088600000000,,0x20,0x02
10.429065200000000,,0x8E,0x00
10.432041800000000,,0x00,0x0F
10.435018400000001,,0x0E,0x20
10.437995000000001,,0x1B,0x04
10.440971599999999,,0x80,0x00
10.443948199999999,,0x5C,0x96
10.480366399999999,,0xB0,0x0B
10.482644400000000,,0x00,0x01
10.485621000000000,,0x20,0x02
10.488597800000001,,0x06,0x00
10.491574399999999,,0x00,0x0F
10.494551200000000,,0x0E,0x20
10.497527800000000,,0x1B,0x04
10.500504400000001,,0x80,0x00
10.503481000000001,,0xD4,0x96
10.539739200000000,,0xB0,0x0B
10.542176000000000,,0x00,0x01
10.545152600000000,,0x20,0x02
10.548129200000000,,0x8E,0x00
10.551105800000000,,0x00,0x0F
10.554082400000000,,0x0E,0x20
10.557059000000001,,0x1B,0x04
10.560035600000001,,0x80,0x00
10.563012000000001,,0x5C,0x96
10.599096200000000,,0xB0,0x0B
10.601707200000000,,0x00,0x01
10.604683800000000,,0x20,0x02
10.607660400000000,,0x06,0x00
10.610637000000001,,0x00,0x0F
10.613613600000001,,0x0E,0x20
10.616590199999999,,0x1B,0x04
10.619566600000001,,0x80,0x00
10.622543200000001,,0xD4,0x96
10.659021200000000,,0xB0,0x0B
10.661238000000001,,0x00,0x01
10.664214599999999,,0x20,0x02
10.667191200000000,,0x8E,0x00
10.670167599999999,,0x00,0x0F
10.673144199999999,,0x0E,0x20
10.676120600000001,,0x1B,0x04
10.679097199999999,,0x80,0x00
10.682073800000000,,0x5C,0x96
10.718410199999999,,0xB0,0x0B
10.720768800000000,,0x00,0x01
10.723745200000000,,0x20,0x02
10.726721800000000,,0x06,0x00
10.729698400000000,,0x00,0x0F
10.732675000000000,,0x0E,0x20
10.735651600000001,,0x1B,0x04
10.738628200000001,,0x80,0x00
10.741604600000001,,0xD4,0x96
10.778180200000000,,0xB0,0x0B
10.780302799999999,,0x00,0x01
10.783279600000000,,0x20,0x02
10.786256200000000,,0x8E,0x00
10.789232800000001,,0x00,0x0F
10.792209600000000,,0x0E,0x20
10.795186200000000,,0x1C,0x04
10.798162800000000,,0x80,0x00
10.801139200000000,,0x5D,0x96
10.837557800000001,,0xB0,0x0B
10.839835600000001,,0x00,0x01
10.842812199999999,,0x20,0x02
10.845789000000000,,0x06,0x00
10.848765800000001,,0x00,0x0F
10.851742399999999,,0x0E,0x20
10.854718999999999,,0x1C,0x04
10.857695600000000,,0x80,0x00
10.860672200000000,,0xD5,0x96
10.896919400000000,,0xB0,0x0B
10.899368800000000,,0x00,0x01
10.902345400000000,,0x20,0x02
10.905322000000000,,0x8E,0x00
10.908298600000000,,0x00,0x0F
10.911275399999999,,0x0E,0x20
10.914252200000000,,0x1C,0x04
10.917228800000000,,0x80,0x00
10.920205400000000,,0x5D,0x96
10.956295000000001,,0xB0,0x0B
10.958901400000000,,0x00,0x01
10.961878000000000,,0x20,0x02
10.964854799999999,,0x06,0x00
10.967831199999999,,0x00,0x0F
10.970807799999999,,0x0E,0x20
10.973784400000000,,0x1C,0x04
10.976761000000000,,0x80,0x00
10.979737600000000,,0xD5,0x96
11.016228200000000,,0xB0,0x0B
11.018434600000001,,0x00,0x01
11.021411199999999,,0x20,0x02
11.024387800000000,,0x8E,0x00
11.027364400000000,,0x00,0x0F
11.030341000000000,,0x0E,0x20
11.033317400000000,,0x1C,0x04
11.036294200000000,,0x80,0x00
11.039270600000000,,0x5D,0x96
11.075588600000000,,0xB0,0x0B
11.077966200000001,,0x00,0x01
11.080942800000001,,0x20,0x02
11.083919600000000,,0x06,0x00
11.086896200000000,,0x00,0x0F
11.089872800000000,,0x0E,0x20
11.092849599999999,,0x1C,0x04
11.095826199999999,,0x80,0x00
11.098802800000000,,0xD5,0x96
11.134964800000001,,0xB0,0x0B
11.137498400000000,,0x00,0x01
11.140475000000000,,0x20,0x02
11.143451600000001,,0x8E,0x00
11.146428000000000,,0x00,0x0F
11.149404600000000,,0x0E,0x20
11.152381200000001,,0x1C,0x04
11.155358000000000,,0x80,0x00
11.158334399999999,,0x5D,0x96
11.194871600000001,,0xB0,0x0B
11.197029199999999,,0x00,0x01
11.200005800000000,,0x20,0x02
11.202982199999999,,0x06,0x00
11.205958799999999,,0x00,0x0F
11.208935400000000,,0x0E,0x20
11.211911799999999,,0x1C,0x04
11.214888200000001,,0x80,0x00
11.217864799999999,,0xD5,0x96
11.254245400000000,,0xB0,0x0B
11.256558600000000,,0x00,0x01
11.259535000000000,,0x20,0x02
11.262511600000000,,0x8E,0x00
11.265488400000001,,0x00,0x0F
11.268465000000001,,0x0E,0x20
11.271441599999999,,0x1C,0x04
11.274418200000000,,0x80,0x00
11.277394800000000,,0x5D,0x96
11.313619600000001,,0xB0,0x0B
11.316089399999999,,0x00,0x01
11.319065999999999,,0x20,0x02
11.322042600000000,,0x06,0x00
11.325019200000000,,0x00,0x0F
11.327995800000000,,0x0E,0x20
11.330972200000000,,0x1C,0x04
11.333949000000000,,0x80,0x00
11.336925600000001,,0xD5,0x96
11.372979000000001,,0xB0,0x0B
11.375619800000001,,0x00,0x01
11.378596000000000,,0x20,0x02
11.381572400000000,,0x8E,0x00
11.384548799999999,,0x00,0x0F
11.387525200000001,,0x0E,0x20
11.390501600000000,,0x1C,0x04
11.393478200000001,,0x80,0x00
11.396454800000001,,0x5D,0x96
11.432901400000000,,0xB0,0x0B
11.435148999999999,,0x00,0x01
11.438125599999999,,0x20,0x02
11.441102000000001,,0x06,0x00
11.444078400000000,,0x00,0x0F
11.447054800000000,,0x0E,0x20
11.450031200000000,,0x1C,0x04
11.453007800000000,,0x80,0x00
11.455984400000000,,0xD5,0x96
11.492257199999999,,0xB0,0x0B
11.494678600000000,,0x00,0x01
11.497655000000000,,0x20,0x02
11.500631400000000,,0x8E,0x00
11.503607799999999,,0x00,0x0F
11.506584399999999,,0x0E,0x20
11.509560799999999,,0x1C,0x04
11.512537200000001,,0x80,0x00
11.515513600000000,,0x5D,0x96
11.551628200000000,,0xB0,0x0B
11.554207600000000,,0x00,0x01
11.557183999999999,,0x20,0x02
11.560160200000000,,0x06,0x00
11.563136600000000,,0x00,0x0F
11.566112800000001,,0x0E,0x20
11.569089000000000,,0x1C,0x04
11.572065400000000,,0x80,0x00
11.575041600000000,,0xD5,0x96
11.611550400000000,,0xB0,0x0B
11.613734600000001,,0x00,0x01
11.616711000000000,,0x20,0x02
11.619687400000000,,0x8E,0x00
11.622663800000000,,0x00,0x0F
11.625640199999999,,0x0E,0x20
11.628616600000001,,0x1C,0x04
11.631593199999999,,0x80,0x00
11.634569600000001,,0x5D,0x96
11.670905800000000,,0xB0,0x0B
11.673262200000000,,0x00,0x01
11.676238800000000,,0x20,0x02
11.679215400000000,,0x06,0x00
11.682191800000000,,0x00,0x0F
11.685168400000000,,0x0E,0x20
11.688145000000000,,0x1C,0x04
11.691121400000000,,0x80,0x00
11.694097800000000,,0xD5,0x96
11.730149000000001,,0xB0,0x0B
11.732789600000000,,0x00,0x01
11.735765799999999,,0x20,0x02
11.738742200000001,,0x8E,0x00
11.741718400000000,,0x00,0x0F
11.744694800000000,,0x0E,0x20
11.747671199999999,,0x1D,0x04
11.750647400000000,,0x80,0x00
11.753623800000000,,0x5E,0x96
11.790055199999999,,0xB0,0x0B
11.792316800000000,,0x00,0x01
11.795293200000000,,0x20,0x02
11.798269800000000,,0x06,0x00
11.801246200000000,,0x00,0x0F
11.804222800000000,,0x0E,0x20
11.807199400000000,,0x1D,0x04
11.810175800000000,,0x80,0x00
11.813152400000000,,0xD6,0x96
11.849430000000000,,0xB0,0x0B
11.851848000000000,,0x00,0x01
11.854824600000001,,0x20,0x02
11.857801400000000,,0x8E,0x00
11.860778200000000,,0x00,0x0F
11.863754999999999,,0x0E,0x20
11.866731800000000,,0x1D,0x04
11.869708400000000,,0x80,0x00
11.872685199999999,,0x5E,0x96
11.908807800000000,,0xB0,0x0B
11.911380800000000,,0x00,0x01
11.914357400000000,,0x20,0x02
11.917334000000000,,0x06,0x00
11.920310400000000,,0x00,0x0F
11.923287000000000,,0x0E,0x20
11.926263400000000,,0x1D,0x04
11.929240000000000,,0x80,0x00
11.932216400000000,,0xD6,0x96
11.968717600000000,,0xB0,0x0B
11.970912000000000,,0x00,0x01
11.973888600000000,,0x20,0x02
11.976865399999999,,0x8E,0x00
11.979842000000000,,0x00,0x0F
11.982818399999999,,0x0E,0x20
11.985795000000000,,0x1D,0x04
11.988771600000000,,0x80,0x00
11.991747999999999,,0x5E,0x96
12.028099599999999,,0xB0,0x0B
12.030442000000001,,0x00,0x01
12.033418200000000,,0x20,0x02
12.036394800000000,,0x06,0x00
12.039371200000000,,0x00,0x0F
12.042347599999999,,0x0E,0x20
12.045324000000001,,0x1D,0x04
12.048300400000000,,0x80,0x00
12.051276800000000,,0xD6,0x96
12.087453999999999,,0xB0,0x0B
12.089971400000000,,0x00,0x01
12.092948000000000,,0x20,0x02
12.095924600000000,,0x8E,0x00
12.098901200000000,,0x00,0x0F
12.101877600000000,,0x0E,0x20
12.104854400000001,,0x1D,0x04
12.107830800000000,,0x80,0x00
12.110807400000001,,0x5E,0x96
12.147375800000001,,0xB0,0x0B
12.149502200000001,,0x00,0x01
12.152478600000000,,0x20,0x02
12.155455000000000,,0x06,0x00
12.158431400000000,,0x00,0x0F
12.161407799999999,,0x0E,0x20
12.164384200000001,,0x1D,0x04
12.167360600000000,,0x80,0x00
12.170337200000001,,0xD6,0x96
12.206747200000001,,0xB0,0x0B
12.209028999999999,,0x00,0x01
12.212005400000001,,0x20,0x02
12.214981800000000,,0x8E,0x00
12.217957999999999,,0x00,0x0F
12.220934400000001,,0x0E,0x20
12.223910999999999,,0x1D,0x04
12.226887200000000,,0x80,0x00
12.229863600000000,,0x5E,0x96
12.266104800000001,,0xB0,0x0B
12.268558000000001,,0x00,0x01
12.271534600000001,,0x20,0x02
12.274511199999999,,0x06,0x00
12.277487799999999,,0x00,0x0F
12.280464400000000,,0x0E,0x20
12.283440799999999,,0x1D,0x04
12.286417399999999,,0x80,0x00
12.289394000000000,,0xD6,0x96
12.325476999999999,,0xB0,0x0B
12.328090000000000,,0x00,0x01
12.331066399999999,,0x20,0x02
12.334043200000000,,0x8E,0x00
12.337019600000000,,0x00,0x0F
12.339996200000000,,0x0E,0x20
12.342972600000000,,0x1D,0x04
12.345949200000000,,0x80,0x00
12.348925599999999,,0x5E,0x96
12.385384200000001,,0xB0,0x0B
12.387620999999999,,0x00,0x01
12.390597600000000,,0x20,0x02
12.393574200000000,,0x06,0x00
12.396550599999999,,0x00,0x0F
12.399527200000000,,0x0E,0x20
12.402503800000000,,0x1D,0x04
12.405480400000000,,0x80,0x00
12.408457000000000,,0xD6,0x96
12.444763000000000,,0xB0,0x0B
12.447152400000000,,0x00,0x01
12.450129000000000,,0x20,0x02
12.453105799999999,,0x8E,0x00
12.456082400000000,,0x00,0x0F
12.459059000000000,,0x0E,0x20
12.462035400000000,,0x1D,0x04
12.465012000000000,,0x80,0x00
12.467988800000001,,0x5E,0x96
12.504180800000000,,0xB0,0x0B
12.506686000000000,,0x10,0x01
12.509662600000000,,0x20,0x02
12.512639399999999,,0x06,0x00
12.515616200000000,,0x00,0x0F
12.518592800000000,,0x0E,0x20
12.521569599999999,,0x1D,0x04
12.524546400000000,,0x81,0x00
12.527523000000000,,0xE7,0x96
12.563595200000000,,0xB0,0x0B
12.566219000000000,,0x10,0x01
12.569195799999999,,0x20,0x02
12.572172399999999,,0x8E,0x00
12.575149000000000,,0x00,0x0F
12.578125600000000,,0x0E,0x20
12.581102400000001,,0x1D,0x04
12.584078999999999,,0x81,0x00
12.587055599999999,,0x6F,0x96
12.623575400000000,,0xB0,0x0B
12.625753000000000,,0x10,0x01
12.628729600000000,,0x20,0x02
12.631706200000000,,0x06,0x00
12.634683000000001,,0x00,0x0F
12.637659800000000,,0x0E,0x20
12.640636199999999,,0x1D,0x04
12.643613000000000,,0x81,0x00
12.646589600000000,,0xE7,0x96
12.682987799999999,,0xB0,0x0B
12.685285400000000,,0x10,0x01
12.688262000000000,,0x20,0x02
12.691238600000000,,0x8E,0x00
12.694215000000000,,0x00,0x0F
12.697191600000000,,0x0E,0x20
12.700168200000000,,0x1D,0x04
12.703144600000000,,0x81,0x00
12.706121200000000,,0x6F,0x96
12.742275400000000,,0xB0,0x0B
12.744816999999999,,0x00,0x01
12.747793600000000,,0x20,0x02
12.750770200000000,,0x06,0x00
12.753746800000000,,0x00,0x0F
12.756723400000000,,0x0E,0x20
12.759699800000000,,0x1E,0x04
12.762676400000000,,0x80,0x00
12.765653000000000,,0xD7,0x96
12.802197400000001,,0xB0,0x0B
12.804347999999999,,0x00,0x01
12.807324599999999,,0x20,0x02
12.810301200000000,,0x8E,0x00
12.813277800000000,,0x00,0x0F
12.816254400000000,,0x0E,0x20
12.819230800000000,,0x1E,0x04
12.822207199999999,,0x80,0x00
12.825183800000000,,0x5F,0x96
12.861556600000000,,0xB0,0x0B
12.863879200000000,,0x00,0x01
12.866855599999999,,0x20,0x02
12.869832400000000,,0x06,0x00
12.872809000000000,,0x00,0x0F
12.875785600000000,,0x0E,0x20
12.878762200000001,,0x1E,0x04
12.881738800000001,,0x80,0x00
12.884715399999999,,0xD7,0x96
12.920933800000000,,0xB0,0x0B
12.923411600000000,,0x00,0x01
12.926388400000000,,0x20,0x02
12.929365000000001,,0x8E,0x00
12.932341400000000,,0x00,0x0F
12.935318199999999,,0x0E,0x20
12.938294800000000,,0x1E,0x04
12.941271600000000,,0x80,0x00
12.944248200000001,,0x5F,0x96
12.980843000000000,,0xB0,0x0B
12.982944000000000,,0x00,0x01
12.985920800000001,,0x20,0x02
12.988897400000001,,0x06,0x00
12.991873800000000,,0x00,0x0F
12.994850400000001,,0x0E,0x20
12.997826999999999,,0x1E,0x04
13.000803400000001,,0x80,0x00
13.003779800000000,,0xD7,0x96
13.040186000000000,,0xB0,0x0B
13.042473200000000,,0x00,0x01
13.045449800000000,,0x20,0x02
13.048426200000000,,0x8E,0x00
13.051402800000000,,0x00,0x0F
13.054379400000000,,0x0E,0x20
13.057355800000000,,0x1E,0x04
13.060332200000000,,0x80,0x00
13.063308599999999,,0x5F,0x96
13.099561200000000,,0xB0,0x0B
13.102003000000000,,0x00,0x01
13.104979600000000,,0x20,0x02
13.107956200000000,,0x06,0x00
13.110932600000000,,0x00,0x0F
13.113909200000000,,0x0E,0x20
13.116885800000000,,0x1E,0x04
13.119862400000001,,0x80,0x00
13.122838800000000,,0xD7,0x96
13.158919200000000,,0xB0,0x0B
13.161532599999999,,0x00,0x01
13.164509199999999,,0x20,0x02
13.167485800000000,,0x8E,0x00
13.170462199999999,,0x00,0x0F
13.173438800000000,,0x0E,0x20
13.176415400000000,,0x1E,0x04
13.179391799999999,,0x80,0x00
13.182368200000001,,0x5F,0x96
13.218842000000000,,0xB0,0x0B
13.221063200000000,,0x00,0x01
13.224039800000000,,0x20,0x02
13.227016400000000,,0x06,0x00
13.229993000000000,,0x00,0x0F
13.232969400000000,,0x0E,0x20
13.235946000000000,,0x1E,0x04
13.238922600000000,,0x80,0x00
13.241899000000000,,0xD7,0x96
13.278200600000000,,0xB0,0x0B
13.280594000000001,,0x00,0x01
13.283570599999999,,0x20,0x02
13.286547199999999,,0x8E,0x00
13.289523800000000,,0x00,0x0F
13.292500199999999,,0x0E,0x20
13.295476799999999,,0x1E,0x04
13.298453200000001,,0x80,0x00
13.301429799999999,,0x5F,0x96
13.337575800000000,,0xB0,0x0B
13.340125000000000,,0x00,0x01
13.343101400000000,,0x20,0x02
13.346078000000000,,0x06,0x00
13.349054799999999,,0x00,0x0F
13.352031200000001,,0x0E,0x20
13.355007799999999,,0x1E,0x04
13.357984399999999,,0x80,0x00
13.360960800000001,,0xD7,0x96
13.397503400000000,,0xB0,0x0B
13.399653799999999,,0x00,0x01
13.402630400000000,,0x20,0x02
13.405606799999999,,0x8E,0x00
13.408583399999999,,0x00,0x0F
13.411560000000000,,0x0E,0x20
13.414536600000000,,0x1E,0x04
13.417513200000000,,0x80,0x00
13.420489600000000,,0x5F,0x96
13.456893400000000,,0xB0,0x0B
13.459186200000000,,0x08,0x01
13.462162800000000,,0x20,0x02
13.465139600000001,,0x06,0x00
13.468116400000000,,0x00,0x0F
13.471093000000000,,0x0E,0x20
13.474069800000001,,0x1E,0x04
13.477046400000001,,0x81,0x00
13.480023200000000,,0xE0,0x96
13.516325000000000,,0xB0,0x0B
13.518721599999999,,0x08,0x01
13.521698400000000,,0x20,0x02
13.524675400000000,,0x8E,0x00
13.527652200000000,,0x00,0x0F
13.530628800000001,,0x0E,0x20
13.533605600000000,,0x1E,0x04
13.536582400000000,,0x81,0x00
13.539559199999999,,0x68,0x96
13.575739799999999,,0xB0,0x0B
13.578256000000000,,0x08,0x01
13.581232800000000,,0x20,0x02
13.584209400000001,,0x06,0x00
13.587186000000001,,0x00,0x0F
13.590162599999999,,0x0E,0x20
13.593139000000001,,0x1E,0x04
13.596115200000000,,0x81,0x00
13.599091600000000,,0xE0,0x96
13.635166800000000,,0xB0,0x0B
13.637786400000000,,0x08,0x01
13.640763000000000,,0x20,0x02
13.643739600000000,,0x8E,0x00
13.646716200000000,,0x00,0x0F
13.649692600000000,,0x0E,0x20
13.652668999999999,,0x1E,0x04
13.655645600000000,,0x81,0x00
13.658621999999999,,0x68,0x96
13.695161400000000,,0xB0,0x0B
13.697317200000001,,0x08,0x01
13.700293800000001,,0x20,0x02
13.703270399999999,,0x06,0x00
13.706246999999999,,0x00,0x0F
13.709223400000001,,0x0E,0x20
13.712199800000000,,0x1E,0x04
13.715176200000000,,0x81,0x00
13.718152800000000,,0xE0,0x96
13.754391800000001,,0xB0,0x0B
13.756846599999999,,0x00,0x01
13.759823400000000,,0x20,0x02
13.762800000000000,,0x8E,0x00
13.765776799999999,,0x00,0x0F
13.768753400000000,,0x0E,0x20
13.771729799999999,,0x1F,0x04
13.774706399999999,,0x80,0x00
13.777683000000000,,0x60,0x96
13.813765399999999,,0xB0,0x0B
13.816378400000000,,0x00,0x01
13.819355000000000,,0x20,0x02
13.822331600000000,,0x06,0x00
13.825308200000000,,0x00,0x0F
13.828284800000000,,0x0E,0x20
13.831261400000001,,0x1F,0x04
13.834237999999999,,0x80,0x00
13.837214800000000,,0xD8,0x96
13.873673000000000,,0xB0,0x0B
13.875908799999999,,0x00,0x01
13.878885400000000,,0x20,0x02
13.881862000000000,,0x8E,0x00
13.884838800000001,,0x00,0x0F
13.887815399999999,,0x0E,0x20
13.890791999999999,,0x1F,0x04
13.893768600000000,,0x80,0x00
13.896745400000000,,0x60,0x96
13.933051000000001,,0xB0,0x0B
13.935441400000000,,0x00,0x01
13.938417800000000,,0x20,0x02
13.941394200000000,,0x06,0x00
13.944370800000000,,0x00,0x0F
13.947347199999999,,0x0E,0x20
13.950323600000001,,0x1F,0x04
13.953300000000000,,0x80,0x00
13.956276400000000,,0xD8,0x96
13.992429800000000,,0xB0,0x0B
13.994970199999999,,0x00,0x01
13.997946799999999,,0x20,0x02
14.000923200000001,,0x8E,0x00
14.003899799999999,,0x00,0x0F
14.006876399999999,,0x0E,0x20
14.009853000000000,,0x1F,0x04
14.012829600000000,,0x80,0x00
14.015806200000000,,0x60,0x96
14.052337000000000,,0xB0,0x0B
14.054501399999999,,0x00,0x01
14.057478000000000,,0x20,0x02
14.060454399999999,,0x06,0x00
14.063431000000000,,0x00,0x0F
14.066407600000000,,0x0E,0x20
14.069384200000000,,0x1F,0x04
14.072360600000000,,0x80,0x00
14.075337200000000,,0xD8,0x96
14.111709599999999,,0xB0,0x0B
14.114032600000000,,0x00,0x01
14.117008999999999,,0x20,0x02
14.119985600000000,,0x8E,0x00
14.122962200000000,,0x00,0x0F
14.125938800000000,,0x0E,0x20
14.128915599999999,,0x1F,0x04
14.131892000000001,,0x80,0x00
14.134868600000001,,0x60,0x96
14.171067000000001,,0xB0,0x0B
14.173563000000000,,0x00,0x01
14.176539600000000,,0x20,0x02
14.179516200000000,,0x06,0x00
14.182492800000000,,0x00,0x0F
14.185469400000001,,0x0E,0x20
14.188446000000001,,0x1F,0x04
14.191422599999999,,0x80,0x00
14.194399400000000,,0xD8,0x96
14.230993800000000,,0xB0,0x0B
14.233094800000000,,0x00,0x01
14.236071400000000,,0x20,0x02
14.239048000000000,,0x8E,0x00
14.242024400000000,,0x00,0x0F
14.245001200000001,,0x0E,0x20
14.247977799999999,,0x1F,0x04
14.250954399999999,,0x80,0x00
14.253931000000000,,0x60,0x96
14.290335600000001,,0xB0,0x0B
14.292627800000000,,0x00,0x01
14.295604400000000,,0x20,0x02
14.298581199999999,,0x06,0x00
14.301557799999999,,0x00,0x0F
14.304534400000000,,0x0E,0x20
14.307511000000000,,0x1F,0x04
14.310487600000000,,0x80,0x00
14.313464200000000,,0xD8,0x96
14.349694400000001,,0xB0,0x0B
14.352159000000000,,0x00,0x01
14.355135799999999,,0x20,0x02
14.358112400000000,,0x8E,0x00
14.361089200000000,,0x00,0x0F
14.364065800000001,,0x0E,0x20
14.367042400000001,,0x1F,0x04
14.370019200000000,,0x80,0x00
14.372995800000000,,0x60,0x96
14.409088600000000,,0xB0,0x0B
14.411692400000000,,0x04,0x01
14.414669200000001,,0x20,0x02
14.417646200000000,,0x06,0x00
14.420622800000000,,0x00,0x0F
14.423599400000001,,0x0E,0x20
14.426576000000001,,0x1F,0x04
14.429552599999999,,0x81,0x00
14.432529199999999,,0xDD,0x96
14.469052800000000,,0xB0,0x0B
14.471227000000001,,0x04,0x01
14.474203599999999,,0x20,0x02
14.477180400000000,,0x8E,0x00
14.480157000000000,,0x00,0x0F
14.483133799999999,,0x0E,0x20
14.486110600000000,,0x1F,0x04
14.489087200000000,,0x81,0x00
14.492063800000000,,0x65,0x96
14.528484400000000,,0xB0,0x0B
14.530761000000000,,0x04,0x01
14.533737800000001,,0x20,0x02
14.536714399999999,,0x06,0x00
14.539691200000000,,0x00,0x0F
14.542667800000000,,0x0E,0x20
14.545644599999999,,0x1F,0x04
14.548621400000000,,0x81,0x00
14.551598000000000,,0xDD,0x96
14.587913600000000,,0xB0,0x0B
14.590294000000000,,0x04,0x01
14.593270400000000,,0x20,0x02
14.596247200000001,,0x8E,0x00
14.599223600000000,,0x00,0x0F
14.602200200000000,,0x0E,0x20
14.605176800000001,,0x1F,0x04
14.608153400000001,,0x81,0x00
14.611129800000001,,0x65,0x96
14.647330800000001,,0xB0,0x0B
14.649825200000000,,0x04,0x01
14.652801800000001,,0x20,0x02
14.655778400000001,,0x06,0x00
14.658754800000001,,0x00,0x0F
14.661731200000000,,0x0E,0x20
14.664707600000000,,0x1F,0x04
14.667684200000000,,0x81,0x00
14.670660800000000,,0xDD,0x96
14.707158600000000,,0xB0,0x0B
14.709357199999999,,0x00,0x01
14.712333800000000,,0x20,0x02
14.715310400000000,,0x8E,0x00
14.718287000000000,,0x00,0x0F
14.721263600000000,,0x0E,0x20
14.724240200000001,,0x20,0x04
14.727216800000001,,0x80,0x00
14.730193600000000,,0x61,0x96
14.766516599999999,,0xB0,0x0B
14.768889000000000,,0x00,0x01
14.771865399999999,,0x20,0x02
14.774842000000000,,0x06,0x00
14.777818600000000,,0x00,0x0F
14.780794999999999,,0x0E,0x20
14.783771399999999,,0x20,0x04
14.786747999999999,,0x80,0x00
14.789724600000000,,0xD9,0x96
14.825890599999999,,0xB0,0x0B
14.828420800000000,,0x00,0x01
14.831397200000000,,0x20,0x02
14.834374000000000,,0x8E,0x00
14.837350600000001,,0x00,0x0F
14.840327200000001,,0x0E,0x20
14.843303799999999,,0x20,0x04
14.846280399999999,,0x80,0x00
14.849257200000000,,0x61,0x96
14.885816200000001,,0xB0,0x0B
14.887953800000000,,0x00,0x01
14.890930200000000,,0x20,0x02
14.893906800000000,,0x06,0x00
14.896883400000000,,0x00,0x0F
14.899860200000001,,0x0E,0x20
14.902836600000001,,0x20,0x04
14.905813200000001,,0x80,0x00
14.908789799999999,,0xD9,0x96
14.945176800000000,,0xB0,0x0B
14.947485000000000,,0x00,0x01
14.950461400000000,,0x20,0x02
14.953438000000000,,0x8E,0x00
14.956414400000000,,0x00,0x0F
14.959391000000000,,0x0E,0x20
14.962367400000000,,0x20,0x04
14.965344200000001,,0x80,0x00
14.968320800000001,,0x61,0x96
15.004560200000000,,0xB0,0x0B
15.007016000000000,,0x00,0x01
15.009992600000000,,0x20,0x02
15.012969200000001,,0x06,0x00
15.015945800000001,,0x00,0x0F
15.018922600000000,,0x0E,0x20
15.021899200000000,,0x20,0x04
15.024876000000001,,0x80,0x00
15.027852800000000,,0xD9,0x96
15.063934400000001,,0xB0,0x0B
15.066548400000000,,0x00,0x01
15.069525000000001,,0x20,0x02
15.072501600000001,,0x8E,0x00
15.075478400000000,,0x00,0x0F
15.078455000000000,,0x0E,0x20
15.081431600000000,,0x20,0x04
15.084408399999999,,0x80,0x00
15.087384999999999,,0x61,0x96
15.123908000000000,,0xB0,0x0B
15.126081400000000,,0x00,0x01
15.129058199999999,,0x22,0x02
15.132034800000000,,0x06,0x00
15.135011600000000,,0x00,0x0F
15.137988399999999,,0x0E,0x20
15.140965000000000,,0x20,0x04
15.143941800000000,,0x81,0x00
15.146918400000001,,0xDC,0x96
15.183336199999999,,0xB0,0x0B
15.185615200000001,,0x00,0x01
15.188591799999999,,0x22,0x02
15.191568600000000,,0x8E,0x00
15.194545400000001,,0x00,0x0F
15.197522200000000,,0x0E,0x20
15.200498800000000,,0x20,0x04
15.203475600000001,,0x81,0x00
15.206452199999999,,0x64,0x96
15.242749200000000,,0xB0,0x0B
15.245148800000001,,0x00,0x01
15.248125600000000,,0x22,0x02
15.251102200000000,,0x06,0x00
15.254078800000000,,0x00,0x0F
15.257055599999999,,0x0E,0x20
15.260032199999999,,0x20,0x04
15.263008800000000,,0x81,0x00
15.265985600000000,,0xDC,0x96
15.302182999999999,,0xB0,0x0B
15.304681600000000,,0x00,0x01
15.307658200000001,,0x22,0x02
15.310634600000000,,0x8E,0x00
15.313611000000000,,0x00,0x0F
15.316587800000001,,0x0E,0x20
15.319564400000001,,0x20,0x04
15.322540800000001,,0x81,0x00
15.325517200000000,,0x64,0x96
15.361604399999999,,0xB0,0x0B
15.364210200000000,,0x00,0x01
15.367186800000001,,0x20,0x02
15.370163399999999,,0x06,0x00
15.373139800000001,,0x00,0x0F
15.376116400000001,,0x0E,0x20
15.379092999999999,,0x20,0x04
15.382069599999999,,0x80,0x00
15.385046400000000,,0xD9,0x96
15.421529800000000,,0xB0,0x0B
15.423742200000000,,0x00,0x01
15.426719000000000,,0x20,0x02
15.429695799999999,,0x8E,0x00
15.432672400000000,,0x00,0x0F
15.435649000000000,,0x0E,0x20
15.438625600000000,,0x20,0x04
15.441602200000000,,0x80,0x00
15.444578800000000,,0x61,0x96
15.480906200000000,,0xB0,0x0B
15.483274600000000,,0x00,0x01
15.486251200000000,,0x20,0x02
15.489227800000000,,0x06,0x00
15.492204400000000,,0x00,0x0F
15.495180800000000,,0x0E,0x20
15.498157400000000,,0x20,0x04
15.501133800000000,,0x80,0x00
15.504110400000000,,0xD9,0x96
15.540266200000000,,0xB0,0x0B
15.542805800000000,,0x00,0x01
15.545782400000000,,0x20,0x02
15.548759000000000,,0x8E,0x00
15.551735600000001,,0x00,0x0F
15.554712200000001,,0x0E,0x20
15.557688600000001,,0x20,0x04
15.560665200000001,,0x80,0x00
15.563641799999999,,0x61,0x96
15.600189600000000,,0xB0,0x0B
15.602337199999999,,0x00,0x01
15.605313799999999,,0x20,0x02
15.608290600000000,,0x06,0x00
15.611267399999999,,0x00,0x0F
15.614243999999999,,0x0E,0x20
15.617220600000000,,0x20,0x04
15.620197200000000,,0x80,0x00
15.623173599999999,,0xD9,0x96
15.659548800000000,,0xB0,0x0B
15.661869400000000,,0x00,0x01
15.664846199999999,,0x20,0x02
15.667823000000000,,0x8E,0x00
15.670799600000000,,0x00,0x0F
15.673776399999999,,0x0E,0x20
15.676753200000000,,0x20,0x04
15.679729999999999,,0x80,0x00
15.682706599999999,,0x61,0x96
15.718801600000001,,0xB0,0x0B
15.721403000000000,,0x00,0x01
15.724379600000001,,0x20,0x02
15.727356199999999,,0x06,0x00
15.730332799999999,,0x00,0x0F
15.733309400000000,,0x0E,0x20
15.736286000000000,,0x21,0x04
15.739262600000000,,0x80,0x00
15.742239200000000,,0xDA,0x96
15.778725400000001,,0xB0,0x0B
15.780934600000000,,0x00,0x01
15.783911000000000,,0x20,0x02
15.786887600000000,,0x8E,0x00
15.789864000000000,,0x00,0x0F
15.792840200000001,,0x0E,0x20
15.795816800000001,,0x21,0x04
15.798793399999999,,0x80,0x00
15.801769800000001,,0x62,0x96
15.838084600000000,,0xB0,0x0B
15.840464600000001,,0x00,0x01
15.843441000000000,,0x20,0x02
15.846417600000001,,0x06,0x00
15.849394000000000,,0x00,0x0F
15.852370600000000,,0x0E,0x20
15.855347200000001,,0x21,0x04
15.858323800000001,,0x80,0x00
15.861300600000000,,0xDA,0x96
15.897477200000001,,0xB0,0x0B
15.899997000000001,,0x00,0x01
15.902973800000000,,0x20,0x02
15.905950600000001,,0x8E,0x00
15.908927200000001,,0x00,0x0F
15.911904000000000,,0x0E,0x20
15.914880800000001,,0x21,0x04
15.917857400000001,,0x80,0x00
15.920834200000000,,0x62,0x96
15.956895800000000,,0xB0,0x0B
15.959532200000000,,0x00,0x01
15.962509000000001,,0x24,0x02
15.965485800000000,,0x06,0x00
15.968462400000000,,0x00,0x0F
15.971439200000001,,0x0E,0x20
15.974416200000000,,0x21,0x04
15.977392999999999,,0x81,0x00
15.980369800000000,,0xDF,0x96
16.016886000000000,,0xB0,0x0B
16.019068000000001,,0x00,0x01
16.022044600000001,,0x24,0x02
16.025021200000001,,0x8E,0x00
16.027997800000001,,0x00,0x0F
16.030974400000002,,0x0E,0x20
16.033950800000000,,0x21,0x04
16.036927400000000,,0x81,0x00
16.039904000000000,,0x67,0x96
16.076315600000001,,0xB0,0x0B
16.078599799999999,,0x00,0x01
16.081576200000001,,0x24,0x02
16.084552800000001,,0x06,0x00
16.087529199999999,,0x00,0x0F
16.090505799999999,,0x0E,0x20
16.093482200000000,,0x21,0x04
16.096458999999999,,0x81,0x00
16.099435600000000,,0xDF,0x96
16.135742799999999,,0xB0,0x0B
16.138128999999999,,0x00,0x01
16.141105400000001,,0x24,0x02
16.144082000000001,,0x8E,0x00
16.147058600000001,,0x00,0x0F
16.150035200000001,,0x0E,0x20
16.153011800000002,,0x21,0x04
16.155988600000001,,0x81,0x00
16.158965200000001,,0x67,0x96
16.195131600000000,,0xB0,0x0B
16.197660200000001,,0x00,0x01
16.200636800000002,,0x20,0x02
16.203613399999998,,0x06,0x00
16.206589999999998,,0x00,0x0F
16.209566800000001,,0x0E,0x20
16.212543199999999,,0x21,0x04
16.215519799999999,,0x80,0x00
16.218496399999999,,0xDA,0x96
16.255039000000000,,0xB0,0x0B
16.257191400000000,,0x00,0x01
16.260168000000000,,0x20,0x02
16.263144199999999,,0x8E,0x00
16.266120600000001,,0x00,0x0F
16.269096999999999,,0x0E,0x20
16.272073400000000,,0x21,0x04
16.275049800000001,,0x80,0x00
16.278026400000002,,0x62,0x96
16.314408600000000,,0xB0,0x0B
16.316720199999999,,0x00,0x01
16.319696600000000,,0x20,0x02
16.322673000000002,,0x06,0x00
16.325649400000000,,0x00,0x0F
16.328626000000000,,0x0E,0x20
16.331602600000000,,0x21,0x04
16.334579000000002,,0x80,0x00
16.337555399999999,,0xDA,0x96
16.373779800000001,,0xB0,0x0B
16.376249800000000,,0x00,0x01
16.379226400000000,,0x20,0x02
16.382203000000001,,0x8E,0x00
16.385179399999998,,0x00,0x0F
16.388155800000000,,0x0E,0x20
16.391132400000000,,0x21,0x04
16.394108800000001,,0x80,0x00
16.397085600000000,,0x62,0x96
16.433137400000000,,0xB0,0x0B
16.435780800000000,,0x00,0x01
16.438757400000000,,0x20,0x02
16.441734000000000,,0x06,0x00
16.444710600000001,,0x00,0x0F
16.447687200000001,,0x0E,0x20
16.450663800000001,,0x21,0x04
16.453640199999999,,0x80,0x00
16.456616799999999,,0xDA,0x96
16.493064400000002,,0xB0,0x0B
16.495312599999998,,0x00,0x01
16.498289199999999,,0x20,0x02
16.501265799999999,,0x8E,0x00
16.504242200000000,,0x00,0x0F
16.507218600000002,,0x0E,0x20
16.510195199999998,,0x21,0x04
16.513171400000001,,0x80,0x00
16.516147799999999,,0x62,0x96
16.552435200000001,,0xB0,0x0B
16.554841799999998,,0x00,0x01
16.557818399999999,,0x20,0x02
16.560794999999999,,0x06,0x00
16.563771599999999,,0x00,0x0F
16.566748199999999,,0x0E,0x20
16.569724799999999,,0x21,0x04
16.572701400000000,,0x80,0x00
16.575678000000000,,0xDA,0x96
16.611858000000002,,0xB0,0x0B
16.614373199999999,,0x00,0x01
16.617349800000000,,0x28,0x02
16.620326400000000,,0x8E,0x00
16.623303000000000,,0x00,0x0F
16.626279600000000,,0x0E,0x20
16.629256200000000,,0x21,0x04
16.632232800000001,,0x81,0x00
16.635209400000001,,0x6B,0x96
16.671299200000000,,0xB0,0x0B
16.673906200000001,,0x00,0x01
16.676883400000001,,0x28,0x02
16.679860000000001,,0x06,0x00
16.682836600000002,,0x00,0x0F
16.685813000000000,,0x0E,0x20
16.688789600000000,,0x21,0x04
16.691766000000001,,0x81,0x00
16.694742600000001,,0xE3,0x96
16.731117800000000,,0xB0,0x0B
16.733438599999999,,0x00,0x01
16.736415200000000,,0x28,0x02
16.739391800000000,,0x8E,0x00
16.742368400000000,,0x00,0x0F
16.745344800000002,,0x0E,0x20
16.748321399999998,,0x22,0x04
16.751297999999998,,0x81,0x00
16.754274200000001,,0x6C,0x96
16.790554400000001,,0xB0,0x0B
16.792969800000002,,0x00,0x01
16.795946199999999,,0x28,0x02
16.798922600000001,,0x06,0x00
16.801899200000001,,0x00,0x0F
16.804875599999999,,0x0E,0x20
16.807852199999999,,0x22,0x04
16.810828799999999,,0x81,0x00
16.813805200000001,,0xE4,0x96
16.849950400000001,,0xB0,0x0B
16.852498799999999,,0x00,0x01
