Time [s],Packet ID,MOSI,MISO
0.049877200000000,0,0xB0,0x0B
0.052411200000000,,0x00,0x20
0.055384400000000,,0x20,0x00
0.058357400000000,,0x06,0x00
0.061330600000000,,0x00,0x07
0.064303800000000,,0x31,0x20
0.067276800000000,,0x26,0x04
0.070250000000000,,0x80,0x00
0.073223000000000,,0x02,0xAB
0.109470800000000,,0xB0,0x0B
0.111872400000000,,0x00,0x20
0.114845400000000,,0x20,0x00
0.117818600000000,,0x8E,0x00
0.120791600000000,,0x00,0x07
0.123764600000000,,0x31,0x20
0.126737600000000,,0x26,0x04
0.129710800000000,,0x80,0x00
0.132683800000000,,0x8A,0xAB
0.168727400000000,,0xB0,0x0B
0.171333200000000,,0x00,0x20
0.174306200000000,,0x20,0x00
0.177279200000000,,0x06,0x00
0.180252400000000,,0x00,0x07
0.183225400000000,,0x31,0x20
0.186198400000000,,0x26,0x04
0.189171600000000,,0x80,0x00
0.192144800000000,,0x02,0xAB
0.228327200000000,,0xB0,0x0B
0.230795200000000,,0x00,0x20
0.233768400000000,,0x20,0x00
0.236741400000000,,0x8E,0x00
0.239714600000000,,0x00,0x07
0.242687600000000,,0x31,0x20
0.245660600000000,,0x26,0x04
0.248633600000000,,0x80,0x00
0.251606800000000,,0x8A,0xAB
0.287922800000000,,0xB0,0x0B
0.290257000000000,,0x00,0x20
0.293230200000000,,0x20,0x00
0.296203200000000,,0x06,0x00
0.299176200000000,,0x00,0x07
0.302149400000000,,0x31,0x20
0.305122400000000,,0x26,0x04
0.308095400000000,,0x80,0x00
0.311068400000000,,0x02,0xAB
0.347174800000000,,0xB0,0x0B
0.349717400000000,,0x00,0x20
0.352690200000000,,0x20,0x00
0.355663200000000,,0x8E,0x00
0.358636200000000,,0x00,0x07
0.361609200000000,,0x31,0x20
0.364582400000000,,0x26,0x04
0.367555600000000,,0x80,0x00
0.370528600000000,,0x8A,0xAB
0.406767800000000,,0xB0,0x0B
0.409178800000000,,0x00,0x20
0.412151800000000,,0x20,0x00
0.415125000000000,,0x06,0x00
0.418098000000000,,0x00,0x07
0.421071200000000,,0x31,0x20
0.424044400000000,,0x26,0x04
0.427017400000000,,0x80,0x00
0.429990400000000,,0x02,0xAB
0.466022200000000,,0xB0,0x0B
0.468640000000000,,0x00,0x20
0.471613200000000,,0x20,0x00
0.474586200000000,,0x8E,0x00
0.477559200000000,,0x00,0x07
0.480532400000000,,0x31,0x20
0.483505400000000,,0x26,0x04
0.486478600000000,,0x80,0x00
0.489451600000000,,0x8A,0xAB
0.525616000000000,,0xB0,0x0B
0.528101600000000,,0x00,0x20
0.531074600000000,,0x20,0x00
0.534047800000000,,0x06,0x00
0.537020800000000,,0x00,0x07
0.539993800000000,,0x31,0x20
0.542966800000000,,0x26,0x04
0.545940000000000,,0x80,0x00
0.548913000000000,,0x02,0xAB
0.585211600000000,,0xB0,0x0B
0.587563400000000,,0x00,0x20
0.590536600000000,,0x20,0x00
0.593509800000000,,0x8E,0x00
0.596483000000000,,0x00,0x07
0.599456200000000,,0x31,0x20
0.602429400000000,,0x26,0x04
0.605402600000000,,0x80,0x00
0.608375600000000,,0x8A,0xAB
0.644467600000000,,0xB0,0x0B
0.647026200000000,,0x00,0x20
0.649999400000000,,0x20,0x00
0.652972600000000,,0x06,0x00
0.655945800000000,,0x00,0x07
0.658919000000000,,0x31,0x20
0.661892400000000,,0x26,0x04
0.664865600000000,,0x80,0x00
0.667838600000000,,0x02,0xAB
0.704065000000000,,0xB0,0x0B
0.706488800000000,,0x00,0x20
0.709462000000000,,0x20,0x00
0.712435000000000,,0x8E,0x00
0.715408000000000,,0x00,0x07
0.718381000000000,,0x31,0x20
0.721354200000000,,0x26,0x04
0.724327400000000,,0x80,0x00
0.727300400000000,,0x8A,0xAB
0.763320800000000,,0xB0,0x0B
0.765950000000000,,0x00,0x20
0.768923000000000,,0x20,0x00
0.771896000000000,,0x06,0x00
0.774869200000000,,0x00,0x07
0.777842200000000,,0x31,0x20
0.780815000000000,,0x26,0x04
0.783788200000000,,0x80,0x00
0.786761200000000,,0x02,0xAB
0.822918200000000,,0xB0,0x0B
0.825411400000000,,0x00,0x20
0.828384400000000,,0x20,0x00
0.831357600000000,,0x8E,0x00
0.834330600000000,,0x00,0x07
0.837303600000000,,0x31,0x20
0.840276800000000,,0x26,0x04
0.843249800000000,,0x80,0x00
0.846223000000000,,0x8A,0xAB
0.882528200000000,,0xB0,0x0B
0.884872400000000,,0x00,0x20
0.887845400000000,,0x20,0x00
0.890818400000000,,0x06,0x00
0.893791400000000,,0x00,0x07
0.896764200000000,,0x31,0x20
0.899737000000000,,0x26,0x04
0.902710000000000,,0x80,0x00
0.905683000000000,,0x02,0xAB
0.941756600000000,,0xB0,0x0B
0.944332400000000,,0x00,0x20
0.947305400000000,,0x20,0x00
0.950278400000000,,0x8E,0x00
0.953251400000000,,0x00,0x07
0.956224400000000,,0x31,0x20
0.959197400000000,,0x27,0x04
0.962170400000000,,0x80,0x00
0.965143600000000,,0x8B,0xAB
1.001350000000000,,0xB0,0x0B
1.003791400000000,,0x00,0x20
1.006764400000000,,0x20,0x00
1.009737600000000,,0x06,0x00
1.012710600000000,,0x00,0x07
1.015683600000000,,0x31,0x20
1.018656600000000,,0x27,0x04
1.021630000000000,,0x80,0x00
1.024603000000000,,0x03,0xAB
1.060927800000000,,0xB0,0x0B
1.063252800000000,,0x00,0x20
1.066225800000000,,0x20,0x00
1.069199000000000,,0x8E,0x00
1.072172200000000,,0x00,0x07
1.075145200000000,,0x31,0x20
1.078118200000000,,0x27,0x04
1.081091200000000,,0x80,0x00
1.084064200000000,,0x8B,0xAB
1.120196000000000,,0xB0,0x0B
1.122713600000000,,0x00,0x20
1.125686600000000,,0x20,0x00
1.128659600000000,,0x06,0x00
1.131632600000000,,0x00,0x07
1.134605600000000,,0x31,0x20
1.137578600000000,,0x27,0x04
1.140551800000000,,0x80,0x00
1.143524800000000,,0x03,0xAB
1.179796200000000,,0xB0,0x0B
1.182175400000000,,0x00,0x20
1.185148400000000,,0x20,0x00
1.188121600000000,,0x8E,0x00
1.191094600000000,,0x00,0x07
1.194067800000000,,0x31,0x20
1.197040800000000,,0x27,0x04
1.200013600000000,,0x80,0x00
1.202986600000000,,0x8B,0xAB
1.239049000000000,,0xB0,0x0B
1.241634800000000,,0x00,0x20
1.244607800000000,,0x20,0x00
1.247580800000000,,0x06,0x00
1.250554000000000,,0x00,0x07
1.253527200000000,,0x31,0x20
1.256500400000000,,0x27,0x04
1.259473600000000,,0x80,0x00
1.262446600000000,,0x03,0xAB
1.298647000000000,,0xB0,0x0B
1.301096800000000,,0x00,0x20
1.304069800000000,,0x20,0x00
1.307042800000000,,0x8E,0x00
1.310016000000000,,0x00,0x07
1.312989000000000,,0x31,0x20
1.315962000000000,,0x27,0x04
1.318935200000000,,0x80,0x00
1.321908200000000,,0x8B,0xAB
1.358227600000000,,0xB0,0x0B
1.360558400000000,,0x00,0x20
1.363531400000000,,0x20,0x00
1.366504600000000,,0x06,0x00
1.369477600000000,,0x00,0x07
1.372450800000000,,0x31,0x20
1.375423800000000,,0x27,0x04
1.378397000000000,,0x80,0x00
1.381370200000000,,0x03,0xAB
1.417500000000000,,0xB0,0x0B
1.420021200000000,,0x00,0x20
1.422994400000000,,0x20,0x00
1.425967600000000,,0x8E,0x00
1.428940800000000,,0x00,0x07
1.431913800000000,,0x31,0x20
1.434886800000000,,0x27,0x04
1.437860000000000,,0x80,0x00
1.440833000000000,,0x8B,0xAB
1.477095200000000,,0xB0,0x0B
1.479483800000000,,0x00,0x20
1.482456800000000,,0x20,0x00
1.485430000000000,,0x06,0x00
1.488403000000000,,0x00,0x07
1.491376000000000,,0x31,0x20
1.494349000000000,,0x27,0x04
1.497322000000000,,0x80,0x00
1.500295000000000,,0x03,0xAB
1.536351400000000,,0xB0,0x0B
1.538944400000000,,0x00,0x20
1.541917400000000,,0x20,0x00
1.544890600000000,,0x8E,0x00
1.547863800000000,,0x00,0x07
1.550836800000000,,0x31,0x20
1.553809800000000,,0x27,0x04
1.556783000000000,,0x80,0x00
1.559756000000000,,0x8B,0xAB
1.595944800000000,,0xB0,0x0B
1.598404000000000,,0x00,0x20
1.601377000000000,,0x20,0x00
1.604349800000000,,0x06,0x00
1.607322600000000,,0x00,0x07
1.610295400000000,,0x31,0x20
1.613268200000000,,0x27,0x04
1.616241200000000,,0x80,0x00
1.619214000000000,,0x03,0xAB
1.655519600000000,,0xB0,0x0B
1.657861800000000,,0x00,0x20
1.660834800000000,,0x20,0x00
1.663807800000000,,0x8E,0x00
1.666780800000000,,0x00,0x07
1.669753800000000,,0x31,0x20
1.672726600000000,,0x27,0x04
1.675699600000000,,0x80,0x00
1.678672600000000,,0x8B,0xAB
1.714785800000000,,0xB0,0x0B
1.717320200000000,,0x00,0x20
1.720293200000000,,0x20,0x00
1.723266200000000,,0x06,0x00
1.726239000000000,,0x00,0x07
1.729212000000000,,0x31,0x20
1.732185000000000,,0x27,0x04
1.735157800000000,,0x80,0x00
1.738130600000000,,0x03,0xAB
1.774379800000000,,0xB0,0x0B
1.776779400000000,,0x00,0x20
1.779752600000000,,0x20,0x00
1.782725600000000,,0x8E,0x00
1.785698800000000,,0x00,0x07
1.788672000000000,,0x31,0x20
1.791645000000000,,0x27,0x04
1.794618000000000,,0x80,0x00
1.797591200000000,,0x8B,0xAB
1.833636200000000,,0xB0,0x0B
1.836241200000000,,0x00,0x20
1.839214200000000,,0x20,0x00
1.842187400000000,,0x06,0x00
1.845160400000000,,0x00,0x07
1.848133400000000,,0x31,0x20
1.851106400000000,,0x27,0x04
1.854079400000000,,0x80,0x00
1.857052400000000,,0x03,0xAB
1.893093800000000,,0xB0,0x0B
1.895702200000000,,0x00,0x20
1.898675400000000,,0x20,0x00
1.901648600000000,,0x8E,0x00
1.904621800000000,,0x00,0x07
1.907595000000000,,0x31,0x20
1.910568000000000,,0x28,0x04
1.913541200000000,,0x80,0x00
1.916514200000000,,0x8C,0xAB
1.952678600000000,,0xB0,0x0B
1.955163800000000,,0x00,0x20
1.958136600000000,,0x20,0x00
1.961109800000000,,0x06,0x00
1.964082600000000,,0x00,0x07
1.967055600000000,,0x31,0x20
1.970028600000000,,0x28,0x04
1.973001800000000,,0x80,0x00
1.975974600000000,,0x04,0xAB
2.012251800000000,,0xB0,0x0B
2.014622800000000,,0x01,0x20
2.017595600000000,,0x20,0x00
2.020568600000000,,0x8E,0x00
2.023541400000000,,0x00,0x07
2.026514400000000,,0x31,0x20
2.029487400000000,,0x28,0x04
2.032460400000000,,0x81,0x00
2.035433400000000,,0x8E,0xAB
2.071820800000000,,0xB0,0x0B
2.074082200000000,,0x01,0x20
2.077055200000000,,0x20,0x00
2.080028200000000,,0x06,0x00
2.083001000000000,,0x00,0x07
2.085974000000000,,0x31,0x20
2.088947000000000,,0x28,0x04
2.091920000000000,,0x81,0x00
2.094892800000000,,0x06,0xAB
2.130898600000000,,0xB0,0x0B
2.133539600000000,,0x01,0x20
2.136512400000000,,0x20,0x00
2.139485200000000,,0x8E,0x00
2.142458200000000,,0x00,0x07
2.145431200000000,,0x31,0x20
2.148404200000000,,0x28,0x04
2.151377200000000,,0x81,0x00
2.154350000000000,,0x8E,0xAB
2.190470200000000,,0xB0,0x0B
2.192997000000000,,0x01,0x20
2.195969800000000,,0x20,0x00
2.198942600000000,,0x06,0x00
2.201915400000000,,0x00,0x07
2.204888000000000,,0x31,0x20
2.207860800000000,,0x28,0x04
2.210833600000000,,0x81,0x00
2.213806200000000,,0x06,0xAB
2.250017800000000,,0xB0,0x0B
2.252452000000000,,0x01,0x20
2.255424600000000,,0x20,0x00
2.258397600000000,,0x8E,0x00
2.261370400000000,,0x00,0x07
2.264343200000000,,0x31,0x20
2.267316000000000,,0x28,0x04
2.270288800000000,,0x81,0x00
2.273261800000000,,0x8E,0xAB
2.309582400000000,,0xB0,0x0B
2.311909200000000,,0x01,0x20
2.314882200000000,,0x20,0x00
2.317855000000000,,0x06,0x00
2.320828000000000,,0x00,0x07
2.323801000000000,,0x31,0x20
2.326773800000000,,0x28,0x04
2.329746800000000,,0x81,0x00
2.332719800000000,,0x06,0xAB
2.369147000000000,,0xB0,0x0B
2.371367600000000,,0x01,0x20
2.374340400000000,,0x20,0x00
2.377313200000000,,0x8E,0x00
2.380286000000000,,0x00,0x07
2.383258800000000,,0x31,0x20
2.386231600000000,,0x28,0x04
2.389204400000000,,0x81,0x00
2.392177200000000,,0x8E,0xAB
2.428222800000000,,0xB0,0x0B
2.430824000000000,,0x01,0x20
2.433797000000000,,0x20,0x00
2.436769800000000,,0x06,0x00
2.439742800000000,,0x00,0x07
2.442715600000000,,0x31,0x20
2.445688400000000,,0x28,0x04
2.448661400000000,,0x81,0x00
2.451634200000000,,0x06,0xAB
2.487789400000000,,0xB0,0x0B
2.490283600000000,,0x01,0x20
2.493256800000000,,0x20,0x00
2.496229800000000,,0x8E,0x00
2.499202600000000,,0x00,0x07
2.502175600000000,,0x31,0x20
2.505148400000000,,0x28,0x04
2.508121400000000,,0x81,0x00
2.511094200000000,,0x8E,0xAB
2.547277600000000,,0xB0,0x0B
2.549742200000000,,0x00,0x20
2.552715400000000,,0x20,0x00
2.555688400000000,,0x06,0x00
2.558661200000000,,0x00,0x07
2.561634200000000,,0x31,0x20
2.564607200000000,,0x28,0x04
2.567580200000000,,0x80,0x00
2.570553000000000,,0x04,0xAB
2.606871800000000,,0xB0,0x0B
2.609202000000000,,0x00,0x20
2.612175000000000,,0x20,0x00
2.615147800000000,,0x8E,0x00
2.618120800000000,,0x00,0x07
2.621094000000000,,0x31,0x20
2.624066800000000,,0x28,0x04
2.627040000000000,,0x80,0x00
2.630013000000000,,0x8C,0xAB
2.666140200000000,,0xB0,0x0B
2.668663400000000,,0x00,0x20
2.671636400000000,,0x20,0x00
2.674609600000000,,0x06,0x00
2.677582600000000,,0x00,0x07
2.680555800000000,,0x31,0x20
2.683528600000000,,0x28,0x04
2.686501600000000,,0x80,0x00
2.689474600000000,,0x04,0xAB
2.725718200000000,,0xB0,0x0B
2.728123200000000,,0x00,0x20
2.731096200000000,,0x20,0x00
2.734069000000000,,0x8E,0x00
2.737041800000000,,0x00,0x07
2.740014800000000,,0x31,0x20
2.742987600000000,,0x28,0x04
2.745960600000000,,0x80,0x00
2.748933400000000,,0x8C,0xAB
2.784985200000000,,0xB0,0x0B
2.787581600000000,,0x00,0x20
2.790554400000000,,0x20,0x00
2.793527400000000,,0x06,0x00
2.796500400000000,,0x00,0x07
2.799473400000000,,0x31,0x20
2.802446400000000,,0x28,0x04
2.805419400000000,,0x80,0x00
2.808392400000000,,0x04,0xAB
2.844561200000000,,0xB0,0x0B
2.847040800000000,,0x00,0x20
2.850013800000000,,0x20,0x00
2.852986600000000,,0x8E,0x00
2.855959600000000,,0x00,0x07
2.858932600000000,,0x31,0x20
2.861905400000000,,0x28,0x04
2.864878200000000,,0x80,0x00
2.867851000000000,,0x8C,0xAB
2.904010600000000,,0xB0,0x0B
2.906497400000000,,0x00,0x20
2.909470400000000,,0x20,0x00
2.912443400000000,,0x06,0x00
2.915416400000000,,0x00,0x07
2.918389200000000,,0x31,0x20
2.921362200000000,,0x29,0x04
2.924335200000000,,0x80,0x00
2.927308000000000,,0x05,0xAB
2.963601800000000,,0xB0,0x0B
2.965956000000000,,0x00,0x20
2.968928800000000,,0x20,0x00
2.971901800000000,,0x8E,0x00
2.974874600000000,,0x00,0x07
2.977847400000000,,0x31,0x20
2.980820200000000,,0x29,0x04
2.983793200000000,,0x80,0x00
2.986766000000000,,0x8D,0xAB
3.022854800000000,,0xB0,0x0B
3.025413600000000,,0x00,0x20
3.028386600000000,,0x20,0x00
3.031359400000000,,0x06,0x00
3.034332400000000,,0x00,0x07
3.037305200000000,,0x31,0x20
3.040278000000000,,0x29,0x04
3.043251000000000,,0x80,0x00
3.046224000000000,,0x05,0xAB
3.082444000000000,,0xB0,0x0B
3.084871200000000,,0x00,0x20
3.087844000000000,,0x20,0x00
3.090817000000000,,0x8E,0x00
3.093790000000000,,0x00,0x07
3.096762800000000,,0x31,0x20
3.099735800000000,,0x29,0x04
3.102708800000000,,0x80,0x00
3.105681800000000,,0x8D,0xAB
3.141694400000000,,0xB0,0x0B
3.144329600000000,,0x00,0x20
3.147302400000000,,0x20,0x00
3.150275200000000,,0x06,0x00
3.153248200000000,,0x00,0x07
3.156221200000000,,0x31,0x20
3.159194200000000,,0x29,0x04
3.162167000000000,,0x80,0x00
3.165140000000000,,0x05,0xAB
3.201291200000000,,0xB0,0x0B
3.203788800000000,,0x00,0x20
3.206761800000000,,0x20,0x00
3.209734800000000,,0x8E,0x00
3.212707800000000,,0x00,0x07
3.215680600000000,,0x31,0x20
3.218653400000000,,0x29,0x04
3.221626400000000,,0x80,0x00
3.224599400000000,,0x8D,0xAB
3.260884800000000,,0xB0,0x0B
3.263248400000000,,0x00,0x20
3.266221400000000,,0x20,0x00
3.269194400000000,,0x06,0x00
3.272167400000000,,0x00,0x07
3.275140600000000,,0x31,0x20
3.278113400000000,,0x29,0x04
3.281086600000000,,0x80,0x00
3.284059400000000,,0x05,0xAB
3.320139800000000,,0xB0,0x0B
3.322708000000000,,0x00,0x20
3.325681000000000,,0x20,0x00
3.328654000000000,,0x8E,0x00
3.331626800000000,,0x00,0x07
3.334599800000000,,0x31,0x20
3.337572800000000,,0x29,0x04
3.340545800000000,,0x80,0x00
3.343519000000000,,0x8D,0xAB
3.379731800000000,,0xB0,0x0B
3.382167800000000,,0x00,0x20
3.385140600000000,,0x20,0x00
3.388113600000000,,0x06,0x00
3.391086400000000,,0x00,0x07
3.394059400000000,,0x31,0x20
3.397032400000000,,0x29,0x04
3.400005600000000,,0x80,0x00
3.402978600000000,,0x05,0xAB
3.439308200000000,,0xB0,0x0B
3.441628200000000,,0x00,0x20
3.444601400000000,,0x20,0x00
3.447574600000000,,0x8E,0x00
3.450547800000000,,0x00,0x07
3.453520800000000,,0x31,0x20
3.456494000000000,,0x29,0x04
3.459467200000000,,0x80,0x00
3.462440200000000,,0x8D,0xAB
3.498579400000000,,0xB0,0x0B
3.501089000000000,,0x00,0x20
3.504062000000000,,0x20,0x00
3.507035000000000,,0x06,0x00
3.510008000000000,,0x00,0x07
3.512980800000000,,0x31,0x20
3.515953800000000,,0x29,0x04
3.518926600000000,,0x80,0x00
3.521899600000000,,0x05,0xAB
3.558172000000000,,0xB0,0x0B
3.560547600000000,,0x00,0x20
3.563520400000000,,0x20,0x00
3.566493200000000,,0x8E,0x00
3.569466000000000,,0x00,0x07
3.572439000000000,,0x31,0x20
3.575412000000000,,0x29,0x04
3.578385000000000,,0x80,0x00
3.581358000000000,,0x8D,0xAB
3.617425200000000,,0xB0,0x0B
3.620006600000000,,0x00,0x20
3.622979400000000,,0x20,0x00
3.625952200000000,,0x06,0x00
3.628925200000000,,0x00,0x07
3.631898000000000,,0x31,0x20
3.634870600000000,,0x29,0x04
3.637843400000000,,0x80,0x00
3.640816600000000,,0x05,0xAB
3.677016200000000,,0xB0,0x0B
3.679466200000000,,0x00,0x20
3.682439200000000,,0x20,0x00
3.685412400000000,,0x8E,0x00
3.688385600000000,,0x00,0x07
3.691358600000000,,0x31,0x20
3.694331600000000,,0x29,0x04
3.697304800000000,,0x80,0x00
3.700277800000000,,0x8D,0xAB
3.736596000000000,,0xB0,0x0B
3.738926800000000,,0x00,0x20
3.741899800000000,,0x20,0x00
3.744872800000000,,0x06,0x00
3.747845800000000,,0x00,0x07
3.750818800000000,,0x31,0x20
3.753791600000000,,0x29,0x04
3.756764800000000,,0x80,0x00
3.759737800000000,,0x05,0xAB
3.795866000000000,,0xB0,0x0B
3.798387000000000,,0x00,0x20
3.801360200000000,,0x20,0x00
3.804333000000000,,0x8E,0x00
3.807306000000000,,0x00,0x07
3.810279200000000,,0x31,0x20
3.813252200000000,,0x29,0x04
3.816225400000000,,0x80,0x00
3.819198600000000,,0x8D,0xAB
3.855473400000000,,0xB0,0x0B
3.857848600000000,,0x00,0x20
3.860821800000000,,0x20,0x00
3.863795000000000,,0x06,0x00
3.866768000000000,,0x00,0x07
3.869741000000000,,0x31,0x20
3.872714200000000,,0x29,0x04
3.875687400000000,,0x80,0x00
3.878660400000000,,0x05,0xAB
3.914899000000000,,0xB0,0x0B
3.917310600000000,,0x00,0x20
3.920283600000000,,0x20,0x00
3.923256600000000,,0x8E,0x00
3.926229800000000,,0x00,0x07
3.929203000000000,,0x31,0x20
3.932176000000000,,0x2A,0x04
3.935149200000000,,0x80,0x00
3.938122400000000,,0x8E,0xAB
3.974171200000000,,0xB0,0x0B
3.976772000000000,,0x00,0x20
3.979745200000000,,0x20,0x00
3.982718200000000,,0x06,0x00
3.985691200000000,,0x00,0x07
3.988664200000000,,0x31,0x20
3.991637200000000,,0x2A,0x04
3.994610600000000,,0x80,0x00
3.997583800000000,,0x06,0xAB
4.033748800000000,,0xB0,0x0B
4.036233600000000,,0x00,0x20
4.039206600000000,,0x20,0x00
4.042179600000000,,0x8E,0x00
4.045152600000000,,0x00,0x07
4.048125800000000,,0x31,0x20
4.051098800000000,,0x2A,0x04
4.054071800000000,,0x80,0x00
4.057045000000000,,0x8E,0xAB
4.093345600000000,,0xB0,0x0B
4.095693800000000,,0x00,0x20
4.098666800000000,,0x20,0x00
4.101640000000000,,0x06,0x00
4.104613000000000,,0x00,0x07
4.107586000000000,,0x31,0x20
4.110559000000000,,0x2A,0x04
4.113532000000000,,0x80,0x00
4.116505200000000,,0x06,0xAB
4.152623000000000,,0xB0,0x0B
4.155154200000000,,0x00,0x20
4.158127400000000,,0x20,0x00
4.161100400000000,,0x8E,0x00
4.164073400000000,,0x00,0x07
4.167046200000000,,0x31,0x20
4.170019200000000,,0x2A,0x04
4.172992200000000,,0x80,0x00
4.175965400000000,,0x8E,0xAB
4.212199600000000,,0xB0,0x0B
4.214614600000000,,0x00,0x20
4.217587600000000,,0x20,0x00
4.220560600000000,,0x06,0x00
4.223533800000000,,0x00,0x07
4.226506800000000,,0x31,0x20
4.229479800000000,,0x2A,0x04
4.232452800000000,,0x80,0x00
4.235425800000000,,0x06,0xAB
4.271470400000000,,0xB0,0x0B
4.274075800000000,,0x00,0x20
4.277048800000000,,0x20,0x00
4.280022000000000,,0x8E,0x00
4.282995000000000,,0x00,0x07
4.285968000000000,,0x31,0x20
4.288941000000000,,0x2A,0x04
4.291914000000000,,0x80,0x00
4.294887000000000,,0x8E,0xAB
4.331049600000000,,0xB0,0x0B
4.333536400000000,,0x00,0x20
4.336509400000000,,0x20,0x00
4.339482600000000,,0x06,0x00
4.342455600000000,,0x00,0x07
4.345428600000000,,0x31,0x20
4.348401600000000,,0x2A,0x04
4.351374800000000,,0x80,0x00
4.354347800000000,,0x06,0xAB
4.390643400000000,,0xB0,0x0B
4.392997000000000,,0x00,0x20
4.395970200000000,,0x20,0x00
4.398943200000000,,0x8E,0x00
4.401916400000000,,0x00,0x07
4.404889400000000,,0x31,0x20
4.407862400000000,,0x2A,0x04
4.410835400000000,,0x80,0x00
4.413808400000000,,0x8E,0xAB
4.449914200000000,,0xB0,0x0B
4.452457200000000,,0x00,0x20
4.455430000000000,,0x20,0x00
4.458403200000000,,0x06,0x00
4.461376200000000,,0x00,0x07
4.464349000000000,,0x31,0x20
4.467322000000000,,0x2A,0x04
4.470295200000000,,0x80,0x00
4.473268200000000,,0x06,0xAB
4.509490000000000,,0xB0,0x0B
4.511917400000000,,0x00,0x20
4.514890400000000,,0x20,0x00
4.517863400000000,,0x8E,0x00
4.520836400000000,,0x00,0x07
4.523809200000000,,0x31,0x20
4.526782400000000,,0x2A,0x04
4.529755600000000,,0x80,0x00
4.532728800000000,,0x8E,0xAB
4.568761000000000,,0xB0,0x0B
4.571379400000000,,0x00,0x20
4.574352400000000,,0x20,0x00
4.577325400000000,,0x06,0x00
4.580298400000000,,0x00,0x07
4.583271400000000,,0x31,0x20
4.586244400000000,,0x2A,0x04
4.589217600000000,,0x80,0x00
4.592190600000000,,0x06,0xAB
4.628338400000000,,0xB0,0x0B
4.630839600000000,,0x00,0x20
4.633812600000000,,0x20,0x00
4.636785600000000,,0x8E,0x00
4.639758600000000,,0x00,0x07
4.642731800000000,,0x31,0x20
4.645704800000000,,0x2A,0x04
4.648677800000000,,0x80,0x00
4.651650800000000,,0x8E,0xAB
4.687932000000000,,0xB0,0x0B
4.690299600000000,,0x00,0x20
4.693272400000000,,0x20,0x00
4.696245400000000,,0x06,0x00
4.699218400000000,,0x00,0x07
4.702191200000000,,0x31,0x20
4.705164200000000,,0x2A,0x04
4.708137000000000,,0x80,0x00
4.711110000000000,,0x06,0xAB
4.747198600000000,,0xB0,0x0B
4.749758600000000,,0x00,0x20
4.752731600000000,,0x20,0x00
4.755704600000000,,0x8E,0x00
4.758677600000000,,0x00,0x07
4.761650600000000,,0x31,0x20
4.764623600000000,,0x2A,0x04
4.767596800000000,,0x80,0x00
4.770570000000000,,0x8E,0xAB
4.806779000000000,,0xB0,0x0B
4.809220400000000,,0x00,0x20
4.812193400000000,,0x20,0x00
4.815166400000000,,0x06,0x00
4.818139400000000,,0x00,0x07
4.821112600000000,,0x31,0x20
4.824085600000000,,0x2A,0x04
4.827058600000000,,0x80,0x00
4.830031600000000,,0x06,0xAB
4.866233000000000,,0xB0,0x0B
4.868681000000000,,0x00,0x20
4.871654000000000,,0x20,0x00
4.874627000000000,,0x8E,0x00
4.877600000000000,,0x00,0x07
4.880573000000000,,0x31,0x20
4.883545800000000,,0x2B,0x04
4.886518800000000,,0x80,0x00
4.889491800000000,,0x8F,0xAB
4.925810600000000,,0xB0,0x0B
4.928141200000000,,0x00,0x20
4.931114200000000,,0x20,0x00
4.934087200000000,,0x06,0x00
4.937060200000000,,0x00,0x07
4.940033200000000,,0x31,0x20
4.943006200000000,,0x2B,0x04
4.945979200000000,,0x80,0x00
4.948952400000000,,0x07,0xAB
4.985079400000000,,0xB0,0x0B
4.987600400000000,,0x00,0x20
4.990573400000000,,0x20,0x00
4.993546200000000,,0x8E,0x00
4.996519200000000,,0x00,0x07
4.999492200000000,,0x31,0x20
5.002465400000000,,0x2B,0x04
5.005438600000000,,0x80,0x00
5.008411800000000,,0x8F,0xAB
5.044673200000000,,0xB0,0x0B
5.047062000000000,,0x00,0x20
5.050035200000000,,0x20,0x00
5.053008200000000,,0x06,0x00
5.055981400000000,,0x00,0x07
5.058954600000000,,0x31,0x20
5.061927800000000,,0x2B,0x04
5.064901000000000,,0x80,0x00
5.067874200000000,,0x07,0xAB
5.103931600000000,,0xB0,0x0B
5.106524400000000,,0x00,0x20
5.109497600000000,,0x20,0x00
5.112470800000000,,0x8E,0x00
5.115443800000000,,0x00,0x07
5.118416800000000,,0x31,0x20
5.121389800000000,,0x2B,0x04
5.124363000000000,,0x80,0x00
5.127336200000000,,0x8F,0xAB
5.163537800000000,,0xB0,0x0B
5.165987200000000,,0x00,0x20
5.168960400000000,,0x20,0x00
5.171933600000000,,0x06,0x00
5.174906800000000,,0x00,0x07
5.177880200000000,,0x31,0x20
5.180853400000000,,0x2B,0x04
5.183826600000000,,0x80,0x00
5.186799800000000,,0x07,0xAB
5.223120200000000,,0xB0,0x0B
5.225451600000000,,0x00,0x20
5.228424800000000,,0x20,0x00
5.231398200000000,,0x8E,0x00
5.234371200000000,,0x00,0x07
5.237344600000000,,0x31,0x20
5.240317800000000,,0x2B,0x04
5.243291000000000,,0x80,0x00
5.246264400000000,,0x8F,0xAB
5.282394800000000,,0xB0,0x0B
5.284915400000000,,0x00,0x20
5.287888600000000,,0x20,0x00
5.290861800000000,,0x06,0x00
5.293835000000000,,0x00,0x07
5.296808200000000,,0x31,0x20
5.299781200000000,,0x2B,0x04
5.302754400000000,,0x80,0x00
5.305727600000000,,0x07,0xAB
5.341992000000000,,0xB0,0x0B
5.344378000000000,,0x00,0x20
5.347351000000000,,0x20,0x00
5.350324000000000,,0x8E,0x00
5.353297000000000,,0x00,0x07
5.356270000000000,,0x31,0x20
5.359243000000000,,0x2B,0x04
5.362215800000000,,0x80,0x00
5.365188800000000,,0x8F,0xAB
5.401247000000000,,0xB0,0x0B
5.403838600000000,,0x00,0x20
5.406811800000000,,0x20,0x00
5.409785000000000,,0x06,0x00
5.412758200000000,,0x00,0x07
5.415731200000000,,0x31,0x20
5.418704200000000,,0x2B,0x04
5.421677200000000,,0x80,0x00
5.424650400000000,,0x07,0xAB
5.460840400000000,,0xB0,0x0B
5.463300200000000,,0x00,0x20
5.466273400000000,,0x20,0x00
5.469246400000000,,0x8E,0x00
5.472219400000000,,0x00,0x07
5.475192600000000,,0x31,0x20
5.478165400000000,,0x2B,0x04
5.481138600000000,,0x80,0x00
5.484111800000000,,0x8F,0xAB
5.520420800000000,,0xB0,0x0B
5.522762600000000,,0x00,0x20
5.525735600000000,,0x20,0x00
5.528708800000000,,0x06,0x00
5.531681800000000,,0x00,0x07
5.534654800000000,,0x31,0x20
5.537627800000000,,0x2B,0x04
5.540601000000000,,0x80,0x00
5.543574000000000,,0x07,0xAB
5.579688800000000,,0xB0,0x0B
5.582224000000000,,0x00,0x20
5.585197000000000,,0x20,0x00
5.588170200000000,,0x8E,0x00
5.591143200000000,,0x00,0x07
5.594116200000000,,0x31,0x20
5.597089200000000,,0x2B,0x04
5.600062200000000,,0x80,0x00
5.603035400000000,,0x8F,0xAB
5.639283600000000,,0xB0,0x0B
5.641684600000000,,0x00,0x20
5.644657600000000,,0x20,0x00
5.647630600000000,,0x06,0x00
5.650603800000000,,0x00,0x07
5.653576800000000,,0x31,0x20
5.656549800000000,,0x2B,0x04
5.659523000000000,,0x80,0x00
5.662496000000000,,0x07,0xAB
5.698536600000000,,0xB0,0x0B
5.701144800000000,,0x00,0x20
5.704117600000000,,0x20,0x00
5.707090600000000,,0x8E,0x00
5.710063400000000,,0x00,0x07
5.713036400000000,,0x31,0x20
5.716009400000000,,0x2B,0x04
5.718982400000000,,0x80,0x00
5.721955400000000,,0x8F,0xAB
5.758129800000000,,0xB0,0x0B
5.760605600000000,,0x00,0x20
5.763578800000000,,0x20,0x00
5.766552000000000,,0x06,0x00
5.769525200000000,,0x00,0x07
5.772498400000000,,0x31,0x20
5.775471400000000,,0x2B,0x04
5.778444200000000,,0x80,0x00
5.781417200000000,,0x07,0xAB
5.817706400000000,,0xB0,0x0B
5.820066200000000,,0x00,0x20
5.823039400000000,,0x20,0x00
5.826012400000000,,0x8E,0x00
5.828985600000000,,0x00,0x07
5.831958600000000,,0x31,0x20
5.834931600000000,,0x2B,0x04
5.837904600000000,,0x80,0x00
5.840877400000000,,0x8F,0xAB
5.877162400000000,,0xB0,0x0B
5.879526600000000,,0x00,0x20
5.882499600000000,,0x20,0x00
5.885472600000000,,0x06,0x00
5.888445400000000,,0x00,0x07
5.891418400000000,,0x31,0x20
5.894391400000000,,0x2C,0x04
5.897364800000000,,0x80,0x00
5.900337800000000,,0x08,0xAB
5.936434400000000,,0xB0,0x0B
5.938986800000000,,0x00,0x20
5.941959800000000,,0x20,0x00
5.944932800000000,,0x8E,0x00
5.947905800000000,,0x00,0x07
5.950878800000000,,0x31,0x20
5.953851800000000,,0x2C,0x04
5.956824800000000,,0x80,0x00
5.959797800000000,,0x90,0xAB
5.996013200000000,,0xB0,0x0B
5.998447000000000,,0x00,0x20
6.001420200000000,,0x20,0x00
6.004393200000000,,0x06,0x00
6.007366200000000,,0x00,0x07
6.010339200000000,,0x31,0x20
6.013312200000000,,0x2C,0x04
6.016285200000000,,0x80,0x00
6.019258200000000,,0x08,0xAB
6.055283000000000,,0xB0,0x0B
6.057907000000000,,0x00,0x20
6.060880000000000,,0x20,0x00
6.063853200000000,,0x8E,0x00
6.066826000000000,,0x00,0x07
6.069799000000000,,0x31,0x20
6.072772000000000,,0x2C,0x04
6.075745000000000,,0x80,0x00
6.078718000000000,,0x90,0xAB
6.114860000000000,,0xB0,0x0B
6.117365800000000,,0x00,0x20
6.120338600000000,,0x20,0x00
6.123311200000000,,0x06,0x00
6.126284000000000,,0x00,0x07
6.129257000000000,,0x31,0x20
6.132229800000000,,0x2C,0x04
6.135202800000000,,0x80,0x00
6.138175800000000,,0x08,0xAB
6.174455200000000,,0xB0,0x0B
6.176823400000000,,0x00,0x20
6.179796200000000,,0x20,0x00
6.182769200000000,,0x8E,0x00
6.185742000000000,,0x00,0x07
6.188715000000000,,0x31,0x20
6.191688000000000,,0x2C,0x04
6.194661000000000,,0x80,0x00
6.197634000000000,,0x90,0xAB
6.233728400000000,,0xB0,0x0B
6.236282800000000,,0x00,0x20
6.239255800000000,,0x20,0x00
6.242228600000000,,0x06,0x00
6.245201600000000,,0x00,0x07
6.248174400000000,,0x31,0x20
6.251147200000000,,0x2C,0x04
6.254120200000000,,0x80,0x00
6.257092600000000,,0x08,0xAB
6.293372800000000,,0xB0,0x0B
6.295741600000000,,0x04,0x20
6.298714600000000,,0x20,0x00
6.301687800000000,,0x8E,0x00
6.304661000000000,,0x00,0x07
6.307634200000000,,0x31,0x20
6.310607200000000,,0x2C,0x04
6.313580400000000,,0x81,0x00
6.316553600000000,,0x95,0xAB
6.352815000000000,,0xB0,0x0B
6.355204200000000,,0x04,0x20
6.358177400000000,,0x20,0x00
6.361150200000000,,0x06,0x00
6.364123200000000,,0x00,0x07
6.367096200000000,,0x31,0x20
6.370069200000000,,0x2C,0x04
6.373042200000000,,0x81,0x00
6.376015400000000,,0x0D,0xAB
6.412243200000000,,0xB0,0x0B
6.414666200000000,,0x04,0x20
6.417639400000000,,0x20,0x00
6.420612400000000,,0x8E,0x00
6.423585400000000,,0x00,0x07
6.426558600000000,,0x31,0x20
6.429531600000000,,0x2C,0x04
6.432504800000000,,0x81,0x00
6.435478000000000,,0x95,0xAB
6.471688000000000,,0xB0,0x0B
6.474128800000000,,0x04,0x20
6.477101800000000,,0x20,0x00
6.480075000000000,,0x06,0x00
6.483047800000000,,0x00,0x07
6.486020800000000,,0x31,0x20
6.488993800000000,,0x2C,0x04
6.491967000000000,,0x81,0x00
6.494940000000000,,0x0D,0xAB
6.531126800000000,,0xB0,0x0B
6.533588600000000,,0x04,0x20
6.536561400000000,,0x20,0x00
6.539534400000000,,0x8E,0x00
6.542507400000000,,0x00,0x07
6.545480400000000,,0x31,0x20
6.548453400000000,,0x2C,0x04
6.551426400000000,,0x81,0x00
6.554399200000000,,0x95,0xAB
6.590590400000000,,0xB0,0x0B
6.593047600000000,,0x00,0x20
6.596020600000000,,0x20,0x00
6.598993600000000,,0x06,0x00
6.601966600000000,,0x00,0x07
6.604939600000000,,0x31,0x20
6.607912600000000,,0x2C,0x04
6.610885800000000,,0x80,0x00
6.613858600000000,,0x08,0xAB
6.650183200000000,,0xB0,0x0B
6.652506600000000,,0x00,0x20
6.655479600000000,,0x20,0x00
6.658452600000000,,0x8E,0x00
6.661425600000000,,0x00,0x07
6.664398400000000,,0x31,0x20
6.667371200000000,,0x2C,0x04
6.670344000000000,,0x80,0x00
6.673317000000000,,0x90,0xAB
6.709437400000000,,0xB0,0x0B
6.711966000000000,,0x00,0x20
6.714939000000000,,0x20,0x00
6.717912000000000,,0x06,0x00
6.720885000000000,,0x00,0x07
6.723857800000000,,0x31,0x20
6.726830800000000,,0x2C,0x04
6.729803800000000,,0x80,0x00
6.732776800000000,,0x08,0xAB
6.769029600000000,,0xB0,0x0B
6.771424000000000,,0x00,0x20
6.774396800000000,,0x20,0x00
6.777369600000000,,0x8E,0x00
6.780342600000000,,0x00,0x07
6.783315600000000,,0x31,0x20
6.786288400000000,,0x2C,0x04
6.789261400000000,,0x80,0x00
6.792234200000000,,0x90,0xAB
6.828310200000000,,0xB0,0x0B
6.830881400000000,,0x00,0x20
6.833854400000000,,0x20,0x00
6.836827200000000,,0x06,0x00
6.839800200000000,,0x00,0x07
6.842773400000000,,0x31,0x20
6.845746200000000,,0x2C,0x04
6.848719400000000,,0x80,0x00
6.851692200000000,,0x08,0xAB
6.887731600000000,,0xB0,0x0B
6.890339600000000,,0x00,0x20
6.893312400000000,,0x20,0x00
6.896285200000000,,0x8E,0x00
6.899258000000000,,0x00,0x07
6.902230800000000,,0x31,0x20
6.905203800000000,,0x2D,0x04
6.908176600000000,,0x80,0x00
6.911149600000000,,0x91,0xAB
6.947321400000000,,0xB0,0x0B
6.949797000000000,,0x00,0x20
6.952769800000000,,0x20,0x00
6.955742600000000,,0x06,0x00
6.958715400000000,,0x00,0x07
6.961688200000000,,0x31,0x20
6.964661200000000,,0x2D,0x04
6.967634000000000,,0x80,0x00
6.970606800000000,,0x09,0xAB
7.006895000000000,,0xB0,0x0B
7.009254800000000,,0x00,0x20
7.012227800000000,,0x20,0x00
7.015200800000000,,0x8E,0x00
7.018173800000000,,0x00,0x07
7.021146800000000,,0x31,0x20
7.024120000000000,,0x2D,0x04
7.027093200000000,,0x80,0x00
7.030066200000000,,0x91,0xAB
7.066168800000000,,0xB0,0x0B
7.068716200000000,,0x00,0x20
7.071689200000000,,0x20,0x00
7.074662400000000,,0x06,0x00
7.077635400000000,,0x00,0x07
7.080608400000000,,0x31,0x20
7.083581600000000,,0x2D,0x04
7.086554400000000,,0x80,0x00
7.089527400000000,,0x09,0xAB
7.125770600000000,,0xB0,0x0B
7.128176600000000,,0x00,0x20
7.131149400000000,,0x20,0x00
7.134122600000000,,0x8E,0x00
7.137095600000000,,0x00,0x07
7.140068600000000,,0x31,0x20
7.143041600000000,,0x2D,0x04
7.146014600000000,,0x80,0x00
7.148987400000000,,0x91,0xAB
7.185027200000000,,0xB0,0x0B
7.187637000000000,,0x00,0x20
7.190610000000000,,0x20,0x00
7.193583200000000,,0x06,0x00
7.196556200000000,,0x00,0x07
7.199529200000000,,0x31,0x20
7.202502000000000,,0x2D,0x04
7.205475000000000,,0x80,0x00
7.208448000000000,,0x09,0xAB
7.244619600000000,,0xB0,0x0B
7.247097400000000,,0x00,0x20
7.250070400000000,,0x20,0x00
7.253043400000000,,0x8E,0x00
7.256016400000000,,0x00,0x07
7.258989400000000,,0x31,0x20
7.261962400000000,,0x2D,0x04
7.264935400000000,,0x80,0x00
7.267908600000000,,0x91,0xAB
7.304198200000000,,0xB0,0x0B
7.306557400000000,,0x00,0x20
7.309530400000000,,0x20,0x00
7.312503400000000,,0x06,0x00
7.315476600000000,,0x00,0x07
7.318449600000000,,0x31,0x20
7.321422600000000,,0x2D,0x04
7.324395800000000,,0x80,0x00
7.327368800000000,,0x09,0xAB
7.363469400000000,,0xB0,0x0B
7.366017400000000,,0x00,0x20
7.368990400000000,,0x20,0x00
7.371963400000000,,0x8E,0x00
7.374936400000000,,0x00,0x07
7.377909400000000,,0x31,0x20
7.380882400000000,,0x2D,0x04
7.383855400000000,,0x80,0x00
7.386828400000000,,0x91,0xAB
7.423064600000000,,0xB0,0x0B
7.425477000000000,,0x00,0x20
7.428450000000000,,0x20,0x00
7.431422800000000,,0x06,0x00
7.434395800000000,,0x00,0x07
7.437368800000000,,0x31,0x20
7.440341800000000,,0x2D,0x04
7.443314800000000,,0x80,0x00
7.446287800000000,,0x09,0xAB
7.482318000000000,,0xB0,0x0B
7.484936800000000,,0x00,0x20
7.487909800000000,,0x20,0x00
7.490882800000000,,0x8E,0x00
7.493855800000000,,0x00,0x07
7.496829000000000,,0x31,0x20
7.499802000000000,,0x2D,0x04
7.502775000000000,,0x80,0x00
7.505748000000000,,0x91,0xAB
7.541911000000000,,0xB0,0x0B
7.544397800000000,,0x00,0x20
7.547371000000000,,0x20,0x00
7.550344000000000,,0x06,0x00
7.553317200000000,,0x00,0x07
7.556290200000000,,0x31,0x20
7.559263200000000,,0x2D,0x04
7.562236200000000,,0x80,0x00
7.565209200000000,,0x09,0xAB
7.601487400000000,,0xB0,0x0B
7.603857600000000,,0x00,0x20
7.606830600000000,,0x20,0x00
7.609803600000000,,0x8E,0x00
7.612776600000000,,0x00,0x07
7.615749600000000,,0x31,0x20
7.618722400000000,,0x2D,0x04
7.621695400000000,,0x80,0x00
7.624668400000000,,0x91,0xAB
7.660756600000000,,0xB0,0x0B
7.663317000000000,,0x00,0x20
7.666290200000000,,0x20,0x00
7.669263200000000,,0x06,0x00
7.672236400000000,,0x00,0x07
7.675209400000000,,0x31,0x20
7.678182600000000,,0x2D,0x04
7.681155600000000,,0x80,0x00
7.684128600000000,,0x09,0xAB
7.720352200000000,,0xB0,0x0B
7.722778200000000,,0x00,0x20
7.725751400000000,,0x20,0x00
7.728724600000000,,0x8E,0x00
7.731697800000000,,0x00,0x07
7.734671000000000,,0x31,0x20
7.737644000000000,,0x2D,0x04
7.740617200000000,,0x80,0x00
7.743590600000000,,0x91,0xAB
7.779605000000000,,0xB0,0x0B
7.782240200000000,,0x00,0x20
7.785213200000000,,0x20,0x00
7.788186200000000,,0x06,0x00
7.791159200000000,,0x00,0x07
7.794132400000000,,0x31,0x20
7.797105400000000,,0x2D,0x04
7.800078400000000,,0x80,0x00
7.803051600000000,,0x09,0xAB
7.839060000000000,,0xB0,0x0B
7.841700600000000,,0x00,0x20
7.844673600000000,,0x20,0x00
7.847646800000000,,0x8E,0x00
7.850619800000000,,0x00,0x07
7.853592800000000,,0x31,0x20
7.856565800000000,,0x2E,0x04
7.859538800000000,,0x80,0x00
7.862511800000000,,0x92,0xAB
7.898652000000000,,0xB0,0x0B
7.901160600000000,,0x08,0x20
7.904133400000000,,0x20,0x00
7.907106400000000,,0x06,0x00
7.910079600000000,,0x00,0x07
7.913052800000000,,0x31,0x20
7.916025800000000,,0x2E,0x04
7.918998800000000,,0x81,0x00
7.921971800000000,,0x13,0xAB
7.958214400000000,,0xB0,0x0B
7.960622400000000,,0x08,0x20
7.963595600000000,,0x20,0x00
7.966569000000000,,0x8E,0x00
7.969542200000000,,0x00,0x07
7.972515400000000,,0x31,0x20
7.975488600000000,,0x2E,0x04
7.978461800000000,,0x81,0x00
7.981435000000000,,0x9B,0xAB
8.017829600000001,,0xB0,0x0B
8.020086400000000,,0x08,0x20
8.023059800000000,,0x20,0x00
8.026033000000000,,0x06,0x00
8.029006400000000,,0x00,0x07
8.031979600000000,,0x31,0x20
8.034952799999999,,0x2E,0x04
8.037926199999999,,0x81,0x00
8.040899599999999,,0x13,0xAB
8.076956600000001,,0xB0,0x0B
8.079553000000001,,0x08,0x20
8.082526200000000,,0x20,0x00
8.085499600000000,,0x8E,0x00
8.088472800000000,,0x00,0x07
8.091445999999999,,0x31,0x20
8.094419200000001,,0x2E,0x04
8.097392400000000,,0x81,0x00
8.100365399999999,,0x9B,0xAB
8.136578000000000,,0xB0,0x0B
8.139016399999999,,0x08,0x20
8.141989600000000,,0x20,0x00
8.144962599999999,,0x06,0x00
8.147935600000000,,0x00,0x07
8.150908800000000,,0x31,0x20
8.153881800000001,,0x2E,0x04
8.156855000000000,,0x81,0x00
8.159827999999999,,0x13,0xAB
8.196177199999999,,0xB0,0x0B
8.198478200000000,,0x08,0x20
8.201451199999999,,0x20,0x00
8.204424400000001,,0x8E,0x00
8.207397400000000,,0x00,0x07
8.210370400000000,,0x31,0x20
8.213343399999999,,0x2E,0x04
8.216316600000001,,0x81,0x00
8.219289399999999,,0x9B,0xAB
8.255346200000000,,0xB0,0x0B
8.257938400000000,,0x00,0x20
8.260911600000000,,0x20,0x00
8.263884600000001,,0x06,0x00
8.266857600000000,,0x00,0x07
8.269830600000001,,0x31,0x20
8.272803800000000,,0x2E,0x04
8.275776799999999,,0x80,0x00
8.278749599999999,,0x0A,0xAB
8.314937600000000,,0xB0,0x0B
8.317397800000000,,0x00,0x20
8.320370799999999,,0x20,0x00
8.323343800000000,,0x8E,0x00
8.326316600000000,,0x00,0x07
8.329289599999999,,0x31,0x20
8.332262600000000,,0x2E,0x04
8.335235600000001,,0x80,0x00
8.338208800000000,,0x92,0xAB
8.374517200000000,,0xB0,0x0B
8.376859000000000,,0x00,0x20
8.379832199999999,,0x20,0x00
8.382805200000000,,0x06,0x00
8.385778200000001,,0x00,0x07
8.388751200000000,,0x31,0x20
8.391724200000001,,0x2E,0x04
8.394697200000000,,0x80,0x00
8.397670200000000,,0x0A,0xAB
8.433784200000000,,0xB0,0x0B
8.436319200000000,,0x00,0x20
8.439292200000001,,0x20,0x00
8.442265200000000,,0x8E,0x00
8.445238200000000,,0x00,0x07
8.448211400000000,,0x31,0x20
8.451184400000001,,0x2E,0x04
8.454157600000000,,0x80,0x00
8.457130599999999,,0x92,0xAB
8.493361800000001,,0xB0,0x0B
8.495778800000000,,0x00,0x20
8.498751600000000,,0x20,0x00
8.501724400000001,,0x06,0x00
8.504697200000001,,0x00,0x07
8.507670200000000,,0x31,0x20
8.510643200000001,,0x2E,0x04
8.513616200000000,,0x80,0x00
8.516589000000000,,0x0A,0xAB
8.552633000000000,,0xB0,0x0B
8.555237999999999,,0x00,0x20
8.558211000000000,,0x20,0x00
8.561184000000001,,0x8E,0x00
8.564157000000000,,0x00,0x07
8.567130000000001,,0x31,0x20
8.570102800000001,,0x2E,0x04
8.573075800000000,,0x80,0x00
8.576048800000001,,0x92,0xAB
8.612226000000000,,0xB0,0x0B
8.614696800000001,,0x00,0x20
8.617669800000000,,0x20,0x00
8.620642800000001,,0x06,0x00
8.623615800000000,,0x00,0x07
8.626588999999999,,0x31,0x20
8.629561799999999,,0x2E,0x04
8.632534800000000,,0x80,0x00
8.635507799999999,,0x0A,0xAB
8.671800400000000,,0xB0,0x0B
8.674155400000000,,0x00,0x20
8.677128400000001,,0x20,0x00
8.680101400000000,,0x8E,0x00
8.683074400000001,,0x00,0x07
8.686047400000000,,0x31,0x20
8.689020400000000,,0x2E,0x04
8.691993600000000,,0x80,0x00
8.694966600000001,,0x92,0xAB
8.731073200000001,,0xB0,0x0B
8.733616800000000,,0x00,0x20
8.736589800000001,,0x20,0x00
8.739562800000000,,0x06,0x00
8.742535800000001,,0x00,0x07
8.745508800000000,,0x31,0x20
8.748481600000000,,0x2E,0x04
8.751454600000001,,0x80,0x00
8.754427600000000,,0x0A,0xAB
8.790649400000000,,0xB0,0x0B
8.793076800000000,,0x00,0x20
8.796049600000000,,0x20,0x00
8.799022400000000,,0x8E,0x00
8.801995200000000,,0x00,0x07
8.804968199999999,,0x31,0x20
8.807941000000000,,0x2E,0x04
8.810914000000000,,0x80,0x00
8.813886999999999,,0x92,0xAB
8.850101799999999,,0xB0,0x0B
8.852535800000000,,0x00,0x20
8.855509000000000,,0x20,0x00
8.858482000000000,,0x06,0x00
8.861455200000000,,0x00,0x07
8.864428400000000,,0x31,0x20
8.867401600000001,,0x2F,0x04
8.870374800000000,,0x80,0x00
8.873347799999999,,0x0B,0xAB
8.909373400000000,,0xB0,0x0B
8.911998199999999,,0x00,0x20
8.914971200000000,,0x20,0x00
8.917944400000000,,0x8E,0x00
8.920917400000000,,0x00,0x07
8.923890399999999,,0x31,0x20
8.926863400000000,,0x2F,0x04
8.929836399999999,,0x80,0x00
8.932809600000001,,0x93,0xAB
8.968958400000000,,0xB0,0x0B
8.971459200000000,,0x00,0x20
8.974432200000001,,0x20,0x00
8.977405200000000,,0x06,0x00
8.980378200000001,,0x00,0x07
8.983351200000000,,0x31,0x20
8.986324400000001,,0x2F,0x04
8.989297600000000,,0x80,0x00
8.992270599999999,,0x0B,0xAB
9.028364200000000,,0xB0,0x0B
9.030919799999999,,0x10,0x20
9.033892800000000,,0x20,0x00
9.036866000000000,,0x8E,0x00
9.039839000000001,,0x00,0x07
9.042812200000000,,0x31,0x20
9.045785400000000,,0x2F,0x04
9.048758599999999,,0x81,0x00
9.051731600000000,,0xA4,0xAB
9.088133600000001,,0xB0,0x0B
9.090382200000001,,0x10,0x20
9.093355400000000,,0x20,0x00
9.096328400000001,,0x06,0x00
9.099301400000000,,0x00,0x07
9.102274400000001,,0x31,0x20
9.105247400000000,,0x2F,0x04
9.108220400000000,,0x81,0x00
9.111193399999999,,0x1C,0xAB
9.147448000000001,,0xB0,0x0B
9.149843000000001,,0x10,0x20
9.152816000000000,,0x20,0x00
9.155789000000000,,0x8E,0x00
9.158761999999999,,0x00,0x07
9.161735200000001,,0x31,0x20
9.164708200000000,,0x2F,0x04
9.167681200000001,,0x81,0x00
9.170654200000000,,0xA4,0xAB
9.206754999999999,,0xB0,0x0B
9.209302800000000,,0x10,0x20
9.212275800000000,,0x20,0x00
9.215249000000000,,0x06,0x00
9.218221800000000,,0x00,0x07
9.221194799999999,,0x31,0x20
9.224167800000000,,0x2F,0x04
9.227140800000001,,0x81,0x00
9.230113800000000,,0x1C,0xAB
9.266523200000000,,0xB0,0x0B
9.268763399999999,,0x10,0x20
9.271736400000000,,0x20,0x00
9.274709600000000,,0x8E,0x00
9.277682400000000,,0x00,0x07
9.280655400000001,,0x31,0x20
9.283628400000000,,0x2F,0x04
9.286601400000000,,0x81,0x00
9.289574399999999,,0xA4,0xAB
9.325848799999999,,0xB0,0x0B
9.328224000000001,,0x00,0x20
9.331197200000000,,0x20,0x00
9.334170400000000,,0x06,0x00
9.337143599999999,,0x00,0x07
9.340116600000000,,0x31,0x20
9.343089800000000,,0x2F,0x04
9.346062800000000,,0x80,0x00
9.349035799999999,,0x0B,0xAB
9.385077600000001,,0xB0,0x0B
9.387685400000001,,0x00,0x20
9.390658400000000,,0x20,0x00
9.393631400000000,,0x8E,0x00
9.396604399999999,,0x00,0x07
9.399577400000000,,0x31,0x20
9.402550400000001,,0x2F,0x04
9.405523600000000,,0x80,0x00
9.408496599999999,,0x93,0xAB
9.444668999999999,,0xB0,0x0B
9.447144200000000,,0x00,0x20
9.450117199999999,,0x20,0x00
9.453090200000000,,0x06,0x00
9.456063000000000,,0x00,0x07
9.459035800000001,,0x31,0x20
9.462008600000001,,0x2F,0x04
9.464981600000000,,0x80,0x00
9.467954600000001,,0x0B,0xAB
9.504258000000000,,0xB0,0x0B
9.506601800000000,,0x00,0x20
9.509574799999999,,0x20,0x00
9.512547800000000,,0x8E,0x00
9.515520600000000,,0x00,0x07
9.518493599999999,,0x31,0x20
9.521466600000000,,0x2F,0x04
9.524439599999999,,0x80,0x00
9.527412800000000,,0x93,0xAB
9.563513000000000,,0xB0,0x0B
9.566062000000001,,0x00,0x20
9.569034800000001,,0x20,0x00
9.572007800000000,,0x06,0x00
9.574980800000001,,0x00,0x07
9.577953800000000,,0x31,0x20
9.580926600000000,,0x2F,0x04
9.583899600000001,,0x80,0x00
9.586872600000000,,0x0B,0xAB
9.623103800000001,,0xB0,0x0B
9.625520200000000,,0x00,0x20
9.628493000000001,,0x20,0x00
9.631466000000000,,0x8E,0x00
9.634439000000000,,0x00,0x07
9.637411999999999,,0x31,0x20
9.640385000000000,,0x2F,0x04
9.643357999999999,,0x80,0x00
9.646331000000000,,0x93,0xAB
9.682355400000001,,0xB0,0x0B
9.684978200000000,,0x00,0x20
9.687951000000000,,0x20,0x00
9.690924000000001,,0x06,0x00
9.693896799999999,,0x00,0x07
9.696869599999999,,0x31,0x20
9.699842400000000,,0x2F,0x04
9.702815400000000,,0x80,0x00
9.705788200000001,,0x0B,0xAB
9.741948000000001,,0xB0,0x0B
9.744434999999999,,0x00,0x20
9.747407800000000,,0x20,0x00
9.750380600000000,,0x8E,0x00
9.753353400000000,,0x00,0x07
9.756326200000000,,0x31,0x20
9.759298800000000,,0x2F,0x04
9.762271600000000,,0x80,0x00
9.765244600000001,,0x93,0xAB
9.801553000000000,,0xB0,0x0B
9.803891999999999,,0x00,0x20
9.806865000000000,,0x20,0x00
9.809837999999999,,0x06,0x00
9.812811000000000,,0x00,0x07
9.815784000000001,,0x31,0x20
9.818756799999999,,0x2F,0x04
9.821729800000000,,0x80,0x00
9.824702800000001,,0x0B,0xAB
9.860976000000001,,0xB0,0x0B
9.863351600000000,,0x00,0x20
9.866324600000000,,0x20,0x00
9.869297400000001,,0x8E,0x00
9.872270600000000,,0x00,0x07
9.875243400000000,,0x31,0x20
9.878216200000001,,0x30,0x04
9.881189200000000,,0x80,0x00
9.884162200000000,,0x94,0xAB
9.920244600000000,,0xB0,0x0B
9.922809800000000,,0x00,0x20
9.925782600000000,,0x20,0x00
9.928755400000000,,0x06,0x00
9.931728400000001,,0x00,0x07
9.934701000000000,,0x31,0x20
9.937673999999999,,0x30,0x04
9.940646800000000,,0x80,0x00
9.943619600000000,,0x0C,0xAB
9.979818200000000,,0xB0,0x0B
9.982267000000000,,0x00,0x20
9.985239800000000,,0x20,0x00
9.988212799999999,,0x8E,0x00
9.991185800000000,,0x00,0x07
9.994158600000000,,0x31,0x20
9.997131599999999,,0x30,0x04
10.000104600000000,,0x80,0x00
10.003077400000000,,0x94,0xAB
10.039089000000001,,0xB0,0x0B
10.041725200000000,,0x00,0x20
10.044698199999999,,0x20,0x00
10.047671400000000,,0x06,0x00
10.050644399999999,,0x00,0x07
10.053617400000000,,0x31,0x20
10.056590399999999,,0x30,0x04
10.059563400000000,,0x80,0x00
10.062536400000001,,0x0C,0xAB
10.098689600000000,,0xB0,0x0B
10.101185200000000,,0x00,0x20
10.104158000000000,,0x20,0x00
10.107130800000000,,0x8E,0x00
10.110103799999999,,0x00,0x07
10.113076599999999,,0x31,0x20
10.116049400000000,,0x30,0x04
10.119022400000000,,0x80,0x00
10.121995200000001,,0x94,0xAB
10.158263200000000,,0xB0,0x0B
10.160642599999999,,0x00,0x20
10.163615399999999,,0x20,0x00
10.166588200000000,,0x06,0x00
10.169561000000000,,0x00,0x07
10.172533800000000,,0x31,0x20
10.175506800000001,,0x30,0x04
10.178479599999999,,0x80,0x00
10.181452400000000,,0x0C,0xAB
10.217533599999999,,0xB0,0x0B
10.220100000000000,,0x00,0x20
10.223072800000001,,0x20,0x00
10.226045600000001,,0x8E,0x00
10.229018399999999,,0x00,0x07
10.231991400000000,,0x31,0x20
10.234964200000000,,0x30,0x04
10.237937000000001,,0x80,0x00
10.240909800000001,,0x94,0xAB
10.277286600000000,,0xB0,0x0B
10.279557600000000,,0x20,0x20
10.282530599999999,,0x20,0x00
10.285503600000000,,0x06,0x00
10.288476599999999,,0x00,0x07
10.291449600000000,,0x31,0x20
10.294422600000001,,0x30,0x04
10.297395600000000,,0x81,0x00
10.300368600000001,,0x2D,0xAB
10.336762600000000,,0xB0,0x0B
10.339017000000000,,0x20,0x20
10.341989999999999,,0x20,0x00
10.344963000000000,,0x8E,0x00
10.347936000000001,,0x00,0x07
10.350909000000000,,0x31,0x20
10.353881800000000,,0x30,0x04
10.356854800000001,,0x81,0x00
10.359827599999999,,0xB5,0xAB
10.396237599999999,,0xB0,0x0B
10.398475599999999,,0x20,0x20
10.401448400000000,,0x20,0x00
10.404421200000000,,0x06,0x00
10.407394000000000,,0x00,0x07
10.410366800000000,,0x31,0x20
10.413339600000000,,0x30,0x04
10.416312400000001,,0x81,0x00
10.419285199999999,,0x2D,0xAB
10.455692600000001,,0xB0,0x0B
10.457931000000000,,0x20,0x20
10.460903800000001,,0x20,0x00
10.463876600000001,,0x8E,0x00
10.466849600000000,,0x00,0x07
10.469822199999999,,0x31,0x20
10.472795000000000,,0x30,0x04
10.475767800000000,,0x81,0x00
10.478740800000001,,0xB5,0xAB
10.515168400000000,,0xB0,0x0B
10.517389000000000,,0x20,0x20
10.520361800000000,,0x20,0x00
10.523334800000001,,0x06,0x00
10.526308000000000,,0x00,0x07
10.529280999999999,,0x31,0x20
10.532253799999999,,0x30,0x04
10.535226800000000,,0x81,0x00
10.538199799999999,,0x2D,0xAB
10.574634000000000,,0xB0,0x0B
10.576848000000000,,0x20,0x20
10.579821000000001,,0x20,0x00
10.582794200000000,,0x8E,0x00
10.585767199999999,,0x00,0x07
10.588740000000000,,0x31,0x20
10.591713199999999,,0x30,0x04
10.594686200000000,,0x81,0x00
10.597659200000001,,0xB5,0xAB
10.633802200000000,,0xB0,0x0B
10.636308400000001,,0x00,0x20
10.639281199999999,,0x20,0x00
10.642254200000000,,0x06,0x00
10.645227200000001,,0x00,0x07
10.648199999999999,,0x31,0x20
10.651173000000000,,0x30,0x04
10.654146000000001,,0x80,0x00
10.657118799999999,,0x0C,0xAB
10.693393400000000,,0xB0,0x0B
10.695767000000000,,0x00,0x20
10.698740000000001,,0x20,0x00
10.701713000000000,,0x8E,0x00
10.704686000000001,,0x00,0x07
10.707658800000001,,0x31,0x20
10.710631800000000,,0x30,0x04
10.713604800000001,,0x80,0x00
10.716577600000001,,0x94,0xAB
10.752644800000001,,0xB0,0x0B
10.755225599999999,,0x00,0x20
10.758198399999999,,0x20,0x00
10.761171400000000,,0x06,0x00
10.764144399999999,,0x00,0x07
10.767117400000000,,0x31,0x20
10.770090600000000,,0x30,0x04
10.773063400000000,,0x80,0x00
10.776036400000001,,0x0C,0xAB
10.812098799999999,,0xB0,0x0B
10.814685600000001,,0x00,0x20
10.817658600000000,,0x20,0x00
10.820631600000000,,0x8E,0x00
10.823604800000000,,0x00,0x07
10.826577800000001,,0x31,0x20
10.829550800000000,,0x31,0x04
10.832523800000001,,0x80,0x00
10.835496600000001,,0x95,0xAB
10.871677999999999,,0xB0,0x0B
10.874146000000000,,0x00,0x20
10.877118800000000,,0x20,0x00
10.880091600000000,,0x06,0x00
10.883064600000001,,0x00,0x07
10.886037600000000,,0x31,0x20
10.889010400000000,,0x31,0x04
10.891983400000001,,0x80,0x00
10.894956600000000,,0x0D,0xAB
10.931271000000001,,0xB0,0x0B
10.933604799999999,,0x00,0x20
10.936577800000000,,0x20,0x00
10.939551000000000,,0x8E,0x00
10.942524000000001,,0x00,0x07
10.945496800000001,,0x31,0x20
10.948469800000000,,0x31,0x04
10.951442800000001,,0x80,0x00
10.954416000000000,,0x95,0xAB
10.990543000000001,,0xB0,0x0B
10.993065600000000,,0x00,0x20
10.996038600000000,,0x20,0x00
10.999011599999999,,0x06,0x00
11.001984600000000,,0x00,0x07
11.004957599999999,,0x31,0x20
11.007930600000000,,0x31,0x04
11.010903799999999,,0x80,0x00
11.013876800000000,,0x0D,0xAB
11.050120000000000,,0xB0,0x0B
11.052526400000000,,0x00,0x20
11.055499200000000,,0x20,0x00
11.058472399999999,,0x8E,0x00
11.061445200000000,,0x00,0x07
11.064418200000000,,0x31,0x20
11.067391199999999,,0x31,0x04
11.070364200000000,,0x80,0x00
11.073337400000000,,0x95,0xAB
11.109395200000000,,0xB0,0x0B
11.111985600000001,,0x00,0x20
11.114958800000000,,0x20,0x00
11.117931799999999,,0x06,0x00
11.120904800000000,,0x00,0x07
11.123877999999999,,0x31,0x20
11.126851000000000,,0x31,0x04
11.129823999999999,,0x80,0x00
11.132797200000001,,0x0D,0xAB
11.168975600000000,,0xB0,0x0B
11.171447000000001,,0x00,0x20
11.174420000000000,,0x20,0x00
11.177393000000000,,0x8E,0x00
11.180365999999999,,0x00,0x07
11.183339000000000,,0x31,0x20
11.186311999999999,,0x31,0x04
11.189285000000000,,0x80,0x00
11.192258000000001,,0x95,0xAB
11.228569600000000,,0xB0,0x0B
11.230906400000000,,0x00,0x20
11.233879399999999,,0x20,0x00
11.236852200000000,,0x06,0x00
11.239825200000000,,0x00,0x07
11.242798000000001,,0x31,0x20
11.245771000000000,,0x31,0x04
11.248743800000000,,0x80,0x00
11.251716800000001,,0x0D,0xAB
11.287838000000001,,0xB0,0x0B
11.290365200000000,,0x00,0x20
11.293338200000001,,0x20,0x00
11.296311200000000,,0x8E,0x00
11.299284200000001,,0x00,0x07
11.302257200000000,,0x31,0x20
11.305230200000000,,0x31,0x04
11.308203000000001,,0x80,0x00
11.311176000000000,,0x95,0xAB
11.347415399999999,,0xB0,0x0B
11.349823799999999,,0x00,0x20
11.352796800000000,,0x20,0x00
11.355769799999999,,0x06,0x00
11.358742599999999,,0x00,0x07
11.361715400000000,,0x31,0x20
