Time [s],Packet ID,MOSI,MISO
4.513307000000000,0,0xB0,0xFF
4.515890000000000,,0x02,0xFF
4.518866000000000,,0x20,0xFF
4.521843000000000,,0x06,0xFF
4.524819000000000,,0x02,0xFF
4.527795000000000,,0x38,0xFF
4.530771000000000,,0x0E,0xFF
4.533748000000000,,0x81,0xFF
4.536724000000000,,0xF6,0xFF
4.572891000000000,,0xF0,0xFF
4.575416000000000,,0x02,0xFF
4.578392000000000,,0x20,0xFF
4.581368000000000,,0x8E,0xFF
4.584345000000000,,0x02,0xFF
4.587321000000000,,0x38,0xFF
4.590297000000000,,0x0E,0xFF
4.593274000000000,,0x81,0xFF
4.596250000000000,,0x7E,0xFF
4.632459000000000,,0xB0,0xFF
4.634942000000000,,0x02,0xFF
4.637918000000000,,0x20,0xFF
4.640894000000000,,0x06,0xFF
4.643871000000000,,0x03,0xFF
4.646847000000000,,0x38,0xFF
4.649823000000000,,0x0E,0xFF
4.652800000000000,,0x81,0xFF
4.655776000000000,,0xF6,0xFF
4.692043000000000,,0xB0,0xFF
4.694470000000000,,0x02,0xFF
4.697446000000000,,0x20,0xFF
4.700423000000000,,0x8E,0xFF
4.703399000000000,,0x02,0xFF
4.706376000000000,,0x38,0xFF
4.709352000000000,,0x0E,0xFF
4.712329000000000,,0x81,0xFF
4.715305000000000,,0x7E,0xFF
4.751632000000000,,0xB0,0xFF
4.754000000000000,,0x02,0xFF
4.756976000000000,,0x20,0xFF
4.759952000000000,,0x06,0xFF
4.762929000000000,,0x02,0xFF
4.765905000000000,,0x38,0xFF
4.768882000000000,,0x0E,0xFF
4.771858000000000,,0x81,0xFF
4.774835000000000,,0xFE,0xFF
4.810921000000000,,0xB0,0xFF
4.813527000000000,,0x02,0xFF
4.816504000000000,,0x20,0xFF
4.819480000000000,,0x8E,0xFF
4.822456000000000,,0x02,0xFF
4.825433000000000,,0x38,0xFF
4.828409000000000,,0x0E,0xFF
4.831385000000000,,0x81,0xFF
4.834362000000000,,0x7E,0xFF
4.870505000000000,,0xB0,0xFF
4.873055000000000,,0x02,0xFF
4.876032000000000,,0x20,0xFF
4.879008000000000,,0x06,0xFF
4.881985000000000,,0x02,0xFF
4.884961000000000,,0x38,0xFF
4.887937000000000,,0x0E,0xFF
4.890914000000000,,0x81,0xFF
4.893890000000000,,0xF6,0xFF
4.930073000000000,,0xB0,0xFF
4.932583000000000,,0x02,0xFF
4.935559000000000,,0x20,0xFF
4.938536000000000,,0x8E,0xFF
4.941512000000000,,0x02,0xFF
4.944489000000000,,0x38,0xFF
4.947465000000000,,0x0E,0xFF
4.950442000000000,,0xC1,0xFF
4.953418000000000,,0x7E,0xFF
4.989663000000000,,0xB0,0xFF
4.992112000000000,,0x02,0xFF
4.995088000000000,,0x20,0xFF
4.998064000000000,,0x06,0xFF
5.001041000000000,,0x02,0xFF
5.004017000000000,,0x38,0xFF
5.006994000000000,,0x0E,0xFF
5.009970000000000,,0x81,0xFF
5.012946000000000,,0xF6,0xFF
5.049248000000000,,0xB0,0xFF
5.051639000000000,,0x02,0xFF
5.054615000000000,,0x20,0xFF
5.057592000000000,,0x8E,0xFF
5.060568000000000,,0x02,0xFF
5.063545000000000,,0x38,0xFF
5.066521000000000,,0x0E,0xFF
5.069497000000000,,0x81,0xFF
5.072474000000000,,0x7E,0xFF
5.108537000000000,,0xB0,0xFF
5.111167000000000,,0x02,0xFF
5.114144000000000,,0x20,0xFF
5.117120000000000,,0x06,0xFF
5.120096000000000,,0x02,0xFF
5.123073000000000,,0x38,0xFF
5.126049000000000,,0x0E,0xFF
5.129026000000000,,0x81,0xFF
5.132002000000000,,0xF6,0xFF
5.168277000000000,,0xB0,0xFF
5.170695000000000,,0x02,0xFF
5.173671000000000,,0x20,0xFF
5.176647000000000,,0x8E,0xFF
5.179623000000000,,0x02,0xFF
5.182600000000000,,0x38,0xFF
5.185576000000000,,0x0F,0xFF
5.188552000000000,,0xC1,0xFF
5.191529000000000,,0x7F,0xFF
5.227846000000000,,0xF0,0xFF
5.230222000000000,,0x02,0xFF
5.233198000000000,,0x20,0xFF
5.236175000000000,,0x06,0xFF
5.239151000000000,,0x02,0xFF
5.242128000000000,,0x38,0xFF
5.245104000000000,,0x0F,0xFF
5.248081000000000,,0xC1,0xFF
5.251057000000000,,0xF7,0xFF
5.287151000000000,,0xB0,0xFF
5.289751000000000,,0x02,0xFF
5.292728000000000,,0x20,0xFF
5.295704000000000,,0x8E,0xFF
5.298681000000000,,0x02,0xFF
5.301657000000000,,0x38,0xFF
5.304634000000000,,0x0F,0xFF
5.307611000000000,,0x81,0xFF
5.310587000000000,,0x7F,0xFF
5.346739000000000,,0xB0,0xFF
5.349281000000000,,0x02,0xFF
5.352258000000000,,0x20,0xFF
5.355234000000000,,0x06,0xFF
5.358211000000000,,0x02,0xFF
5.361187000000000,,0x38,0xFF
5.364164000000000,,0x0F,0xFF
5.367140000000000,,0x81,0xFF
5.370117000000000,,0xF7,0xFF
5.406311000000000,,0xB0,0xFF
5.408812000000000,,0x02,0xFF
5.411788000000000,,0x20,0xFF
5.414764000000000,,0x8E,0xFF
5.417741000000000,,0x02,0xFF
5.420717000000000,,0x38,0xFF
5.423694000000000,,0x0F,0xFF
5.426670000000000,,0x81,0xFF
5.429646000000000,,0x7F,0xFF
5.465907000000000,,0xB0,0xFF
5.468340000000000,,0x02,0xFF
5.471316000000000,,0x20,0xFF
5.474293000000000,,0x06,0xFF
5.477269000000000,,0x02,0xFF
5.480245000000000,,0x38,0xFF
5.483222000000000,,0x0F,0xFF
5.486198000000000,,0x81,0xFF
5.489175000000000,,0xF7,0xFF
5.525476000000000,,0xB0,0xFF
5.527867000000000,,0x02,0xFF
5.530844000000000,,0x20,0xFF
5.533820000000000,,0x8E,0xFF
5.536797000000000,,0x02,0xFF
5.539773000000000,,0x38,0xFF
5.542750000000000,,0x0F,0xFF
5.545726000000000,,0x81,0xFF
5.548703000000000,,0x7F,0xFF
5.584780000000000,,0xB0,0xFF
5.587397000000000,,0x02,0xFF
5.590374000000000,,0x20,0xFF
5.593350000000000,,0x06,0xFF
5.596327000000000,,0x02,0xFF
5.599303000000000,,0x38,0xFF
5.602280000000000,,0x0F,0xFF
5.605256000000000,,0x81,0xFF
5.608233000000000,,0xF7,0xFF
5.644368000000000,,0xB0,0xFF
5.646926000000000,,0x02,0xFF
5.649903000000000,,0x20,0xFF
5.652879000000000,,0x8E,0xFF
5.655856000000000,,0x02,0xFF
5.658832000000000,,0x38,0xFF
5.661809000000000,,0x0F,0xFF
5.664785000000000,,0x81,0xFF
5.667762000000000,,0x7F,0xFF
5.703940000000000,,0xB0,0xFF
5.706456000000000,,0x02,0xFF
5.709433000000000,,0x20,0xFF
5.712409000000000,,0x06,0xFF
5.715386000000000,,0x02,0xFF
5.718362000000000,,0x38,0xFF
5.721338000000000,,0x0F,0xFF
5.724315000000000,,0x81,0xFF
5.727292000000000,,0xF7,0xFF
5.763528000000000,,0xB0,0xFF
5.765987000000000,,0x02,0xFF
5.768963000000000,,0x20,0xFF
5.771940000000000,,0x8E,0xFF
5.774916000000000,,0x02,0xFF
5.777892000000000,,0x38,0xFF
5.780869000000000,,0x0F,0xFF
5.783845000000000,,0x81,0xFF
5.786822000000000,,0x7F,0xFF
5.823099000000000,,0xB0,0xFF
5.825515000000000,,0x02,0xFF
5.828491000000000,,0x20,0xFF
5.831468000000000,,0x07,0xFF
5.834444000000000,,0x02,0xFF
5.837421000000000,,0x38,0xFF
5.840397000000000,,0x0F,0xFF
5.843373000000000,,0x81,0xFF
5.846350000000000,,0xF7,0xFF
5.882403000000000,,0xB0,0xFF
5.885041000000000,,0x02,0xFF
5.888017000000000,,0x20,0xFF
5.890994000000000,,0x8E,0xFF
5.893970000000000,,0x02,0xFF
5.896946000000000,,0x38,0xFF
5.899922000000000,,0x0F,0xFF
5.902898000000000,,0x81,0xFF
5.905875000000000,,0x7F,0xFF
5.941986000000000,,0xB0,0xFF
5.944566000000000,,0x02,0xFF
5.947542000000000,,0x20,0xFF
5.950518000000000,,0x06,0xFF
5.953494000000000,,0x02,0xFF
5.956471000000000,,0x38,0xFF
5.959447000000000,,0x0F,0xFF
5.962423000000000,,0x81,0xFF
5.965399000000000,,0xF7,0xFF
6.001551000000000,,0xB0,0xFF
6.004090000000000,,0x02,0xFF
6.007066000000000,,0x20,0xFF
6.010042000000000,,0x8E,0xFF
6.013019000000000,,0x03,0xFF
6.015995000000000,,0x38,0xFF
6.018971000000000,,0x0F,0xFF
6.021948000000000,,0x81,0xFF
6.024924000000000,,0x7F,0xFF
6.061136000000000,,0xB0,0xFF
6.063618000000000,,0x02,0xFF
6.066594000000000,,0x20,0xFF
6.069571000000000,,0x06,0xFF
6.072547000000000,,0x02,0xFF
6.075523000000000,,0x38,0xFF
6.078500000000000,,0x0F,0xFF
6.081476000000000,,0x81,0xFF
6.084453000000000,,0xF7,0xFF
6.120706000000000,,0xB0,0xFF
6.123145000000000,,0x02,0xFF
6.126122000000000,,0x20,0xFF
6.129098000000000,,0x8E,0xFF
6.132075000000000,,0x02,0xFF
6.135051000000000,,0x38,0xFF
6.138027000000000,,0x0F,0xFF
6.141004000000000,,0x81,0xFF
6.143980000000000,,0x7F,0xFF
6.180163000000000,,0xB0,0xFF
6.182672000000000,,0x02,0xFF
6.185649000000000,,0x20,0xFF
6.188625000000000,,0x06,0xFF
6.191602000000000,,0x02,0xFF
6.194578000000000,,0x38,0xFF
6.197554000000000,,0x10,0xFF
6.200531000000000,,0x81,0xFF
6.203507000000000,,0xF8,0xFF
6.239750000000000,,0xB0,0xFF
6.242199000000000,,0x02,0xFF
6.245176000000000,,0x20,0xFF
6.248152000000000,,0x8E,0xFF
6.251129000000000,,0x02,0xFF
6.254105000000000,,0x38,0xFF
6.257081000000000,,0x10,0xFF
6.260057000000000,,0x81,0xFF
6.263034000000000,,0x80,0xFF
6.299321000000000,,0xB0,0xFF
6.301727000000000,,0x02,0xFF
6.304704000000000,,0x30,0xFF
6.307680000000000,,0x06,0xFF
6.310656000000000,,0x02,0xFF
6.313633000000000,,0x38,0xFF
6.316609000000000,,0x10,0xFF
6.319585000000000,,0x81,0xFF
6.322562000000000,,0xF8,0xFF
6.358627000000000,,0xB0,0xFF
6.361256000000000,,0x02,0xFF
6.364232000000000,,0x20,0xFF
6.367209000000000,,0xCE,0xFF
6.370185000000000,,0x02,0xFF
6.373161000000000,,0x38,0xFF
6.376138000000000,,0x18,0xFF
6.379114000000000,,0x81,0xFF
6.382090000000000,,0x80,0xFF
6.418199000000000,,0xB0,0xFF
6.420785000000000,,0x02,0xFF
6.423761000000000,,0x20,0xFF
6.426737000000000,,0x06,0xFF
6.429714000000000,,0x02,0xFF
6.432690000000000,,0x38,0xFF
6.435666000000000,,0x10,0xFF
6.438643000000000,,0x81,0xFF
6.441619000000000,,0xF8,0xFF
6.477793000000000,,0xB0,0xFF
6.480313000000000,,0x02,0xFF
6.483290000000000,,0x20,0xFF
6.486266000000000,,0x8E,0xFF
6.489243000000000,,0x02,0xFF
6.492220000000000,,0x3C,0xFF
6.495196000000000,,0x10,0xFF
6.498173000000000,,0x81,0xFF
6.501149000000000,,0x80,0xFF
6.537382000000000,,0xB0,0xFF
6.539844000000000,,0x02,0xFF
6.542821000000000,,0x20,0xFF
6.545797000000000,,0x06,0xFF
6.548773000000000,,0x02,0xFF
6.551750000000000,,0x38,0xFF
6.554726000000000,,0x10,0xFF
6.557703000000000,,0x81,0xFF
6.560679000000000,,0xF8,0xFF
6.596954000000000,,0xB0,0xFF
6.599372000000000,,0x02,0xFF
6.602349000000000,,0x20,0xFF
6.605325000000000,,0x8E,0xFF
6.608302000000000,,0x02,0xFF
6.611278000000000,,0x38,0xFF
6.614255000000000,,0x10,0xFF
6.617231000000000,,0x81,0xFF
6.620207000000000,,0x80,0xFF
6.656260000000000,,0xB0,0xFF
6.658901000000000,,0x02,0xFF
6.661878000000000,,0x20,0xFF
6.664854000000000,,0x06,0xFF
6.667830000000000,,0x02,0xFF
6.670807000000000,,0x38,0xFF
6.673783000000000,,0x10,0xFF
6.676760000000000,,0x81,0xFF
6.679737000000000,,0xF8,0xFF
6.715830000000000,,0xB0,0xFF
6.718430000000000,,0x02,0xFF
6.721407000000000,,0x20,0xFF
6.724383000000000,,0x8E,0xFF
6.727360000000000,,0x02,0xFF
6.730336000000000,,0x38,0xFF
6.733312000000000,,0x10,0xFF
6.736289000000000,,0x81,0xFF
6.739265000000000,,0x80,0xFF
6.775415000000000,,0xB0,0xFF
6.777957000000000,,0x02,0xFF
6.780933000000000,,0x20,0xFF
6.783909000000000,,0x06,0xFF
6.786885000000000,,0x02,0xFF
6.789862000000000,,0x38,0xFF
6.792838000000000,,0x10,0xFF
6.795814000000000,,0x81,0xFF
6.798791000000000,,0xF8,0xFF
6.834999000000000,,0xB0,0xFF
6.837483000000000,,0x02,0xFF
6.840460000000000,,0x20,0xFF
6.843436000000000,,0x8E,0xFF
6.846412000000000,,0x02,0xFF
6.849389000000000,,0x38,0xFF
6.852365000000000,,0x10,0xFF
6.855341000000000,,0x81,0xFF
6.858318000000000,,0x80,0xFF
6.894569000000000,,0xB0,0xFF
6.897012000000000,,0x02,0xFF
6.899988000000000,,0x20,0xFF
6.902965000000000,,0x06,0xFF
6.905941000000000,,0x02,0xFF
6.908918000000000,,0x38,0xFF
6.911894000000000,,0x10,0xFF
6.914871000000000,,0x81,0xFF
6.917848000000000,,0xF8,0xFF
6.954157000000000,,0xB0,0xFF
6.956542000000000,,0x02,0xFF
6.959518000000000,,0x20,0xFF
6.962495000000000,,0x8E,0xFF
6.965472000000000,,0x02,0xFF
6.968448000000000,,0x38,0xFF
6.971425000000000,,0x10,0xFF
6.974401000000000,,0x81,0xFF
6.977378000000000,,0x80,0xFF
7.013448000000000,,0xB0,0xFF
7.016073000000000,,0x03,0xFF
7.019049000000000,,0x20,0xFF
7.022026000000000,,0x06,0xFF
7.025002000000000,,0x02,0xFF
7.027979000000000,,0x38,0xFF
7.030955000000000,,0x10,0xFF
7.033932000000000,,0x81,0xFF
7.036908000000000,,0xF8,0xFF
7.073036000000000,,0xB0,0xFF
7.075603000000000,,0x02,0xFF
7.078579000000000,,0x20,0xFF
7.081556000000000,,0x8E,0xFF
7.084532000000000,,0x02,0xFF
7.087509000000000,,0x38,0xFF
7.090485000000000,,0x10,0xFF
7.093461000000000,,0x81,0xFF
7.096438000000000,,0x80,0xFF
7.132635000000000,,0xB0,0xFF
7.135132000000000,,0x02,0xFF
7.138108000000000,,0x20,0xFF
7.141085000000000,,0x06,0xFF
7.144061000000000,,0x02,0xFF
7.147038000000000,,0x38,0xFF
7.150014000000000,,0x10,0xFF
7.152991000000000,,0x81,0xFF
7.155967000000000,,0xF8,0xFF
7.192065000000000,,0xB0,0xFF
7.194661000000000,,0x02,0xFF
7.197638000000000,,0x20,0xFF
7.200614000000000,,0x8E,0xFF
7.203590000000000,,0x02,0xFF
7.206567000000000,,0x38,0xFF
7.209543000000000,,0x11,0xFF
7.212520000000000,,0x81,0xFF
7.215496000000000,,0x81,0xFF
7.251652000000000,,0xF0,0xFF
7.254191000000000,,0x02,0xFF
7.257167000000000,,0x20,0xFF
7.260144000000000,,0x06,0xFF
7.263120000000000,,0x02,0xFF
7.266097000000000,,0x38,0xFF
7.269073000000000,,0x11,0xFF
7.272049000000000,,0x81,0xFF
7.275026000000000,,0xF9,0xFF
7.311219000000000,,0xB0,0xFF
7.313718000000000,,0x02,0xFF
7.316694000000000,,0x20,0xFF
7.319671000000000,,0x8F,0xFF
7.322647000000000,,0x02,0xFF
7.325623000000000,,0x38,0xFF
7.328600000000000,,0x11,0xFF
7.331576000000000,,0x81,0xFF
7.334552000000000,,0x81,0xFF
7.370805000000000,,0xB0,0xFF
7.373244000000000,,0x02,0xFF
7.376221000000000,,0x20,0xFF
7.379197000000000,,0x06,0xFF
7.382173000000000,,0x02,0xFF
7.385150000000000,,0x38,0xFF
7.388126000000000,,0x11,0xFF
7.391102000000000,,0x81,0xFF
7.394079000000000,,0xF9,0xFF
7.430395000000000,,0xB0,0xFF
7.432771000000000,,0x02,0xFF
7.435747000000000,,0x20,0xFF
7.438724000000000,,0x8E,0xFF
7.441700000000000,,0x02,0xFF
7.444677000000000,,0x38,0xFF
7.447653000000000,,0x11,0xFF
7.450629000000000,,0x81,0xFF
7.453606000000000,,0x81,0xFF
7.489682000000000,,0xB0,0xFF
7.492299000000000,,0x02,0xFF
7.495275000000000,,0x20,0xFF
7.498251000000000,,0x06,0xFF
7.501228000000000,,0x02,0xFF
7.504204000000000,,0x38,0xFF
7.507180000000000,,0x11,0xFF
7.510157000000000,,0x81,0xFF
7.513133000000000,,0xF9,0xFF
7.549267000000000,,0xF0,0xFF
7.551826000000000,,0x02,0xFF
7.554803000000000,,0x20,0xFF
7.557779000000000,,0x8E,0xFF
7.560756000000000,,0x02,0xFF
7.563732000000000,,0x38,0xFF
7.566709000000000,,0x11,0xFF
7.569685000000000,,0x81,0xFF
7.572662000000000,,0x81,0xFF
7.608839000000000,,0xB0,0xFF
7.611355000000000,,0x02,0xFF
7.614332000000000,,0x20,0xFF
7.617308000000000,,0x06,0xFF
7.620284000000000,,0x02,0xFF
7.623261000000000,,0x38,0xFF
7.626237000000000,,0x11,0xFF
7.629214000000000,,0x81,0xFF
7.632190000000000,,0xF9,0xFF
7.668425000000000,,0xB0,0xFF
7.670883000000000,,0x02,0xFF
7.673859000000000,,0x20,0xFF
7.676836000000000,,0x8E,0xFF
7.679812000000000,,0x02,0xFF
7.682789000000000,,0x38,0xFF
7.685765000000000,,0x11,0xFF
7.688741000000000,,0x81,0xFF
7.691718000000000,,0x81,0xFF
7.728011000000000,,0xB0,0xFF
7.730411000000000,,0x02,0xFF
7.733388000000000,,0x20,0xFF
7.736364000000000,,0x06,0xFF
7.739341000000000,,0x02,0xFF
7.742317000000000,,0x38,0xFF
7.745294000000000,,0x11,0xFF
7.748270000000000,,0xC1,0xFF
7.751247000000000,,0xF9,0xFF
7.787305000000000,,0xB0,0xFF
7.789944000000000,,0x02,0xFF
7.792920000000000,,0x20,0xFF
7.795897000000000,,0x8E,0xFF
7.798874000000000,,0x02,0xFF
7.801850000000000,,0x38,0xFF
7.804827000000000,,0x11,0xFF
7.807803000000000,,0x81,0xFF
7.810780000000000,,0x81,0xFF
7.846896000000000,,0xB0,0xFF
7.849476000000000,,0x02,0xFF
7.852452000000000,,0x20,0xFF
7.855429000000000,,0x06,0xFF
7.858405000000000,,0x02,0xFF
7.861382000000000,,0x38,0xFF
7.864358000000000,,0x11,0xFF
7.867335000000000,,0x81,0xFF
7.870311000000000,,0xF9,0xFF
7.906466000000000,,0xB0,0xFF
7.909005000000000,,0x02,0xFF
7.911981000000000,,0x20,0xFF
7.914958000000000,,0x8E,0xFF
7.917934000000000,,0x02,0xFF
7.920911000000000,,0x38,0xFF
7.923887000000000,,0x11,0xFF
7.926863000000000,,0x81,0xFF
7.929840000000000,,0x81,0xFF
7.966053000000000,,0xB0,0xFF
7.968534000000000,,0x02,0xFF
7.971510000000000,,0x20,0xFF
7.974487000000000,,0x06,0xFF
7.977463000000000,,0x02,0xFF
7.980439000000000,,0x38,0xFF
7.983416000000000,,0x11,0xFF
7.986392000000000,,0x81,0xFF
7.989369000000000,,0xF9,0xFF
8.025638000000001,,0xB0,0xFF
8.028062000000000,,0x02,0xFF
8.031038000000001,,0x20,0xFF
8.034014000000001,,0x8E,0xFF
8.036991000000000,,0x02,0xFF
8.039967000000001,,0x38,0xFF
8.042944000000000,,0x11,0xFF
8.045920000000001,,0x81,0xFF
8.048895999999999,,0x81,0xFF
8.085210000000000,,0xB0,0xFF
8.087588999999999,,0x02,0xFF
8.090566000000001,,0x20,0xFF
8.093541999999999,,0x06,0xFF
8.096519000000001,,0x02,0xFF
8.099494999999999,,0x38,0xFF
8.102472000000001,,0x11,0xFF
8.105448000000001,,0x81,0xFF
8.108425000000000,,0xF9,0xFF
8.144671000000001,,0xB0,0xFF
8.147119000000000,,0x02,0xFF
8.150096000000000,,0x20,0xFF
8.153072000000000,,0x8E,0xFF
8.156048000000000,,0x02,0xFF
8.159025000000000,,0x38,0xFF
8.162001000000000,,0x12,0xFF
8.164978000000000,,0x81,0xFF
8.167954000000000,,0x82,0xFF
8.204242000000001,,0xB0,0xFF
8.206647999999999,,0x02,0xFF
8.209625000000001,,0x20,0xFF
8.212600999999999,,0x06,0xFF
8.215578000000001,,0x02,0xFF
8.218555000000000,,0x38,0xFF
8.221531000000001,,0x12,0xFF
8.224506999999999,,0x81,0xFF
8.227484000000000,,0xFA,0xFF
8.263546000000000,,0xB0,0xFF
8.266177000000001,,0x02,0xFF
8.269152999999999,,0x20,0xFF
8.272130000000001,,0x8E,0xFF
8.275105999999999,,0x02,0xFF
8.278083000000001,,0x38,0xFF
8.281059000000001,,0x12,0xFF
8.284036000000000,,0x81,0xFF
8.287012000000001,,0x82,0xFF
8.323134000000000,,0xB0,0xFF
8.325707000000000,,0x02,0xFF
8.328683000000000,,0x20,0xFF
8.331659999999999,,0x06,0xFF
8.334636000000000,,0x02,0xFF
8.337612999999999,,0x3C,0xFF
8.340589000000000,,0x12,0xFF
8.343565999999999,,0x81,0xFF
8.346541999999999,,0xFA,0xFF
8.382705000000000,,0xB0,0xFF
8.385237000000000,,0x02,0xFF
8.388213000000000,,0x20,0xFF
8.391190000000000,,0x8E,0xFF
8.394166000000000,,0x02,0xFF
8.397143000000000,,0x38,0xFF
8.400119000000000,,0x12,0xFF
8.403095000000000,,0x81,0xFF
8.406072000000000,,0x82,0xFF
8.442299999999999,,0xB0,0xFF
8.444766000000000,,0x02,0xFF
8.447742000000000,,0x20,0xFF
8.450718999999999,,0x06,0xFF
8.453696000000001,,0x02,0xFF
8.456671999999999,,0x38,0xFF
8.459649000000001,,0x12,0xFF
8.462624999999999,,0x81,0xFF
8.465602000000001,,0xFA,0xFF
8.501873000000000,,0xB0,0xFF
8.504296000000000,,0x02,0xFF
8.507272000000000,,0x20,0xFF
8.510248000000001,,0x8E,0xFF
8.513225000000000,,0x02,0xFF
8.516201000000001,,0x38,0xFF
8.519178000000000,,0x12,0xFF
8.522154000000000,,0x81,0xFF
8.525130000000001,,0x82,0xFF
8.561457000000001,,0xB0,0xFF
8.563821000000001,,0x02,0xFF
8.566798000000000,,0x30,0xFF
8.569774000000001,,0x06,0xFF
8.572749999999999,,0x02,0xFF
8.575726000000000,,0x38,0xFF
8.578702000000000,,0x12,0xFF
8.581678000000000,,0x81,0xFF
8.584655000000000,,0xFB,0xFF
8.620760000000001,,0xB0,0xFF
8.623347000000001,,0x02,0xFF
8.626324000000000,,0x20,0xFF
8.629300000000001,,0x8E,0xFF
8.632275999999999,,0x02,0xFF
8.635251999999999,,0x38,0xFF
8.638229000000001,,0x12,0xFF
8.641204999999999,,0x81,0xFF
8.644181000000000,,0x82,0xFF
8.680327999999999,,0xB0,0xFF
8.682873000000001,,0x02,0xFF
8.685848999999999,,0x20,0xFF
8.688826000000001,,0x06,0xFF
8.691801999999999,,0x02,0xFF
8.694777999999999,,0x38,0xFF
8.697755000000001,,0x12,0xFF
8.700730999999999,,0x81,0xFF
8.703708000000001,,0xFA,0xFF
8.739913000000000,,0xB0,0xFF
8.742400000000000,,0x02,0xFF
8.745377000000000,,0x20,0xFF
8.748353000000000,,0x8E,0xFF
8.751329000000000,,0x02,0xFF
8.754306000000000,,0x38,0xFF
8.757282000000000,,0x12,0xFF
8.760259000000000,,0x81,0xFF
8.763235000000000,,0x82,0xFF
8.799484000000000,,0xB8,0xFF
8.801928000000000,,0x02,0xFF
8.804905000000000,,0x20,0xFF
8.807881000000000,,0x06,0xFF
8.810857000000000,,0x02,0xFF
8.813834000000000,,0x38,0xFF
8.816810000000000,,0x12,0xFF
8.819786000000001,,0x81,0xFF
8.822763000000000,,0xFA,0xFF
8.859069999999999,,0xB8,0xFF
8.861454999999999,,0x02,0xFF
8.864432000000001,,0x20,0xFF
8.867407999999999,,0x8E,0xFF
8.870385000000001,,0x02,0xFF
8.873360999999999,,0x38,0xFF
8.876336999999999,,0x12,0xFF
8.879314000000001,,0x81,0xFF
8.882289999999999,,0x82,0xFF
8.918373000000001,,0xB0,0xFF
8.920983000000000,,0x02,0xFF
8.923959000000000,,0x20,0xFF
8.926936000000000,,0x06,0xFF
8.929912000000000,,0x02,0xFF
8.932888999999999,,0x38,0xFF
8.935865000000000,,0x12,0xFF
8.938841999999999,,0x81,0xFF
8.941818000000000,,0xFA,0xFF
8.977942000000001,,0xB0,0xFF
8.980511000000000,,0x02,0xFF
8.983487000000000,,0x20,0xFF
8.986464000000000,,0x8E,0xFF
8.989440000000000,,0x02,0xFF
8.992416000000000,,0x38,0xFF
8.995393000000000,,0x12,0xFF
8.998369000000000,,0x81,0xFF
9.001346000000000,,0x82,0xFF
9.037525000000000,,0xB0,0xFF
9.040037999999999,,0x02,0xFF
9.043013999999999,,0x20,0xFF
9.045990000000000,,0x06,0xFF
9.048966999999999,,0x02,0xFF
9.051943000000000,,0x38,0xFF
9.054919000000000,,0x12,0xFF
9.057896000000000,,0x81,0xFF
9.060872000000000,,0xFA,0xFF
9.097096000000001,,0xB0,0xFF
9.099565000000000,,0x02,0xFF
9.102541000000000,,0x20,0xFF
9.105518000000000,,0x8E,0xFF
9.108494000000000,,0x02,0xFF
9.111470000000001,,0x38,0xFF
9.114447000000000,,0x12,0xFF
9.117423000000000,,0x81,0xFF
9.120399000000001,,0x82,0xFF
9.156553000000001,,0xB0,0xFF
9.159091000000000,,0x02,0xFF
9.162068000000000,,0x20,0xFF
9.165044000000000,,0x06,0xFF
9.168020000000000,,0x02,0xFF
9.170996000000001,,0x38,0xFF
9.173973000000000,,0x13,0xFF
9.176949000000000,,0x81,0xFF
9.179926000000000,,0xFB,0xFF
9.216135000000000,,0xF0,0xFF
9.218617999999999,,0x02,0xFF
9.221594000000000,,0x20,0xFF
9.224570000000000,,0x8E,0xFF
9.227546000000000,,0x02,0xFF
9.230523000000000,,0x38,0xFF
9.233499000000000,,0x13,0xFF
9.236475000000000,,0x81,0xFF
9.239451000000001,,0x83,0xFF
9.275705000000000,,0xB0,0xFF
9.278143999999999,,0x02,0xFF
9.281121000000001,,0x20,0xFF
9.284096999999999,,0x06,0xFF
9.287074000000000,,0x02,0xFF
9.290050000000001,,0x38,0xFF
9.293027000000000,,0x13,0xFF
9.296003000000001,,0x81,0xFF
9.298980000000000,,0xFB,0xFF
9.335293999999999,,0xB0,0xFF
9.337676000000000,,0x02,0xFF
9.340652000000000,,0x20,0xFF
9.343629000000000,,0x8E,0xFF
9.346605000000000,,0x02,0xFF
9.349582000000000,,0x38,0xFF
9.352558000000000,,0x13,0xFF
9.355534000000000,,0x81,0xFF
9.358511000000000,,0x83,0xFF
9.394583000000001,,0xB0,0xFF
9.397205000000000,,0x02,0xFF
9.400181999999999,,0x20,0xFF
9.403159000000000,,0x06,0xFF
9.406135000000001,,0x02,0xFF
9.409110999999999,,0x38,0xFF
9.412088000000001,,0x13,0xFF
9.415063999999999,,0x81,0xFF
9.418041000000001,,0xFB,0xFF
9.454176000000000,,0xB8,0xFF
9.456735000000000,,0x02,0xFF
9.459711000000000,,0x20,0xFF
9.462688000000000,,0x8E,0xFF
9.465664000000000,,0x02,0xFF
9.468641000000000,,0x38,0xFF
9.471617000000000,,0x13,0xFF
9.474594000000000,,0x81,0xFF
9.477570000000000,,0x83,0xFF
9.513764999999999,,0xB0,0xFF
9.516265000000001,,0x02,0xFF
9.519242000000000,,0x20,0xFF
9.522218000000001,,0x06,0xFF
9.525194000000001,,0x02,0xFF
9.528171000000000,,0x38,0xFF
9.531147000000001,,0x13,0xFF
9.534124000000000,,0x81,0xFF
9.537100000000001,,0xFB,0xFF
9.573337000000000,,0xB0,0xFF
9.575794999999999,,0x02,0xFF
9.578771000000000,,0x20,0xFF
9.581747999999999,,0x8E,0xFF
9.584724000000000,,0x02,0xFF
9.587700999999999,,0x38,0xFF
9.590676999999999,,0x13,0xFF
9.593653000000000,,0x81,0xFF
9.596629999999999,,0x83,0xFF
9.632925999999999,,0xB0,0xFF
9.635325000000000,,0x02,0xFF
9.638301000000000,,0x20,0xFF
9.641278000000000,,0x06,0xFF
9.644254000000000,,0x02,0xFF
9.647230000000000,,0x38,0xFF
9.650207000000000,,0x13,0xFF
9.653183000000000,,0x81,0xFF
9.656160000000000,,0xFB,0xFF
9.692214000000000,,0xB0,0xFF
9.694853000000000,,0x02,0xFF
9.697829000000000,,0x20,0xFF
9.700806000000000,,0xCE,0xFF
9.703782000000000,,0x02,0xFF
9.706758000000001,,0x38,0xFF
9.709733999999999,,0x13,0xFF
9.712711000000001,,0xC1,0xFF
9.715687000000001,,0x83,0xFF
9.751803000000001,,0xB0,0xFF
9.754381000000000,,0x02,0xFF
9.757358000000000,,0x20,0xFF
9.760334000000000,,0x06,0xFF
9.763311000000000,,0x02,0xFF
9.766287000000000,,0x38,0xFF
9.769264000000000,,0x13,0xFF
9.772240999999999,,0x81,0xFF
9.775217000000000,,0xFB,0xFF
9.811388000000001,,0xB0,0xFF
9.813910999999999,,0x02,0xFF
9.816888000000001,,0x20,0xFF
9.819864000000001,,0x8E,0xFF
9.822841000000000,,0x02,0xFF
9.825818000000000,,0x38,0xFF
9.828794000000000,,0x13,0xFF
9.831771000000000,,0x81,0xFF
9.834747000000000,,0x83,0xFF
9.870965000000000,,0xB0,0xFF
9.873443000000000,,0x02,0xFF
9.876420000000000,,0x20,0xFF
9.879397000000001,,0x06,0xFF
9.882372999999999,,0x02,0xFF
9.885350000000001,,0x38,0xFF
9.888325999999999,,0x13,0xFF
9.891303000000001,,0x81,0xFF
9.894280000000000,,0xFF,0xFF
9.930552000000000,,0xB0,0xFF
9.932975000000001,,0x02,0xFF
9.935950999999999,,0x20,0xFF
9.938928000000001,,0x8E,0xFF
9.941903999999999,,0x02,0xFF
9.944881000000001,,0x38,0xFF
9.947857000000001,,0x13,0xFF
9.950834000000000,,0x81,0xFF
9.953810000000001,,0x83,0xFF
9.990126000000000,,0xB0,0xFF
9.992505000000000,,0x02,0xFF
9.995482000000001,,0x20,0xFF
9.998459000000000,,0x06,0xFF
10.001435000000001,,0x02,0xFF
10.004412000000000,,0x38,0xFF
10.007388000000001,,0x13,0xFF
10.010365000000000,,0x81,0xFF
10.013341000000000,,0xFB,0xFF
10.049434000000000,,0xB0,0xFF
10.052037000000000,,0x02,0xFF
10.055013000000001,,0x20,0xFF
10.057990000000000,,0x8E,0xFF
10.060967000000000,,0x02,0xFF
10.063943000000000,,0x38,0xFF
10.066920000000000,,0x1B,0xFF
10.069896000000000,,0x81,0xFF
10.072873000000000,,0x83,0xFF
10.109037000000001,,0xB0,0xFF
10.111568000000000,,0x02,0xFF
10.114545000000000,,0x20,0xFF
10.117521000000000,,0x06,0xFF
10.120498000000000,,0x02,0xFF
10.123474000000000,,0x38,0xFF
10.126450999999999,,0x13,0xFF
10.129427000000000,,0x81,0xFF
10.132403999999999,,0xFB,0xFF
10.168469000000000,,0xB0,0xFF
10.171099999999999,,0x02,0xFF
10.174077000000000,,0x20,0xFF
10.177053000000001,,0x8E,0xFF
10.180030000000000,,0x02,0xFF
10.183007000000000,,0x38,0xFF
10.185983000000000,,0x14,0xFF
10.188960000000000,,0x81,0xFF
10.191936999999999,,0x84,0xFF
10.228061000000000,,0xB0,0xFF
10.230632000000000,,0x02,0xFF
10.233609000000000,,0x20,0xFF
10.236586000000001,,0x07,0xFF
10.239561999999999,,0x02,0xFF
10.242539000000001,,0x38,0xFF
10.245516000000000,,0x16,0xFF
10.248492000000001,,0x81,0xFF
10.251469000000000,,0xFC,0xFF
10.287635000000000,,0xB0,0xFF
10.290165000000000,,0x02,0xFF
10.293141000000000,,0x20,0xFF
10.296118000000000,,0x8E,0xFF
10.299094999999999,,0x02,0xFF
10.302071000000000,,0x38,0xFF
10.305047999999999,,0x14,0xFF
10.308024000000000,,0x81,0xFF
10.311000999999999,,0x84,0xFF
10.347227000000000,,0xB0,0xFF
10.349696000000000,,0x02,0xFF
10.352672999999999,,0x20,0xFF
10.355649000000000,,0x06,0xFF
10.358625999999999,,0x02,0xFF
10.361602000000000,,0x38,0xFF
10.364579000000001,,0x14,0xFF
10.367554999999999,,0x81,0xFF
10.370532000000001,,0xFC,0xFF
10.406822999999999,,0xB0,0xFF
10.409227000000000,,0x02,0xFF
10.412203999999999,,0x20,0xFF
10.415179999999999,,0x8E,0xFF
10.418157000000001,,0x02,0xFF
10.421132999999999,,0x38,0xFF
10.424110000000001,,0x14,0xFF
10.427087000000000,,0xC1,0xFF
10.430063000000001,,0x84,0xFF
10.466115000000000,,0xB0,0xFF
10.468759000000000,,0x02,0xFF
10.471735000000001,,0x20,0xFF
10.474712000000000,,0x06,0xFF
10.477689000000000,,0x02,0xFF
10.480665000000000,,0x38,0xFF
10.483642000000000,,0x14,0xFF
10.486618000000000,,0x81,0xFF
10.489595000000000,,0xFC,0xFF
10.525706000000000,,0xB0,0xFF
10.528290000000000,,0x02,0xFF
10.531267000000000,,0x20,0xFF
10.534243000000000,,0x8E,0xFF
10.537219000000000,,0x02,0xFF
10.540196000000000,,0x38,0xFF
10.543172999999999,,0x1C,0xFF
10.546149000000000,,0x81,0xFF
10.549125999999999,,0x84,0xFF
10.585279000000000,,0xB0,0xFF
10.587821000000000,,0x02,0xFF
10.590797000000000,,0x20,0xFF
10.593774000000000,,0x06,0xFF
10.596750000000000,,0x02,0xFF
10.599727000000000,,0x38,0xFF
10.602703000000000,,0x14,0xFF
10.605680000000000,,0x81,0xFF
10.608656000000000,,0xFC,0xFF
10.644868000000001,,0xF0,0xFF
10.647352000000000,,0x02,0xFF
10.650328999999999,,0x20,0xFF
10.653306000000001,,0x8E,0xFF
10.656281999999999,,0x02,0xFF
10.659259000000000,,0x38,0xFF
10.662235000000001,,0x14,0xFF
10.665212000000000,,0x81,0xFF
10.668189000000000,,0x84,0xFF
10.704458000000001,,0xB0,0xFF
10.706884000000001,,0x02,0xFF
10.709861000000000,,0x20,0xFF
10.712837000000000,,0x06,0xFF
10.715814000000000,,0x02,0xFF
10.718790000000000,,0x38,0xFF
10.721766000000001,,0x14,0xFF
10.724743000000000,,0x81,0xFF
10.727719000000000,,0xFC,0xFF
10.764030000000000,,0xB0,0xFF
10.766413999999999,,0x02,0xFF
10.769390000000000,,0x20,0xFF
10.772366999999999,,0x8E,0xFF
10.775342999999999,,0x02,0xFF
10.778320000000001,,0x38,0xFF
10.781295999999999,,0x14,0xFF
10.784273000000001,,0x81,0xFF
10.787248999999999,,0x84,0xFF
10.823335999999999,,0xB0,0xFF
10.825943000000001,,0x02,0xFF
10.828920000000000,,0x20,0xFF
10.831896000000000,,0x06,0xFF
10.834873000000000,,0x02,0xFF
10.837849000000000,,0x38,0xFF
10.840825000000001,,0x14,0xFF
10.843800999999999,,0x81,0xFF
10.846778000000000,,0xFC,0xFF
10.882906000000000,,0xB0,0xFF
10.885472999999999,,0x02,0xFF
10.888449000000000,,0x20,0xFF
10.891425999999999,,0x8E,0xFF
10.894401999999999,,0x02,0xFF
10.897379000000001,,0x38,0xFF
10.900354999999999,,0x14,0xFF
10.903332000000001,,0x81,0xFF
10.906307999999999,,0x84,0xFF
10.942494999999999,,0xB0,0xFF
10.945002000000001,,0x02,0xFF
10.947979000000000,,0x20,0xFF
10.950955000000000,,0x06,0xFF
10.953932000000000,,0x02,0xFF
10.956908000000000,,0x38,0xFF
10.959885000000000,,0x14,0xFF
10.962861000000000,,0x81,0xFF
10.965838000000000,,0xFC,0xFF
11.002084999999999,,0xB0,0xFF
11.004533000000000,,0x02,0xFF
11.007510000000000,,0x20,0xFF
11.010486000000000,,0x8E,0xFF
11.013463000000000,,0x02,0xFF
11.016439000000000,,0x38,0xFF
11.019416000000000,,0x14,0xFF
11.022392999999999,,0x81,0xFF
11.025369000000000,,0x84,0xFF
11.061659000000001,,0xB0,0xFF
11.064064999999999,,0x02,0xFF
11.067042000000001,,0x20,0xFF
11.070017999999999,,0x06,0xFF
11.072995000000001,,0x02,0xFF
11.075970999999999,,0x38,0xFF
11.078948000000000,,0x14,0xFF
11.081924000000001,,0x81,0xFF
11.084901000000000,,0xFC,0xFF
11.121117000000000,,0xB0,0xFF
11.123594000000001,,0x02,0xFF
11.126571000000000,,0x20,0xFF
11.129547000000001,,0x8E,0xFF
11.132524000000000,,0x02,0xFF
11.135500000000000,,0x38,0xFF
11.138477000000000,,0x15,0xFF
11.141453000000000,,0x81,0xFF
11.144429000000001,,0x85,0xFF
11.180690000000000,,0xB0,0xFF
11.183123999999999,,0x02,0xFF
11.186100000000000,,0x20,0xFF
11.189076999999999,,0x06,0xFF
11.192053000000000,,0x02,0xFF
11.195029000000000,,0x38,0xFF
11.198005999999999,,0x15,0xFF
11.200982000000000,,0x81,0xFF
11.203958000000000,,0xFD,0xFF
11.240277000000001,,0xB0,0xFF
11.242652000000000,,0x02,0xFF
11.245628000000000,,0x20,0xFF
11.248605000000000,,0x8E,0xFF
11.251581000000000,,0x02,0xFF
11.254557000000000,,0x38,0xFF
11.257534000000000,,0x15,0xFF
11.260510000000000,,0x81,0xFF
11.263487000000000,,0x85,0xFF
11.299585000000000,,0xB0,0xFF
11.302180999999999,,0x02,0xFF
11.305158000000000,,0x20,0xFF
11.308134000000001,,0x06,0xFF
11.311111000000000,,0x02,0xFF
11.314087000000001,,0x38,0xFF
11.317064000000000,,0x15,0xFF
11.320040000000001,,0x81,0xFF
11.323017000000000,,0xFD,0xFF
11.359156000000000,,0xB0,0xFF
11.361713000000000,,0x02,0xFF
11.364689000000000,,0x20,0xFF
11.367666000000000,,0x8E,0xFF
11.370642000000000,,0x02,0xFF
11.373619000000000,,0x38,0xFF
11.376595000000000,,0x15,0xFF
11.379572000000000,,0x81,0xFF
11.382548000000000,,0x85,0xFF
11.418749999999999,,0xB0,0xFF
11.421243000000000,,0x02,0xFF
11.424220000000000,,0x20,0xFF
11.427197000000000,,0x06,0xFF
11.430173000000000,,0x02,0xFF
11.433149999999999,,0x38,0xFF
11.436126000000000,,0x15,0xFF
11.439102999999999,,0x81,0xFF
11.442079000000000,,0xFD,0xFF
11.478325999999999,,0xB0,0xFF
11.480774000000000,,0x02,0xFF
11.483751000000000,,0x20,0xFF
11.486727000000000,,0x8E,0xFF
11.489704000000000,,0x02,0xFF
11.492680000000000,,0x38,0xFF
11.495657000000000,,0x15,0xFF
11.498633000000000,,0x81,0xFF
11.501609999999999,,0x85,0xFF
11.537914000000001,,0xB0,0xFF
11.540305000000000,,0x02,0xFF
11.543282000000000,,0x30,0xFF
11.546258000000000,,0x06,0xFF
11.549234999999999,,0x02,0xFF
11.552211000000000,,0x38,0xFF
11.555187999999999,,0x15,0xFF
11.558164000000000,,0x81,0xFF
11.561140999999999,,0xFD,0xFF
11.597220999999999,,0xB0,0xFF
11.599836000000000,,0x02,0xFF
11.602812999999999,,0x20,0xFF
11.605789000000000,,0x8E,0xFF
11.608765999999999,,0x02,0xFF
11.611742000000000,,0x38,0xFF
11.614718999999999,,0x15,0xFF
11.617696000000000,,0x81,0xFF
11.620672000000001,,0x85,0xFF
11.656796000000000,,0xB0,0xFF
11.659367000000000,,0x02,0xFF
11.662343999999999,,0x20,0xFF
11.665319999999999,,0x06,0xFF
11.668297000000001,,0x02,0xFF
11.671274000000000,,0x38,0xFF
11.674250000000001,,0x15,0xFF
11.677227000000000,,0x81,0xFF
11.680203000000001,,0xFD,0xFF
11.716386000000000,,0xB0,0xFF
11.718899000000000,,0x02,0xFF
11.721875000000001,,0x20,0xFF
11.724852000000000,,0x8E,0xFF
11.727828000000001,,0x02,0xFF
11.730805000000000,,0x38,0xFF
11.733781000000000,,0x15,0xFF
11.736758000000000,,0x81,0xFF
11.739735000000000,,0x85,0xFF
11.775961000000001,,0xB0,0xFF
11.778430000000000,,0x02,0xFF
11.781406000000000,,0x20,0xFF
11.784383000000000,,0x06,0xFF
11.787360000000000,,0x03,0xFF
11.790336000000000,,0x38,0xFF
11.793312999999999,,0x15,0xFF
11.796289000000000,,0x81,0xFF
11.799265999999999,,0xFD,0xFF
11.835551000000001,,0xB0,0xFF
11.837961999999999,,0x02,0xFF
11.840939000000001,,0x20,0xFF
11.843915000000001,,0x8E,0xFF
11.846892000000000,,0x02,0xFF
11.849868000000001,,0x38,0xFF
11.852845000000000,,0x15,0xFF
11.855821000000001,,0x81,0xFF
11.858798000000000,,0x85,0xFF
11.895141000000001,,0xB0,0xFF
11.897494000000000,,0x02,0xFF
11.900471000000000,,0x20,0xFF
11.903447000000000,,0x06,0xFF
11.906423999999999,,0x02,0xFF
11.909401000000001,,0x38,0xFF
11.912376999999999,,0x15,0xFF
11.915354000000001,,0x81,0xFF
11.918331000000000,,0xFF,0xFF
11.954435999999999,,0xB0,0xFF
11.957027999999999,,0x02,0xFF
11.960005000000001,,0x20,0xFF
11.962980999999999,,0x8E,0xFF
11.965958000000001,,0x02,0xFF
11.968935000000000,,0x38,0xFF
11.971911000000000,,0x15,0xFF
11.974888000000000,,0x81,0xFF
11.977865000000000,,0x85,0xFF
12.014030000000000,,0xB0,0xFF
12.016562000000000,,0x02,0xFF
12.019539000000000,,0x20,0xFF
12.022515000000000,,0x06,0xFF
12.025492000000000,,0x02,0xFF
12.028468999999999,,0x38,0xFF
12.031446000000001,,0x15,0xFF
12.034421999999999,,0x81,0xFF
12.037399000000001,,0xFD,0xFF
12.073606000000000,,0xB0,0xFF
12.076097000000001,,0x02,0xFF
12.079072999999999,,0x20,0xFF
12.082050000000001,,0x8E,0xFF
12.085027000000000,,0x02,0xFF
12.088003000000000,,0x38,0xFF
12.090980000000000,,0x15,0xFF
12.093957000000000,,0x81,0xFF
12.096933000000000,,0x85,0xFF
12.133069000000001,,0xB0,0xFF
12.135629000000000,,0x02,0xFF
12.138605999999999,,0x20,0xFF
12.141583000000001,,0x06,0xFF
12.144558999999999,,0x02,0xFF
12.147536000000001,,0x38,0xFF
12.150512000000001,,0x15,0xFF
12.153489000000000,,0x81,0xFF
12.156466000000000,,0xFD,0xFF
12.192660999999999,,0xB0,0xFF
12.195162000000000,,0x02,0xFF
12.198138000000000,,0x20,0xFF
12.201115000000000,,0x8E,0xFF
12.204091000000000,,0x02,0xFF
12.207068000000000,,0x38,0xFF
12.210044000000000,,0x15,0xFF
12.213020999999999,,0x81,0xFF
12.215997000000000,,0x85,0xFF
12.252234000000000,,0xB0,0xFF
12.254692000000000,,0x02,0xFF
12.257669000000000,,0x20,0xFF
12.260645999999999,,0x06,0xFF
12.263622000000000,,0x02,0xFF
12.266598999999999,,0x38,0xFF
12.269575000000000,,0x15,0xFF
12.272551999999999,,0x81,0xFF
12.275528000000000,,0xFD,0xFF
12.311824000000000,,0xB0,0xFF
12.314223000000000,,0x02,0xFF
12.317199000000000,,0x20,0xFF
12.320176000000000,,0x8E,0xFF
12.323153000000000,,0x03,0xFF
12.326129000000000,,0x38,0xFF
12.329105999999999,,0x15,0xFF
12.332082000000000,,0x81,0xFF
12.335058999999999,,0x85,0xFF
12.371115000000000,,0xB0,0xFF
12.373753000000001,,0x02,0xFF
12.376728999999999,,0x20,0xFF
12.379706000000001,,0x06,0xFF
12.382682000000001,,0x02,0xFF
12.385659000000000,,0x38,0xFF
12.388635000000001,,0x15,0xFF
12.391612000000000,,0x81,0xFF
12.394588000000001,,0xFD,0xFF
12.430707999999999,,0xB0,0xFF
12.433282000000000,,0x02,0xFF
12.436259000000000,,0x20,0xFF
12.439235999999999,,0x8F,0xFF
12.442212000000000,,0x02,0xFF
12.445188999999999,,0x3C,0xFF
12.448164999999999,,0x15,0xFF
12.451142000000001,,0x81,0xFF
12.454117999999999,,0x85,0xFF
12.490295000000000,,0xB0,0xFF
12.492813000000000,,0x02,0xFF
12.495790000000000,,0x20,0xFF
12.498766000000000,,0x06,0xFF
12.501742999999999,,0x02,0xFF
12.504719000000000,,0x38,0xFF
12.507695999999999,,0x15,0xFF
12.510673000000001,,0x81,0xFF
12.513648999999999,,0xFD,0xFF
12.549868000000000,,0xB0,0xFF
12.552345000000001,,0x02,0xFF
12.555322000000000,,0x20,0xFF
12.558298000000001,,0x8E,0xFF
12.561275000000000,,0x02,0xFF
12.564251000000001,,0x38,0xFF
12.567228000000000,,0x15,0xFF
12.570204000000000,,0x81,0xFF
12.573181000000000,,0x85,0xFF
12.609457000000001,,0xB0,0xFF
12.611876000000001,,0x02,0xFF
12.614852000000001,,0x20,0xFF
12.617829000000000,,0x06,0xFF
12.620806000000000,,0x02,0xFF
12.623782000000000,,0x38,0xFF
12.626759000000000,,0x15,0xFF
12.629735000000000,,0x81,0xFF
12.632712000000000,,0xFD,0xFF
12.669031000000000,,0xB0,0xFF
12.671408000000000,,0x02,0xFF
12.674384999999999,,0x20,0xFF
12.677360999999999,,0x8E,0xFF
12.680338000000001,,0x02,0xFF
12.683313999999999,,0x38,0xFF
12.686291000000001,,0x15,0xFF
12.689268000000000,,0x81,0xFF
12.692244000000001,,0x85,0xFF
12.728339000000000,,0xB0,0xFF
12.730938999999999,,0x02,0xFF
12.733916000000001,,0x20,0xFF
12.736891999999999,,0x06,0xFF
12.739869000000001,,0x02,0xFF
12.742846000000000,,0x38,0xFF
12.745822000000000,,0x15,0xFF
12.748799000000000,,0x81,0xFF
12.751776000000000,,0xFD,0xFF
12.787929000000000,,0xB0,0xFF
12.790471999999999,,0x02,0xFF
12.793449000000001,,0x20,0xFF
12.796424999999999,,0x8E,0xFF
12.799402000000001,,0x02,0xFF
12.802377999999999,,0x38,0xFF
12.805355000000000,,0x15,0xFF
12.808331000000001,,0x81,0xFF
12.811308000000000,,0x85,0xFF
12.847502000000000,,0xB0,0xFF
12.850002000000000,,0x02,0xFF
12.852978999999999,,0x20,0xFF
12.855956000000001,,0x06,0xFF
12.858933000000000,,0x02,0xFF
12.861909000000001,,0x38,0xFF
12.864886000000000,,0x15,0xFF
12.867862000000001,,0x81,0xFF
12.870839000000000,,0xFD,0xFF
12.907095000000000,,0xB0,0xFF
12.909535999999999,,0x02,0xFF
12.912512000000000,,0x20,0xFF
12.915489000000001,,0x8E,0xFF
12.918464999999999,,0x02,0xFF
12.921442000000001,,0x38,0xFF
12.924417999999999,,0x15,0xFF
12.927395000000001,,0x81,0xFF
12.930372000000000,,0x87,0xFF
12.966669000000000,,0xB0,0xFF
12.969067000000001,,0x02,0xFF
12.972044000000000,,0x20,0xFF
12.975020000000001,,0x06,0xFF
12.977997000000000,,0x02,0xFF
12.980974000000000,,0x38,0xFF
12.983950000000000,,0x15,0xFF
12.986927000000000,,0x81,0xFF
12.989903000000000,,0xFD,0xFF
13.025975000000001,,0xB0,0xFF
13.028598000000001,,0x02,0xFF
13.031574000000001,,0x20,0xFF
13.034551000000000,,0x8E,0xFF
13.037527000000001,,0x02,0xFF
13.040502999999999,,0x38,0xFF
13.043480000000001,,0x15,0xFF
13.046455999999999,,0x81,0xFF
13.049433000000001,,0x85,0xFF
13.085575000000000,,0xB0,0xFF
13.088126000000001,,0x02,0xFF
13.091103000000000,,0x20,0xFF
13.094079000000001,,0x06,0xFF
13.097056000000000,,0x02,0xFF
13.100032000000001,,0x38,0xFF
13.103009000000000,,0x15,0xFF
13.105985000000000,,0x81,0xFF
13.108962000000000,,0xFD,0xFF
13.145286000000000,,0xB0,0xFF
13.147656000000000,,0x02,0xFF
13.150632000000000,,0x20,0xFF
13.153608999999999,,0x8E,0xFF
13.156585000000000,,0x02,0xFF
13.159561999999999,,0x38,0xFF
13.162538000000000,,0x16,0xFF
13.165514999999999,,0x81,0xFF
13.168491000000000,,0x86,0xFF
13.204590000000000,,0xB0,0xFF
13.207185000000001,,0x02,0xFF
13.210160999999999,,0x20,0xFF
13.213137000000000,,0x06,0xFF
13.216113999999999,,0x02,0xFF
13.219090000000000,,0x38,0xFF
13.222066999999999,,0x16,0xFF
13.225042999999999,,0x81,0xFF
13.228019000000000,,0xFE,0xFF
13.264163000000000,,0xB0,0xFF
13.266714000000000,,0x02,0xFF
13.269690000000001,,0x20,0xFF
13.272665999999999,,0x8E,0xFF
13.275643000000001,,0x02,0xFF
13.278619000000001,,0x38,0xFF
13.281596000000000,,0x1E,0xFF
13.284572000000001,,0x81,0xFF
13.287547999999999,,0x86,0xFF
13.323751000000000,,0xB0,0xFF
13.326245000000000,,0x02,0xFF
13.329221000000000,,0x20,0xFF
13.332198000000000,,0x06,0xFF
13.335174000000000,,0x02,0xFF
13.338151000000000,,0x38,0xFF
13.341127999999999,,0x16,0xFF
13.344104000000000,,0x81,0xFF
13.347080999999999,,0xFE,0xFF
13.383350999999999,,0xB0,0xFF
13.385776999999999,,0x02,0xFF
13.388752999999999,,0x20,0xFF
13.391730000000001,,0x8E,0xFF
13.394707000000000,,0x02,0xFF
13.397683000000001,,0x38,0xFF
13.400660000000000,,0x16,0xFF
13.403636000000001,,0x81,0xFF
13.406613000000000,,0xC6,0xFF
13.442924000000000,,0xB0,0xFF
13.445307000000000,,0x02,0xFF
13.448283000000000,,0x20,0xFF
13.451260000000000,,0x06,0xFF
13.454236999999999,,0x02,0xFF
13.457212999999999,,0x38,0xFF
13.460190000000001,,0x16,0xFF
13.463165999999999,,0x81,0xFF
13.466143000000001,,0xFE,0xFF
13.502229000000000,,0xB0,0xFF
13.504837000000000,,0x02,0xFF
13.507814000000000,,0x20,0xFF
13.510790000000000,,0x8E,0xFF
13.513767000000000,,0x03,0xFF
13.516743000000000,,0x38,0xFF
13.519720000000000,,0x16,0xFF
13.522696000000000,,0x81,0xFF
13.525672999999999,,0x86,0xFF
13.561802000000000,,0xB0,0xFF
13.564368000000000,,0x02,0xFF
13.567345000000000,,0x20,0xFF
13.570321000000000,,0x06,0xFF
13.573297999999999,,0x02,0xFF
13.576274000000000,,0x38,0xFF
13.579250999999999,,0x16,0xFF
13.582227000000000,,0x81,0xFF
13.585203999999999,,0xFE,0xFF
13.621390999999999,,0xB0,0xFF
13.623898000000001,,0x02,0xFF
13.626875000000000,,0x20,0xFF
13.629852000000000,,0x8E,0xFF
13.632828000000000,,0x02,0xFF
13.635805000000000,,0x38,0xFF
13.638781000000000,,0x16,0xFF
13.641757999999999,,0x81,0xFF
13.644734000000000,,0x86,0xFF
13.680980000000000,,0xB0,0xFF
13.683427999999999,,0x02,0xFF
13.686405000000001,,0x20,0xFF
13.689382000000000,,0x06,0xFF
13.692358000000000,,0x02,0xFF
13.695335000000000,,0x38,0xFF
13.698311000000000,,0x16,0xFF
13.701288000000000,,0x81,0xFF
13.704264000000000,,0xFE,0xFF
13.740553000000000,,0xB0,0xFF
13.742960000000000,,0x02,0xFF
13.745936000000000,,0x20,0xFF
13.748913000000000,,0x8E,0xFF
13.751889000000000,,0x02,0xFF
13.754865000000001,,0x38,0xFF
13.757842000000000,,0x16,0xFF
13.760818000000000,,0x81,0xFF
13.763795000000000,,0x86,0xFF
13.799860000000001,,0xB0,0xFF
13.802488000000000,,0x02,0xFF
13.805465000000000,,0x20,0xFF
13.808441000000000,,0x06,0xFF
13.811418000000000,,0x02,0xFF
13.814394000000000,,0x38,0xFF
13.817371000000000,,0x16,0xFF
13.820347999999999,,0x81,0xFF
13.823324000000000,,0xFE,0xFF
13.859435000000000,,0xB0,0xFF
13.862021000000000,,0x02,0xFF
13.864998000000000,,0x20,0xFF
13.867974999999999,,0x8E,0xFF
13.870951000000000,,0x02,0xFF
13.873927999999999,,0x38,0xFF
13.876905000000001,,0x16,0xFF
13.879880999999999,,0x81,0xFF
13.882858000000001,,0x86,0xFF
13.919028000000001,,0xB0,0xFF
13.921554000000000,,0x02,0xFF
13.924531000000000,,0x20,0xFF
13.927507000000000,,0x06,0xFF
13.930484000000000,,0x02,0xFF
13.933460999999999,,0x38,0xFF
13.936437000000000,,0x16,0xFF
13.939413999999999,,0x81,0xFF
13.942390000000000,,0xFE,0xFF
13.978618000000001,,0xB0,0xFF
13.981085999999999,,0x02,0xFF
13.984062000000000,,0x20,0xFF
13.987038999999999,,0x8E,0xFF
13.990015000000000,,0x02,0xFF
13.992991999999999,,0x38,0xFF
13.995969000000001,,0x16,0xFF
13.998945000000001,,0x81,0xFF
14.001922000000000,,0x86,0xFF
14.038190999999999,,0xB0,0xFF
14.040616999999999,,0x02,0xFF
14.043594000000001,,0x20,0xFF
14.046571000000000,,0x06,0xFF
14.049547000000000,,0x02,0xFF
14.052524000000000,,0x38,0xFF
14.055500000000000,,0x16,0xFF
14.058477000000000,,0x81,0xFF
14.061453000000000,,0xFE,0xFF
14.097654000000000,,0xB0,0xFF
14.100149000000000,,0x02,0xFF
14.103125000000000,,0x20,0xFF
14.106102000000000,,0x8E,0xFF
14.109078999999999,,0x02,0xFF
14.112055000000000,,0x38,0xFF
14.115031999999999,,0x17,0xFF
14.118008000000000,,0x81,0xFF
14.120984999999999,,0x87,0xFF
14.157227000000001,,0xB0,0xFF
14.159680000000000,,0x02,0xFF
14.162656000000000,,0x20,0xFF
14.165633000000000,,0x06,0xFF
14.168609000000000,,0x02,0xFF
14.171585000000000,,0x38,0xFF
14.174562000000000,,0x17,0xFF
14.177538000000000,,0x81,0xFF
14.180515000000000,,0xFF,0xFF
14.216811000000000,,0xB0,0xFF
14.219208000000000,,0x02,0xFF
14.222185000000000,,0x20,0xFF
14.225161000000000,,0x8E,0xFF
14.228138000000000,,0x02,0xFF
14.231114000000000,,0x38,0xFF
14.234090000000000,,0x17,0xFF
14.237067000000000,,0x81,0xFF
14.240043000000000,,0x87,0xFF
14.276115000000001,,0xB0,0xFF
14.278738000000001,,0x02,0xFF
14.281713999999999,,0x20,0xFF
14.284691000000000,,0x06,0xFF
14.287668000000000,,0x02,0xFF
14.290644000000000,,0x38,0xFF
14.293621000000000,,0x17,0xFF
14.296597000000000,,0x81,0xFF
14.299574000000000,,0xFF,0xFF
14.335686000000001,,0xB0,0xFF
14.338267999999999,,0x02,0xFF
14.341244000000000,,0x20,0xFF
14.344220999999999,,0x8E,0xFF
14.347197000000000,,0x02,0xFF
14.350174000000001,,0x38,0xFF
14.353149999999999,,0x17,0xFF
14.356126000000000,,0x81,0xFF
14.359102999999999,,0x87,0xFF
14.395284999999999,,0xB0,0xFF
14.397805999999999,,0x02,0xFF
14.400790000000001,,0x30,0xFF
14.403776000000001,,0x06,0xFF
