Time [s],Packet ID,MOSI,MISO
4.513307000000000,0,0xB0,0xFF
4.515890000000000,,0x02,0xFF
4.518866000000000,,0x20,0xFF
4.521843000000000,,0x06,0xFF
4.524819000000000,,0x02,0xFF
4.527795000000000,,0x38,0xFF
4.530771000000000,,0x0E,0xFF
4.533748000000000,,0x81,0xFF
4.536724000000000,,0xF6,0xFF
4.572891000000000,,0xF0,0xFF
4.575416000000000,,0x02,0xFF
4.578392000000000,,0x20,0xFF
4.581368000000000,,0x8E,0xFF
4.584345000000000,,0x02,0xFF
4.587321000000000,,0x38,0xFF
4.590297000000000,,0x0E,0xFF
4.593274000000000,,0x81,0xFF
4.596250000000000,,0x7E,0xFF
4.632459000000000,,0xB0,0xFF
4.634942000000000,,0x02,0xFF
4.637918000000000,,0x20,0xFF
4.640894000000000,,0x06,0xFF
4.643871000000000,,0x03,0xFF
4.646847000000000,,0x38,0xFF
4.649823000000000,,0x0E,0xFF
4.652800000000000,,0x81,0xFF
4.655776000000000,,0xF6,0xFF
4.692043000000000,,0xB0,0xFF
4.694470000000000,,0x02,0xFF
4.697446000000000,,0x20,0xFF
4.700423000000000,,0x8E,0xFF
4.703399000000000,,0x02,0xFF
4.706376000000000,,0x38,0xFF
4.709352000000000,,0x0E,0xFF
4.712329000000000,,0x81,0xFF
4.715305000000000,,0x7E,0xFF
4.751632000000000,,0xB0,0xFF
4.754000000000000,,0x02,0xFF
4.756976000000000,,0x20,0xFF
4.759952000000000,,0x06,0xFF
4.762929000000000,,0x02,0xFF
4.765905000000000,,0x38,0xFF
4.768882000000000,,0x0E,0xFF
4.771858000000000,,0x81,0xFF
4.774835000000000,,0xFE,0xFF
4.810921000000000,,0xB0,0xFF
4.813527000000000,,0x02,0xFF
4.816504000000000,,0x20,0xFF
4.819480000000000,,0x8E,0xFF
4.822456000000000,,0x02,0xFF
4.825433000000000,,0x38,0xFF
4.828409000000000,,0x0E,0xFF
4.831385000000000,,0x81,0xFF
4.834362000000000,,0x7E,0xFF
4.870505000000000,,0xB0,0xFF
4.873055000000000,,0x02,0xFF
4.876032000000000,,0x20,0xFF
4.879008000000000,,0x06,0xFF
4.881985000000000,,0x02,0xFF
4.884961000000000,,0x38,0xFF
4.887937000000000,,0x0E,0xFF
4.890914000000000,,0x81,0xFF
4.893890000000000,,0xF6,0xFF
4.930073000000000,,0xB0,0xFF
4.932583000000000,,0x02,0xFF
4.935559000000000,,0x20,0xFF
4.938536000000000,,0x8E,0xFF
4.941512000000000,,0x02,0xFF
4.944489000000000,,0x38,0xFF
4.947465000000000,,0x0E,0xFF
4.950442000000000,,0xC1,0xFF
4.953418000000000,,0x7E,0xFF
4.989663000000000,,0xB0,0xFF
4.992112000000000,,0x02,0xFF
4.995088000000000,,0x20,0xFF
4.998064000000000,,0x06,0xFF
5.001041000000000,,0x02,0xFF
5.004017000000000,,0x38,0xFF
5.006994000000000,,0x0E,0xFF
5.009970000000000,,0x81,0xFF
5.012946000000000,,0xF6,0xFF
5.049248000000000,,0xB0,0xFF
5.051639000000000,,0x02,0xFF
5.054615000000000,,0x20,0xFF
5.057592000000000,,0x8E,0xFF
5.060568000000000,,0x02,0xFF
5.063545000000000,,0x38,0xFF
5.066521000000000,,0x0E,0xFF
5.069497000000000,,0x81,0xFF
5.072474000000000,,0x7E,0xFF
5.108537000000000,,0xB0,0xFF
5.111167000000000,,0x02,0xFF
5.114144000000000,,0x20,0xFF
5.117120000000000,,0x06,0xFF
5.120096000000000,,0x02,0xFF
5.123073000000000,,0x38,0xFF
5.126049000000000,,0x0E,0xFF
5.129026000000000,,0x81,0xFF
5.132002000000000,,0xF6,0xFF
5.168277000000000,,0xB0,0xFF
5.170695000000000,,0x02,0xFF
5.173671000000000,,0x20,0xFF
5.176647000000000,,0x8E,0xFF
5.179623000000000,,0x02,0xFF
5.182600000000000,,0x38,0xFF
5.185576000000000,,0x0F,0xFF
5.188552000000000,,0xC1,0xFF
5.191529000000000,,0x7F,0xFF
5.227846000000000,,0xF0,0xFF
5.230222000000000,,0x02,0xFF
5.233198000000000,,0x20,0xFF
5.236175000000000,,0x06,0xFF
5.239151000000000,,0x02,0xFF
5.242128000000000,,0x38,0xFF
5.245104000000000,,0x0F,0xFF
5.248081000000000,,0xC1,0xFF
5.251057000000000,,0xF7,0xFF
5.287151000000000,,0xB0,0xFF
5.289751000000000,,0x02,0xFF
5.292728000000000,,0x20,0xFF
5.295704000000000,,0x8E,0xFF
5.298681000000000,,0x02,0xFF
5.301657000000000,,0x38,0xFF
5.304634000000000,,0x0F,0xFF
5.307611000000000,,0x81,0xFF
5.310587000000000,,0x7F,0xFF
5.346739000000000,,0xB0,0xFF
5.349281000000000,,0x02,0xFF
5.352258000000000,,0x20,0xFF
5.355234000000000,,0x06,0xFF
5.358211000000000,,0x02,0xFF
5.361187000000000,,0x38,0xFF
5.364164000000000,,0x0F,0xFF
5.367140000000000,,0x81,0xFF
5.370117000000000,,0xF7,0xFF
5.406311000000000,,0xB0,0xFF
5.408812000000000,,0x02,0xFF
5.411788000000000,,0x20,0xFF
5.414764000000000,,0x8E,0xFF
5.417741000000000,,0x02,0xFF
5.420717000000000,,0x38,0xFF
5.423694000000000,,0x0F,0xFF
5.426670000000000,,0x81,0xFF
5.429646000000000,,0x7F,0xFF
5.465907000000000,,0xB0,0xFF
5.468340000000000,,0x02,0xFF
5.471316000000000,,0x20,0xFF
5.474293000000000,,0x06,0xFF
5.477269000000000,,0x02,0xFF
5.480245000000000,,0x38,0xFF
5.483222000000000,,0x0F,0xFF
5.486198000000000,,0x81,0xFF
5.489175000000000,,0xF7,0xFF
5.525476000000000,,0xB0,0xFF
5.527867000000000,,0x02,0xFF
5.530844000000000,,0x20,0xFF
5.533820000000000,,0x8E,0xFF
5.536797000000000,,0x02,0xFF
5.539773000000000,,0x38,0xFF
5.542750000000000,,0x0F,0xFF
5.545726000000000,,0x81,0xFF
5.548703000000000,,0x7F,0xFF
5.584780000000000,,0xB0,0xFF
5.587397000000000,,0x02,0xFF
5.590374000000000,,0x20,0xFF
5.593350000000000,,0x06,0xFF
5.596327000000000,,0x02,0xFF
5.599303000000000,,0x38,0xFF
5.602280000000000,,0x0F,0xFF
5.605256000000000,,0x81,0xFF
5.608233000000000,,0xF7,0xFF
5.644368000000000,,0xB0,0xFF
5.646926000000000,,0x02,0xFF
5.649903000000000,,0x20,0xFF
5.652879000000000,,0x8E,0xFF
5.655856000000000,,0x02,0xFF
5.658832000000000,,0x38,0xFF
5.661809000000000,,0x0F,0xFF
5.664785000000000,,0x81,0xFF
5.667762000000000,,0x7F,0xFF
5.703940000000000,,0xB0,0xFF
5.706456000000000,,0x02,0xFF
5.709433000000000,,0x20,0xFF
5.712409000000000,,0x06,0xFF
5.715386000000000,,0x02,0xFF
5.718362000000000,,0x38,0xFF
5.721338000000000,,0x0F,0xFF
5.724315000000000,,0x81,0xFF
5.727292000000000,,0xF7,0xFF
5.763528000000000,,0xB0,0xFF
5.765987000000000,,0x02,0xFF
5.768963000000000,,0x20,0xFF
5.771940000000000,,0x8E,0xFF
5.774916000000000,,0x02,0xFF
5.777892000000000,,0x38,0xFF
5.780869000000000,,0x0F,0xFF
5.783845000000000,,0x81,0xFF
5.786822000000000,,0x7F,0xFF
5.823099000000000,,0xB0,0xFF
5.825515000000000,,0x02,0xFF
5.828491000000000,,0x20,0xFF
5.831468000000000,,0x07,0xFF
5.834444000000000,,0x02,0xFF
5.837421000000000,,0x38,0xFF
5.840397000000000,,0x0F,0xFF
5.843373000000000,,0x81,0xFF
5.846350000000000,,0xF7,0xFF
5.882403000000000,,0xB0,0xFF
5.885041000000000,,0x02,0xFF
5.888017000000000,,0x20,0xFF
5.890994000000000,,0x8E,0xFF
5.893970000000000,,0x02,0xFF
5.896946000000000,,0x38,0xFF
5.899922000000000,,0x0F,0xFF
5.902898000000000,,0x81,0xFF
5.905875000000000,,0x7F,0xFF
5.941986000000000,,0xB0,0xFF
5.944566000000000,,0x02,0xFF
5.947542000000000,,0x20,0xFF
5.950518000000000,,0x06,0xFF
5.953494000000000,,0x02,0xFF
5.956471000000000,,0x38,0xFF
5.959447000000000,,0x0F,0xFF
5.962423000000000,,0x81,0xFF
5.965399000000000,,0xF7,0xFF
6.001551000000000,,0xB0,0xFF
6.004090000000000,,0x02,0xFF
6.007066000000000,,0x20,0xFF
6.010042000000000,,0x8E,0xFF
6.013019000000000,,0x03,0xFF
6.015995000000000,,0x38,0xFF
6.018971000000000,,0x0F,0xFF
6.021948000000000,,0x81,0xFF
6.024924000000000,,0x7F,0xFF
6.061136000000000,,0xB0,0xFF
6.063618000000000,,0x02,0xFF
6.066594000000000,,0x20,0xFF
6.069571000000000,,0x06,0xFF
6.072547000000000,,0x02,0xFF
6.075523000000000,,0x38,0xFF
6.078500000000000,,0x0F,0xFF
6.081476000000000,,0x81,0xFF
6.084453000000000,,0xF7,0xFF
6.120706000000000,,0xB0,0xFF
6.123145000000000,,0x02,0xFF
6.126122000000000,,0x20,0xFF
6.129098000000000,,0x8E,0xFF
6.132075000000000,,0x02,0xFF
6.135051000000000,,0x38,0xFF
6.138027000000000,,0x0F,0xFF
6.141004000000000,,0x81,0xFF
6.143980000000000,,0x7F,0xFF
6.180163000000000,,0xB0,0xFF
6.182672000000000,,0x02,0xFF
6.185649000000000,,0x20,0xFF
6.188625000000000,,0x06,0xFF
6.191602000000000,,0x02,0xFF
6.194578000000000,,0x38,0xFF
6.197554000000000,,0x10,0xFF
6.200531000000000,,0x81,0xFF
6.203507000000000,,0xF8,0xFF
6.239750000000000,,0xB0,0xFF
6.242199000000000,,0x02,0xFF
6.245176000000000,,0x20,0xFF
6.248152000000000,,0x8E,0xFF
6.251129000000000,,0x02,0xFF
6.254105000000000,,0x38,0xFF
6.257081000000000,,0x10,0xFF
6.260057000000000,,0x81,0xFF
6.263034000000000,,0x80,0xFF
6.299321000000000,,0xB0,0xFF
6.301727000000000,,0x02,0xFF
6.304704000000000,,0x30,0xFF
6.307680000000000,,0x06,0xFF
6.310656000000000,,0x02,0xFF
6.313633000000000,,0x38,0xFF
6.316609000000000,,0x10,0xFF
6.319585000000000,,0x81,0xFF
6.322562000000000,,0xF8,0xFF
6.358627000000000,,0xB0,0xFF
6.361256000000000,,0x02,0xFF
6.364232000000000,,0x20,0xFF
6.367209000000000,,0xCE,0xFF
6.370185000000000,,0x02,0xFF
6.373161000000000,,0x38,0xFF
6.376138000000000,,0x18,0xFF
6.379114000000000,,0x81,0xFF
6.382090000000000,,0x80,0xFF
6.418199000000000,,0xB0,0xFF
6.420785000000000,,0x02,0xFF
6.423761000000000,,0x20,0xFF
6.426737000000000,,0x06,0xFF
6.429714000000000,,0x02,0xFF
6.432690000000000,,0x38,0xFF
6.435666000000000,,0x10,0xFF
6.438643000000000,,0x81,0xFF
6.441619000000000,,0xF8,0xFF
6.477793000000000,,0xB0,0xFF
6.480313000000000,,0x02,0xFF
6.483290000000000,,0x20,0xFF
6.486266000000000,,0x8E,0xFF
6.489243000000000,,0x02,0xFF
6.492220000000000,,0x3C,0xFF
6.495196000000000,,0x10,0xFF
6.498173000000000,,0x81,0xFF
6.501149000000000,,0x80,0xFF
6.537382000000000,,0xB0,0xFF
6.539844000000000,,0x02,0xFF
6.542821000000000,,0x20,0xFF
6.545797000000000,,0x06,0xFF
6.548773000000000,,0x02,0xFF
6.551750000000000,,0x38,0xFF
6.554726000000000,,0x10,0xFF
6.557703000000000,,0x81,0xFF
6.560679000000000,,0xF8,0xFF
6.596954000000000,,0xB0,0xFF
6.599372000000000,,0x02,0xFF
6.602349000000000,,0x20,0xFF
6.605325000000000,,0x8E,0xFF
6.608302000000000,,0x02,0xFF
6.611278000000000,,0x38,0xFF
6.614255000000000,,0x10,0xFF
6.617231000000000,,0x81,0xFF
6.620207000000000,,0x80,0xFF
6.656260000000000,,0xB0,0xFF
6.658901000000000,,0x02,0xFF
6.661878000000000,,0x20,0xFF
6.664854000000000,,0x06,0xFF
6.667830000000000,,0x02,0xFF
6.670807000000000,,0x38,0xFF
6.673783000000000,,0x10,0xFF
6.676760000000000,,0x81,0xFF
6.679737000000000,,0xF8,0xFF
6.715830000000000,,0xB0,0xFF
6.718430000000000,,0x02,0xFF
6.721407000000000,,0x20,0xFF
6.724383000000000,,0x8E,0xFF
6.727360000000000,,0x02,0xFF
6.730336000000000,,0x38,0xFF
6.733312000000000,,0x10,0xFF
6.736289000000000,,0x81,0xFF
6.739265000000000,,0x80,0xFF
6.775415000000000,,0xB0,0xFF
6.777957000000000,,0x02,0xFF
6.780933000000000,,0x20,0xFF
6.783909000000000,,0x06,0xFF
6.786885000000000,,0x02,0xFF
6.789862000000000,,0x38,0xFF
6.792838000000000,,0x10,0xFF
6.795814000000000,,0x81,0xFF
6.798791000000000,,0xF8,0xFF
6.834999000000000,,0xB0,0xFF
6.837483000000000,,0x02,0xFF
6.840460000000000,,0x20,0xFF
6.843436000000000,,0x8E,0xFF
6.846412000000000,,0x02,0xFF
6.849389000000000,,0x38,0xFF
6.852365000000000,,0x10,0xFF
6.855341000000000,,0x81,0xFF
6.858318000000000,,0x80,0xFF
6.894569000000000,,0xB0,0xFF
6.897012000000000,,0x02,0xFF
6.899988000000000,,0x20,0xFF
6.902965000000000,,0x06,0xFF
6.905941000000000,,0x02,0xFF
6.908918000000000,,0x38,0xFF
6.911894000000000,,0x10,0xFF
6.914871000000000,,0x81,0xFF
6.917848000000000,,0xF8,0xFF
6.954157000000000,,0xB0,0xFF
6.956542000000000,,0x02,0xFF
6.959518000000000,,0x20,0xFF
6.962495000000000,,0x8E,0xFF
6.965472000000000,,0x02,0xFF
6.968448000000000,,0x38,0xFF
6.971425000000000,,0x10,0xFF
6.974401000000000,,0x81,0xFF
6.977378000000000,,0x80,0xFF
7.013448000000000,,0xB0,0xFF
7.016073000000000,,0x03,0xFF
7.019049000000000,,0x20,0xFF
7.022026000000000,,0x06,0xFF
7.025002000000000,,0x02,0xFF
7.027979000000000,,0x38,0xFF
7.030955000000000,,0x10,0xFF
7.033932000000000,,0x81,0xFF
7.036908000000000,,0xF8,0xFF
7.073036000000000,,0xB0,0xFF
7.075603000000000,,0x02,0xFF
7.078579000000000,,0x20,0xFF
7.081556000000000,,0x8E,0xFF
7.084532000000000,,0x02,0xFF
7.087509000000000,,0x38,0xFF
7.090485000000000,,0x10,0xFF
7.093461000000000,,0x81,0xFF
7.096438000000000,,0x80,0xFF
7.132635000000000,,0xB0,0xFF
7.135132000000000,,0x02,0xFF
7.138108000000000,,0x20,0xFF
7.141085000000000,,0x06,0xFF
7.144061000000000,,0x02,0xFF
7.147038000000000,,0x38,0xFF
7.150014000000000,,0x10,0xFF
7.152991000000000,,0x81,0xFF
7.155967000000000,,0xF8,0xFF
7.192065000000000,,0xB0,0xFF
7.194661000000000,,0x02,0xFF
7.197638000000000,,0x20,0xFF
7.200614000000000,,0x8E,0xFF
7.203590000000000,,0x02,0xFF
7.206567000000000,,0x38,0xFF
7.209543000000000,,0x11,0xFF
7.212520000000000,,0x81,0xFF
7.215496000000000,,0x81,0xFF
7.251652000000000,,0xF0,0xFF
7.254191000000000,,0x02,0xFF
7.257167000000000,,0x20,0xFF
7.260144000000000,,0x06,0xFF
7.263120000000000,,0x02,0xFF
7.266097000000000,,0x38,0xFF
7.269073000000000,,0x11,0xFF
7.272049000000000,,0x81,0xFF
7.275026000000000,,0xF9,0xFF
7.311219000000000,,0xB0,0xFF
7.313718000000000,,0x02,0xFF
7.316694000000000,,0x20,0xFF
7.319671000000000,,0x8F,0xFF
7.322647000000000,,0x02,0xFF
7.325623000000000,,0x38,0xFF
7.328600000000000,,0x11,0xFF
7.331576000000000,,0x81,0xFF
7.334552000000000,,0x81,0xFF
7.370805000000000,,0xB0,0xFF
7.373244000000000,,0x02,0xFF
7.376221000000000,,0x20,0xFF
7.379197000000000,,0x06,0xFF
7.382173000000000,,0x02,0xFF
7.385150000000000,,0x38,0xFF
7.388126000000000,,0x11,0xFF
7.391102000000000,,0x81,0xFF
7.394079000000000,,0xF9,0xFF
7.430395000000000,,0xB0,0xFF
7.432771000000000,,0x02,0xFF
7.435747000000000,,0x20,0xFF
7.438724000000000,,0x8E,0xFF
7.441700000000000,,0x02,0xFF
7.444677000000000,,0x38,0xFF
7.447653000000000,,0x11,0xFF
7.450629000000000,,0x81,0xFF
7.453606000000000,,0x81,0xFF
7.489682000000000,,0xB0,0xFF
7.492299000000000,,0x02,0xFF
7.495275000000000,,0x20,0xFF
7.498251000000000,,0x06,0xFF
7.501228000000000,,0x02,0xFF
7.504204000000000,,0x38,0xFF
7.507180000000000,,0x11,0xFF
7.510157000000000,,0x81,0xFF
7.513133000000000,,0xF9,0xFF
7.549267000000000,,0xF0,0xFF
7.551826000000000,,0x02,0xFF
7.554803000000000,,0x20,0xFF
7.557779000000000,,0x8E,0xFF
7.560756000000000,,0x02,0xFF
7.563732000000000,,0x38,0xFF
7.566709000000000,,0x11,0xFF
7.569685000000000,,0x81,0xFF
7.572662000000000,,0x81,0xFF
7.608839000000000,,0xB0,0xFF
7.611355000000000,,0x02,0xFF
7.614332000000000,,0x20,0xFF
7.617308000000000,,0x06,0xFF
7.620284000000000,,0x02,0xFF
7.623261000000000,,0x38,0xFF
7.626237000000000,,0x11,0xFF
7.629214000000000,,0x81,0xFF
7.632190000000000,,0xF9,0xFF
7.668425000000000,,0xB0,0xFF
7.670883000000000,,0x02,0xFF
7.673859000000000,,0x20,0xFF
7.676836000000000,,0x8E,0xFF
7.679812000000000,,0x02,0xFF
7.682789000000000,,0x38,0xFF
7.685765000000000,,0x11,0xFF
7.688741000000000,,0x81,0xFF
7.691718000000000,,0x81,0xFF
7.728011000000000,,0xB0,0xFF
7.730411000000000,,0x02,0xFF
7.733388000000000,,0x20,0xFF
7.736364000000000,,0x06,0xFF
7.739341000000000,,0x02,0xFF
7.742317000000000,,0x38,0xFF
7.745294000000000,,0x11,0xFF
7.748270000000000,,0xC1,0xFF
7.751247000000000,,0xF9,0xFF
7.787305000000000,,0xB0,0xFF
7.789944000000000,,0x02,0xFF
7.792920000000000,,0x20,0xFF
7.795897000000000,,0x8E,0xFF
7.798874000000000,,0x02,0xFF
7.801850000000000,,0x38,0xFF
7.804827000000000,,0x11,0xFF
7.807803000000000,,0x81,0xFF
7.810780000000000,,0x81,0xFF
7.846896000000000,,0xB0,0xFF
7.849476000000000,,0x02,0xFF
7.852452000000000,,0x20,0xFF
7.855429000000000,,0x06,0xFF
7.858405000000000,,0x02,0xFF
7.861382000000000,,0x38,0xFF
7.864358000000000,,0x11,0xFF
7.867335000000000,,0x81,0xFF
7.870311000000000,,0xF9,0xFF
7.906466000000000,,0xB0,0xFF
7.909005000000000,,0x02,0xFF
7.911981000000000,,0x20,0xFF
7.914958000000000,,0x8E,0xFF
7.917934000000000,,0x02,0xFF
7.920911000000000,,0x38,0xFF
7.923887000000000,,0x11,0xFF
7.926863000000000,,0x81,0xFF
7.929840000000000,,0x81,0xFF
7.966053000000000,,0xB0,0xFF
7.968534000000000,,0x02,0xFF
7.971510000000000,,0x20,0xFF
7.974487000000000,,0x06,0xFF
7.977463000000000,,0x02,0xFF
7.980439000000000,,0x38,0xFF
7.983416000000000,,0x11,0xFF
7.986392000000000,,0x81,0xFF
7.989369000000000,,0xF9,0xFF
8.025638000000001,,0xB0,0xFF
8.028062000000000,,0x02,0xFF
8.031038000000001,,0x20,0xFF
8.034014000000001,,0x8E,0xFF
8.036991000000000,,0x02,0xFF
8.039967000000001,,0x38,0xFF
8.042944000000000,,0x11,0xFF
8.045920000000001,,0x81,0xFF
8.048895999999999,,0x81,0xFF
8.085210000000000,,0xB0,0xFF
8.087588999999999,,0x02,0xFF
8.090566000000001,,0x20,0xFF
8.093541999999999,,0x06,0xFF
8.096519000000001,,0x02,0xFF
8.099494999999999,,0x38,0xFF
8.102472000000001,,0x11,0xFF
8.105448000000001,,0x81,0xFF
8.108425000000000,,0xF9,0xFF
8.144671000000001,,0xB0,0xFF
8.147119000000000,,0x02,0xFF
8.150096000000000,,0x20,0xFF
8.153072000000000,,0x8E,0xFF
8.156048000000000,,0x02,0xFF
8.159025000000000,,0x38,0xFF
8.162001000000000,,0x12,0xFF
8.164978000000000,,0x81,0xFF
8.167954000000000,,0x82,0xFF
8.204242000000001,,0xB0,0xFF
8.206647999999999,,0x02,0xFF
8.209625000000001,,0x20,0xFF
8.212600999999999,,0x06,0xFF
8.215578000000001,,0x02,0xFF
8.218555000000000,,0x38,0xFF
8.221531000000001,,0x12,0xFF
8.224506999999999,,0x81,0xFF
8.227484000000000,,0xFA,0xFF
8.263546000000000,,0xB0,0xFF
8.266177000000001,,0x02,0xFF
8.269152999999999,,0x20,0xFF
8.272130000000001,,0x8E,0xFF
8.275105999999999,,0x02,0xFF
8.278083000000001,,0x38,0xFF
8.281059000000001,,0x12,0xFF
8.284036000000000,,0x81,0xFF
8.287012000000001,,0x82,0xFF
8.323134000000000,,0xB0,0xFF
8.325707000000000,,0x02,0xFF
8.328683000000000,,0x20,0xFF
8.331659999999999,,0x06,0xFF
8.334636000000000,,0x02,0xFF
8.337612999999999,,0x3C,0xFF
8.340589000000000,,0x12,0xFF
8.343565999999999,,0x81,0xFF
8.346541999999999,,0xFA,0xFF
8.382705000000000,,0xB0,0xFF
8.385237000000000,,0x02,0xFF
8.388213000000000,,0x20,0xFF
8.391190000000000,,0x8E,0xFF
8.394166000000000,,0x02,0xFF
8.397143000000000,,0x38,0xFF
8.400119000000000,,0x12,0xFF
8.403095000000000,,0x81,0xFF
8.406072000000000,,0x82,0xFF
8.442299999999999,,0xB0,0xFF
8.444766000000000,,0x02,0xFF
8.447742000000000,,0x20,0xFF
8.450718999999999,,0x06,0xFF
8.453696000000001,,0x02,0xFF
8.456671999999999,,0x38,0xFF
8.459649000000001,,0x12,0xFF
8.462624999999999,,0x81,0xFF
8.465602000000001,,0xFA,0xFF
8.501873000000000,,0xB0,0xFF
8.504296000000000,,0x02,0xFF
8.507272000000000,,0x20,0xFF
8.510248000000001,,0x8E,0xFF
8.513225000000000,,0x02,0xFF
8.516201000000001,,0x38,0xFF
8.519178000000000,,0x12,0xFF
8.522154000000000,,0x81,0xFF
8.525130000000001,,0x82,0xFF
8.561457000000001,,0xB0,0xFF
8.563821000000001,,0x02,0xFF
8.566798000000000,,0x30,0xFF
8.569774000000001,,0x06,0xFF
8.572749999999999,,0x02,0xFF
8.575726000000000,,0x38,0xFF
8.578702000000000,,0x12,0xFF
8.581678000000000,,0x81,0xFF
8.584655000000000,,0xFB,0xFF
8.620760000000001,,0xB0,0xFF
8.623347000000001,,0x02,0xFF
8.626324000000000,,0x20,0xFF
8.629300000000001,,0x8E,0xFF
8.632275999999999,,0x02,0xFF
8.635251999999999,,0x38,0xFF
8.638229000000001,,0x12,0xFF
8.641204999999999,,0x81,0xFF
8.644181000000000,,0x82,0xFF
8.680327999999999,,0xB0,0xFF
8.682873000000001,,0x02,0xFF
8.685848999999999,,0x20,0xFF
8.688826000000001,,0x06,0xFF
8.691801999999999,,0x02,0xFF
8.694777999999999,,0x38,0xFF
8.697755000000001,,0x12,0xFF
8.700730999999999,,0x81,0xFF
8.703708000000001,,0xFA,0xFF
8.739913000000000,,0xB0,0xFF
8.742400000000000,,0x02,0xFF
8.745377000000000,,0x20,0xFF
8.748353000000000,,0x8E,0xFF
8.751329000000000,,0x02,0xFF
8.754306000000000,,0x38,0xFF
8.757282000000000,,0x12,0xFF
8.760259000000000,,0x81,0xFF
8.763235000000000,,0x82,0xFF
8.799484000000000,,0xB8,0xFF
8.801928000000000,,0x02,0xFF
8.804905000000000,,0x20,0xFF
8.807881000000000,,0x06,0xFF
8.810857000000000,,0x02,0xFF
8.813834000000000,,0x38,0xFF
8.816810000000000,,0x12,0xFF
8.819786000000001,,0x81,0xFF
8.822763000000000,,0xFA,0xFF
8.859069999999999,,0xB8,0xFF
8.861454999999999,,0x02,0xFF
8.864432000000001,,0x20,0xFF
8.867407999999999,,0x8E,0xFF
8.870385000000001,,0x02,0xFF
8.873360999999999,,0x38,0xFF
8.876336999999999,,0x12,0xFF
8.879314000000001,,0x81,0xFF
8.882289999999999,,0x82,0xFF
8.918373000000001,,0xB0,0xFF
8.920983000000000,,0x02,0xFF
8.923959000000000,,0x20,0xFF
8.926936000000000,,0x06,0xFF
8.929912000000000,,0x02,0xFF
8.932888999999999,,0x38,0xFF
8.935865000000000,,0x12,0xFF
8.938841999999999,,0x81,0xFF
8.941818000000000,,0xFA,0xFF
8.977942000000001,,0xB0,0xFF
8.980511000000000,,0x02,0xFF
8.983487000000000,,0x20,0xFF
8.986464000000000,,0x8E,0xFF
8.989440000000000,,0x02,0xFF
8.992416000000000,,0x38,0xFF
8.995393000000000,,0x12,0xFF
8.998369000000000,,0x81,0xFF
9.001346000000000,,0x82,0xFF
9.037525000000000,,0xB0,0xFF
9.040037999999999,,0x02,0xFF
9.043013999999999,,0x20,0xFF
9.045990000000000,,0x06,0xFF
