Time [s],Packet ID,MOSI,MISO
0.009784800000000,0,0xB0,0x0B
0.012335000000000,,0x00,0x07
0.015308800000000,,0x20,0x00
0.018282600000000,,0x06,0x28
0.021256400000000,,0x0E,0x0F
0.024230400000000,,0x30,0x20
0.027204200000000,,0x12,0x04
0.030178200000000,,0x80,0x00
0.033152200000000,,0xFB,0xC2
0.069214000000000,,0xB0,0x0B
0.071812600000000,,0x00,0x07
0.074786600000000,,0x20,0x00
0.077760600000000,,0x8E,0x28
0.080734600000000,,0x0E,0x0F
0.083708800000000,,0x30,0x20
0.086682800000000,,0x12,0x04
0.089656600000000,,0x80,0x00
0.092630800000000,,0x83,0xC2
0.128663400000000,,0xB0,0x0B
0.131292400000000,,0x00,0x07
0.134266400000000,,0x20,0x00
0.137240400000000,,0x06,0x28
0.140214400000000,,0x0E,0x0F
0.143188200000000,,0x30,0x20
0.146162200000000,,0x12,0x04
0.149136200000000,,0x80,0x00
0.152110200000000,,0xFB,0xC2
0.188682000000000,,0xB0,0x0B
0.190769400000000,,0x00,0x07
0.193743400000000,,0x20,0x00
0.196717200000000,,0x8E,0x28
0.199691000000000,,0x0E,0x0F
0.202665000000000,,0x30,0x20
0.205638800000000,,0x12,0x04
0.208612800000000,,0x80,0x00
0.211586800000000,,0x83,0xC2
0.248092400000000,,0xB0,0x0B
0.250248000000000,,0x00,0x07
0.253222000000000,,0x20,0x00
0.256195800000000,,0x06,0x28
0.259169800000000,,0x0E,0x0F
0.262143800000000,,0x30,0x20
0.265117600000000,,0x12,0x04
0.268091600000000,,0x80,0x00
0.271065400000000,,0xFB,0xC2
0.307581800000000,,0xB0,0x0B
0.309726000000000,,0x00,0x07
0.312699800000000,,0x20,0x00
0.315673800000000,,0x8E,0x28
0.318647600000000,,0x0E,0x0F
0.321621600000000,,0x30,0x20
0.324595400000000,,0x12,0x04
0.327569200000000,,0x80,0x00
0.330543200000000,,0x83,0xC2
0.367054200000000,,0xB0,0x0B
0.369204400000000,,0x00,0x07
0.372178200000000,,0x20,0x00
0.375152000000000,,0x06,0x28
0.378126200000000,,0x0E,0x0F
0.381100000000000,,0x30,0x20
0.384074000000000,,0x12,0x04
0.387048000000000,,0x80,0x00
0.390022000000000,,0xFB,0xC2
0.426546800000000,,0xB0,0x0B
0.428683400000000,,0x00,0x07
0.431657400000000,,0x20,0x00
0.434631200000000,,0x8E,0x28
0.437605200000000,,0x0E,0x0F
0.440579200000000,,0x30,0x20
0.443553000000000,,0x12,0x04
0.446527000000000,,0x80,0x00
0.449500800000000,,0x83,0xC2
0.486040000000000,,0xB0,0x0B
0.488160800000000,,0x00,0x07
0.491134800000000,,0x20,0x00
0.494108600000000,,0x06,0x28
0.497082600000000,,0x0E,0x0F
0.500056600000000,,0x30,0x20
0.503030400000000,,0x12,0x04
0.506004400000000,,0x80,0x00
0.508978400000000,,0xFB,0xC2
0.545516000000000,,0xB0,0x0B
0.547640800000000,,0x00,0x07
0.550614800000000,,0x20,0x00
0.553588600000000,,0x8E,0x28
0.556562400000000,,0x0E,0x0F
0.559536400000000,,0x30,0x20
0.562510400000000,,0x12,0x04
0.565484400000000,,0x80,0x00
0.568458400000000,,0x83,0xC2
0.605010000000000,,0xB0,0x0B
0.607118800000000,,0x00,0x07
0.610092600000000,,0x20,0x00
0.613066600000000,,0x06,0x28
0.616040400000000,,0x0E,0x0F
0.619014200000000,,0x30,0x20
0.621988200000000,,0x12,0x04
0.624962200000000,,0x80,0x00
0.627936000000000,,0xFB,0xC2
0.664484800000000,,0xB0,0x0B
0.666597600000000,,0x00,0x07
0.669571600000000,,0x20,0x00
0.672545400000000,,0x8E,0x28
0.675519400000000,,0x0E,0x0F
0.678493400000000,,0x30,0x20
0.681467400000000,,0x12,0x04
0.684441200000000,,0x80,0x00
0.687415200000000,,0x83,0xC2
0.723977800000000,,0xB0,0x0B
0.726077200000000,,0x00,0x07
0.729051000000000,,0x20,0x00
0.732025000000000,,0x06,0x28
0.734999000000000,,0x0E,0x0F
0.737972800000000,,0x30,0x20
0.740946800000000,,0x12,0x04
0.743920800000000,,0x80,0x00
0.746894800000000,,0xFB,0xC2
0.783433800000000,,0xB0,0x0B
0.785558600000000,,0x00,0x07
0.788532600000000,,0x20,0x00
0.791506600000000,,0x8E,0x28
0.794480600000000,,0x0E,0x0F
0.797454600000000,,0x30,0x20
0.800428600000000,,0x12,0x04
0.803402600000000,,0x80,0x00
0.806376400000000,,0x83,0xC2
0.842911000000000,,0xB0,0x0B
0.845036600000000,,0x00,0x07
0.848010600000000,,0x20,0x00
0.850984400000000,,0x06,0x28
0.853958000000000,,0x0E,0x0F
0.856931800000000,,0x30,0x20
0.859905600000000,,0x12,0x04
0.862879400000000,,0x80,0x00
0.865853200000000,,0xFB,0xC2
0.901956400000000,,0xB0,0x0B
0.904513600000000,,0x00,0x07
0.907487400000000,,0x20,0x00
0.910461400000000,,0x8E,0x28
0.913435200000000,,0x0E,0x0F
0.916409000000000,,0x30,0x20
0.919383000000000,,0x13,0x04
0.922356800000000,,0x80,0x00
0.925330600000000,,0x84,0xC2
0.961902800000000,,0xB0,0x0B
0.963990000000000,,0x00,0x07
0.966963800000000,,0x20,0x00
0.969937600000000,,0x06,0x28
0.972911400000000,,0x0E,0x0F
0.975885400000000,,0x30,0x20
0.978859400000000,,0x13,0x04
0.981833400000000,,0x80,0x00
0.984807200000000,,0xFC,0xC2
1.021262200000000,,0xB0,0x0B
1.023468200000000,,0x00,0x07
1.026442000000000,,0x20,0x00
1.029416000000000,,0x8E,0x28
1.032390000000000,,0x0E,0x0F
1.035363800000000,,0x30,0x20
1.038337800000000,,0x13,0x04
1.041311800000000,,0x80,0x00
1.044285800000000,,0x84,0xC2
1.080660400000000,,0xB0,0x0B
1.082946600000000,,0x00,0x07
1.085920400000000,,0x20,0x00
1.088894400000000,,0x06,0x28
1.091868200000000,,0x0E,0x0F
1.094842000000000,,0x30,0x20
1.097816000000000,,0x13,0x04
1.100790000000000,,0x80,0x00
1.103764000000000,,0xFC,0xC2
1.140042400000000,,0xB0,0x0B
1.142425800000000,,0x00,0x07
1.145399800000000,,0x20,0x00
1.148373800000000,,0x8E,0x28
1.151347600000000,,0x0E,0x0F
1.154321800000000,,0x30,0x20
1.157295600000000,,0x13,0x04
1.160269400000000,,0x80,0x00
1.163243400000000,,0x84,0xC2
1.201511400000000,,0xB0,0x0B
1.203886200000000,,0x00,0x07
1.206860000000000,,0x20,0x00
1.209834000000000,,0x06,0x28
1.212807800000000,,0x0E,0x0F
1.215781600000000,,0x30,0x20
1.218755600000000,,0x13,0x04
1.221729400000000,,0x80,0x00
1.224703200000000,,0xFC,0xC2
1.258835200000000,,0xB0,0x0B
1.261381000000000,,0x00,0x07
1.264355000000000,,0x20,0x00
1.267329000000000,,0x8E,0x28
1.270303000000000,,0x0E,0x0F
1.273277000000000,,0x30,0x20
1.276250800000000,,0x13,0x04
1.279224800000000,,0x80,0x00
1.282198600000000,,0x84,0xC2
1.318378400000000,,0xB0,0x0B
1.320860400000000,,0x00,0x07
1.323834400000000,,0x20,0x00
1.326808200000000,,0x06,0x28
1.329782200000000,,0x0E,0x0F
1.332756200000000,,0x30,0x20
1.335730400000000,,0x13,0x04
1.338704400000000,,0x80,0x00
1.341678400000000,,0xFC,0xC2
1.377919400000000,,0xB0,0x0B
1.380339400000000,,0x00,0x07
1.383313400000000,,0x20,0x00
1.386287200000000,,0x8E,0x28
1.389261000000000,,0x0E,0x0F
1.392234800000000,,0x30,0x20
1.395208800000000,,0x13,0x04
1.398182600000000,,0x80,0x00
1.401156800000000,,0x84,0xC2
1.437445600000000,,0xB0,0x0B
1.439818000000000,,0x00,0x07
1.442792200000000,,0x20,0x00
1.445766000000000,,0x06,0x28
1.448739800000000,,0x0E,0x0F
1.451713800000000,,0x30,0x20
1.454687600000000,,0x13,0x04
1.457661400000000,,0x80,0x00
1.460635400000000,,0xFC,0xC2
1.496989200000000,,0xB0,0x0B
1.499298200000000,,0x00,0x07
1.502272200000000,,0x20,0x00
1.505246200000000,,0x8E,0x28
1.508220200000000,,0x0E,0x0F
1.511194200000000,,0x30,0x20
1.514168000000000,,0x13,0x04
1.517142000000000,,0x80,0x00
1.520116000000000,,0x84,0xC2
1.556515600000000,,0xB0,0x0B
1.558778400000000,,0x00,0x07
1.561752400000000,,0x20,0x00
1.564726200000000,,0x06,0x28
1.567700200000000,,0x0E,0x0F
1.570674200000000,,0x30,0x20
1.573648400000000,,0x13,0x04
1.576622200000000,,0x80,0x00
1.579596200000000,,0xFC,0xC2
1.616054600000000,,0xB0,0x0B
1.618257000000000,,0x00,0x07
1.621231000000000,,0x20,0x00
1.624205000000000,,0x8E,0x28
1.627179000000000,,0x0E,0x0F
1.630153000000000,,0x30,0x20
1.633127000000000,,0x13,0x04
1.636101000000000,,0x80,0x00
1.639075000000000,,0x84,0xC2
1.675597400000000,,0xB0,0x0B
1.677737000000000,,0x00,0x07
1.680711000000000,,0x20,0x00
1.683684800000000,,0x06,0x28
1.686658800000000,,0x0E,0x0F
1.689632600000000,,0x30,0x20
1.692606600000000,,0x13,0x04
1.695580600000000,,0x80,0x00
1.698554600000000,,0xFC,0xC2
1.735120400000000,,0xB0,0x0B
1.737215600000000,,0x00,0x07
1.740189600000000,,0x20,0x00
1.743163600000000,,0x8E,0x28
1.746137400000000,,0x0E,0x0F
1.749111400000000,,0x30,0x20
1.752085400000000,,0x13,0x04
1.755059400000000,,0x80,0x00
1.758033600000000,,0x84,0xC2
1.794624000000000,,0xB0,0x0B
1.796695800000000,,0x00,0x07
1.799669800000000,,0x20,0x00
1.802643800000000,,0x06,0x28
1.805617800000000,,0x0E,0x0F
1.808591600000000,,0x30,0x20
1.811565400000000,,0x13,0x04
1.814539200000000,,0x80,0x00
1.817513200000000,,0xFC,0xC2
1.853535400000000,,0xB0,0x0B
1.856174400000000,,0x00,0x07
1.859148400000000,,0x20,0x00
1.862122200000000,,0x8E,0x28
1.865096200000000,,0x0E,0x0F
1.868070200000000,,0x30,0x20
1.871044200000000,,0x13,0x04
1.874018000000000,,0x80,0x00
1.876992000000000,,0x84,0xC2
1.913536000000000,,0xB0,0x0B
1.915652600000000,,0x00,0x07
1.918626600000000,,0x20,0x00
1.921600600000000,,0x06,0x28
1.924574600000000,,0x0E,0x0F
1.927548800000000,,0x30,0x20
1.930522800000000,,0x14,0x04
1.933496800000000,,0x80,0x00
1.936470800000000,,0xFD,0xC2
1.972982600000000,,0xB0,0x0B
1.975132600000000,,0x00,0x07
1.978106600000000,,0x20,0x00
1.981080600000000,,0x8E,0x28
1.984054600000000,,0x0E,0x0F
1.987028400000000,,0x30,0x20
1.990002600000000,,0x14,0x04
1.992976600000000,,0x80,0x00
1.995950600000000,,0x85,0xC2
2.032410000000000,,0xB0,0x0B
2.034612400000000,,0x00,0x07
2.037586400000000,,0x20,0x00
2.040560400000000,,0x06,0x28
2.043534400000000,,0x0E,0x0F
2.046508400000000,,0x30,0x20
2.049482400000000,,0x14,0x04
2.052456600000000,,0x80,0x00
2.055430400000000,,0xFD,0xC2
2.091857200000000,,0xB0,0x0B
2.094092400000000,,0x00,0x07
2.097066400000000,,0x20,0x00
2.100040400000000,,0x8E,0x28
2.103014400000000,,0x0E,0x0F
2.105988200000000,,0x30,0x20
2.108962200000000,,0x14,0x04
2.111936200000000,,0x80,0x00
2.114910200000000,,0x85,0xC2
2.151283000000000,,0xB0,0x0B
2.153570800000000,,0x00,0x07
2.156544800000000,,0x20,0x00
2.159518600000000,,0x06,0x28
2.162492600000000,,0x0E,0x0F
2.165466200000000,,0x30,0x20
2.168440000000000,,0x14,0x04
2.171413800000000,,0x80,0x00
2.174387600000000,,0xFD,0xC2
2.210563400000000,,0xB0,0x0B
2.213047800000000,,0x00,0x07
2.216021800000000,,0x20,0x00
2.218995800000000,,0x8E,0x28
2.221969800000000,,0x0E,0x0F
2.224943800000000,,0x30,0x20
2.227917800000000,,0x14,0x04
2.230891600000000,,0x80,0x00
2.233865400000000,,0x85,0xC2
2.270055000000000,,0xB0,0x0B
2.272526400000000,,0x00,0x07
2.275500400000000,,0x20,0x00
2.278474200000000,,0x06,0x28
2.281448200000000,,0x0E,0x0F
2.284422000000000,,0x30,0x20
2.287395800000000,,0x14,0x04
2.290369800000000,,0x80,0x00
2.293343600000000,,0xFD,0xC2
2.329532600000000,,0xB0,0x0B
2.332005800000000,,0x00,0x07
2.334979600000000,,0x20,0x00
2.337953400000000,,0x8E,0x28
2.340927400000000,,0x0E,0x0F
2.343901400000000,,0x30,0x20
2.346875600000000,,0x14,0x04
2.349849600000000,,0x80,0x00
2.352823600000000,,0x85,0xC2
2.389027800000000,,0xB0,0x0B
2.391484800000000,,0x00,0x07
2.394458800000000,,0x20,0x00
2.397432800000000,,0x06,0x28
2.400407000000000,,0x0E,0x0F
2.403381000000000,,0x30,0x20
2.406354800000000,,0x14,0x04
2.409328600000000,,0x80,0x00
2.412302600000000,,0xFD,0xC2
2.448501800000000,,0xB0,0x0B
2.450962400000000,,0x00,0x07
2.453936200000000,,0x20,0x00
2.456910000000000,,0x8E,0x28
2.459883800000000,,0x0E,0x0F
2.462857600000000,,0x30,0x20
2.465831400000000,,0x14,0x04
2.468805400000000,,0x80,0x00
2.471779400000000,,0x85,0xC2
2.507991400000000,,0xB0,0x0B
2.510439400000000,,0x00,0x07
2.513413000000000,,0x20,0x00
2.516387000000000,,0x06,0x28
2.519360800000000,,0x0E,0x0F
2.522334600000000,,0x30,0x20
2.525308600000000,,0x14,0x04
2.528282600000000,,0x80,0x00
2.531256600000000,,0xFD,0xC2
2.567483400000000,,0xB0,0x0B
2.569918200000000,,0x00,0x07
2.572892200000000,,0x20,0x00
2.575866400000000,,0x8E,0x28
2.578840600000000,,0x0E,0x0F
2.581814600000000,,0x30,0x20
2.584788600000000,,0x14,0x04
2.587762600000000,,0x80,0x00
2.590736400000000,,0x85,0xC2
2.626963400000000,,0xB0,0x0B
2.629397600000000,,0x00,0x07
2.632371600000000,,0x20,0x00
2.635345600000000,,0x06,0x28
2.638319400000000,,0x0E,0x0F
2.641293400000000,,0x30,0x20
2.644267400000000,,0x14,0x04
2.647241400000000,,0x80,0x00
2.650215400000000,,0xFD,0xC2
2.686457000000000,,0xB0,0x0B
2.688876800000000,,0x00,0x07
2.691850800000000,,0x20,0x00
2.694825000000000,,0x8E,0x28
2.697799000000000,,0x0E,0x0F
2.700773000000000,,0x30,0x20
2.703747000000000,,0x14,0x04
2.706721000000000,,0x80,0x00
2.709695000000000,,0x85,0xC2
2.745934800000000,,0xB0,0x0B
2.748356600000000,,0x00,0x07
2.751330600000000,,0x20,0x00
2.754304600000000,,0x06,0x28
2.757278400000000,,0x0E,0x0F
2.760252600000000,,0x30,0x20
2.763226600000000,,0x14,0x04
2.766200600000000,,0x80,0x00
2.769174600000000,,0xFD,0xC2
2.805450400000000,,0xB0,0x0B
2.807836200000000,,0x20,0x07
2.810810000000000,,0x20,0x00
2.813784000000000,,0x8E,0x28
2.816757800000000,,0x0E,0x0F
2.819731600000000,,0x30,0x20
2.822705400000000,,0x14,0x04
2.825679400000000,,0x81,0x00
2.828653200000000,,0xA6,0xC2
2.865005600000000,,0xB0,0x0B
2.867313600000000,,0x20,0x07
2.870287600000000,,0x20,0x00
2.873261600000000,,0x06,0x28
2.876235600000000,,0x0E,0x0F
2.879209600000000,,0x30,0x20
2.882183800000000,,0x14,0x04
2.885157800000000,,0x81,0x00
2.888131800000000,,0x1E,0xC2
2.924191600000000,,0xB0,0x0B
2.926792200000000,,0x00,0x07
2.929766000000000,,0x20,0x00
2.932739800000000,,0x8E,0x00
2.935713600000000,,0x0E,0x0F
2.938687400000000,,0x30,0x20
2.941661200000000,,0x15,0x04
2.944635000000000,,0x80,0x00
2.947609000000000,,0x86,0x9A
2.984073800000000,,0xB0,0x0B
2.986270200000000,,0x00,0x07
2.989244000000000,,0x20,0x00
2.992218000000000,,0x06,0x00
2.995191800000000,,0x0E,0x0F
2.998165800000000,,0x30,0x20
3.001139600000000,,0x15,0x04
3.004113600000000,,0x80,0x00
3.007087400000000,,0xFE,0x9A
3.043264200000000,,0xB0,0x0B
3.045747800000000,,0x00,0x07
3.048721600000000,,0x20,0x00
3.051695400000000,,0x8E,0x00
3.054669200000000,,0x0E,0x0F
3.057643000000000,,0x30,0x20
3.060616800000000,,0x15,0x04
3.063590600000000,,0x80,0x00
3.066564600000000,,0x86,0x9A
3.103041800000000,,0xB0,0x0B
3.105224800000000,,0x00,0x07
3.108198600000000,,0x20,0x00
3.111172400000000,,0x06,0x00
3.114146200000000,,0x0E,0x0F
3.117120000000000,,0x30,0x20
3.120094000000000,,0x15,0x04
3.123067800000000,,0x80,0x00
3.126041600000000,,0xFE,0x9A
3.162254800000000,,0xB0,0x0B
3.164702400000000,,0x00,0x07
3.167676400000000,,0x20,0x00
3.170650200000000,,0x8E,0x00
3.173624200000000,,0x0E,0x0F
3.176598200000000,,0x30,0x20
3.179572200000000,,0x15,0x04
3.182546200000000,,0x80,0x00
3.185520200000000,,0x86,0x9A
3.221658800000000,,0xB0,0x0B
3.224183200000000,,0x00,0x07
3.227157200000000,,0x20,0x00
3.230131200000000,,0x06,0x00
3.233105000000000,,0x0E,0x0F
3.236079000000000,,0x30,0x20
3.239053000000000,,0x15,0x04
3.242027000000000,,0x80,0x00
3.245001000000000,,0xFE,0x9A
3.281484600000000,,0xB0,0x0B
3.283660000000000,,0x00,0x07
3.286633800000000,,0x20,0x00
3.289607600000000,,0x8E,0x00
3.292581400000000,,0x0E,0x0F
3.295555200000000,,0x30,0x20
3.298529000000000,,0x15,0x04
3.301502600000000,,0x80,0x00
3.304476600000000,,0x86,0x9A
3.340722600000000,,0xB0,0x0B
3.343137200000000,,0x00,0x07
3.346111200000000,,0x20,0x00
3.349085000000000,,0x06,0x00
3.352059000000000,,0x0E,0x0F
3.355033000000000,,0x30,0x20
3.358006800000000,,0x15,0x04
3.360980800000000,,0x80,0x00
3.363954600000000,,0xFE,0x9A
3.399974800000000,,0xB0,0x0B
3.402614800000000,,0x00,0x07
3.405588600000000,,0x20,0x00
3.408562400000000,,0x8E,0x00
3.411536200000000,,0x0E,0x0F
3.414510000000000,,0x30,0x20
3.417483800000000,,0x15,0x04
3.420457600000000,,0x80,0x00
3.423431600000000,,0x86,0x9A
3.459798200000000,,0xB0,0x0B
3.462090800000000,,0x00,0x07
3.465064600000000,,0x20,0x00
3.468038400000000,,0x06,0x00
3.471012200000000,,0x0E,0x0F
3.473986200000000,,0x30,0x20
3.476960000000000,,0x15,0x04
3.479933800000000,,0x80,0x00
3.482907800000000,,0xFE,0x9A
3.519039600000000,,0xB0,0x0B
3.521569000000000,,0x00,0x07
3.524543000000000,,0x20,0x00
3.527517000000000,,0x8E,0x00
3.530490800000000,,0x0E,0x0F
3.533464600000000,,0x30,0x20
3.536438600000000,,0x15,0x04
3.539412400000000,,0x80,0x00
3.542386400000000,,0x86,0x9A
3.578866000000000,,0xB0,0x0B
3.581047600000000,,0x00,0x07
3.584021600000000,,0x20,0x00
3.586995600000000,,0x06,0x00
3.589969600000000,,0x0E,0x0F
3.592943600000000,,0x30,0x20
3.595917600000000,,0x15,0x04
3.598891600000000,,0x80,0x00
3.601865400000000,,0xFE,0x9A
3.638104400000000,,0xB0,0x0B
3.640526600000000,,0x00,0x07
3.643500600000000,,0x20,0x00
3.646474400000000,,0x8E,0x00
3.649448400000000,,0x0E,0x0F
3.652422200000000,,0x30,0x20
3.655396000000000,,0x15,0x04
3.658370000000000,,0x80,0x00
3.661344000000000,,0x86,0x9A
3.697931200000000,,0xB0,0x0B
3.700005600000000,,0x00,0x07
3.702979600000000,,0x20,0x00
3.705953600000000,,0x06,0x00
3.708927600000000,,0x0E,0x0F
3.711901600000000,,0x30,0x20
3.714875600000000,,0x15,0x04
3.717849600000000,,0x80,0x00
3.720823600000000,,0xFE,0x9A
3.757149000000000,,0xB0,0x0B
3.759485600000000,,0x00,0x07
3.762459800000000,,0x20,0x00
3.765433800000000,,0x8E,0x00
3.768408000000000,,0x0E,0x0F
3.771382000000000,,0x30,0x20
3.774355800000000,,0x15,0x04
3.777329800000000,,0x80,0x00
3.780303800000000,,0x86,0x9A
3.816389200000000,,0xB0,0x0B
3.818965400000000,,0x00,0x07
3.821939400000000,,0x20,0x00
3.824913400000000,,0x06,0x00
3.827887200000000,,0x0E,0x0F
3.830861200000000,,0x30,0x20
3.833835000000000,,0x15,0x04
3.836809000000000,,0x80,0x00
3.839783000000000,,0xFE,0x9A
3.875956200000000,,0xB0,0x0B
3.878443200000000,,0x00,0x07
3.881417000000000,,0x20,0x00
3.884390800000000,,0x8E,0x00
3.887364400000000,,0x0E,0x0F
3.890338000000000,,0x30,0x20
3.893311800000000,,0x16,0x04
3.896285600000000,,0x80,0x00
3.899259400000000,,0x87,0x9A
3.935766000000000,,0xB0,0x0B
3.937919400000000,,0x00,0x07
3.940893200000000,,0x20,0x00
3.943867000000000,,0x06,0x00
3.946840800000000,,0x0E,0x0F
3.949814600000000,,0x30,0x20
3.952788400000000,,0x16,0x04
3.955762200000000,,0x80,0x00
3.958736000000000,,0xFF,0x9A
3.995021000000000,,0xB0,0x0B
3.997397400000000,,0x00,0x07
4.000371400000000,,0x20,0x00
4.003345400000000,,0x8E,0x00
4.006319400000000,,0x0E,0x0F
4.009293400000000,,0x30,0x20
4.012267400000000,,0x16,0x04
4.015241400000000,,0x80,0x00
4.018215400000000,,0x87,0x9A
4.054281600000000,,0xB0,0x0B
4.056877200000000,,0x00,0x07
4.059851400000000,,0x20,0x00
4.062825400000000,,0x06,0x00
4.065799400000000,,0x0E,0x0F
4.068773400000000,,0x30,0x20
4.071747600000000,,0x16,0x04
4.074721600000000,,0x80,0x00
4.077695800000000,,0xFF,0x9A
4.114093800000000,,0xB0,0x0B
4.116357600000000,,0x00,0x07
4.119331800000000,,0x20,0x00
4.122305800000000,,0x8E,0x00
4.125279800000000,,0x0E,0x0F
4.128253800000000,,0x30,0x20
4.131228000000000,,0x16,0x04
4.134202000000000,,0x80,0x00
4.137176200000000,,0x87,0x9A
4.173255000000000,,0xB0,0x0B
4.175838200000000,,0x00,0x07
4.178812000000000,,0x20,0x00
4.181786000000000,,0x06,0x00
4.184759800000000,,0x0E,0x0F
4.187733800000000,,0x30,0x20
4.190708000000000,,0x16,0x04
4.193682000000000,,0x80,0x00
4.196656200000000,,0xFF,0x9A
4.233019800000000,,0xB0,0x0B
4.235317400000000,,0x00,0x07
4.238291400000000,,0x20,0x00
4.241265400000000,,0x8E,0x00
4.244239400000000,,0x0E,0x0F
4.247213400000000,,0x30,0x20
4.250187400000000,,0x16,0x04
4.253161400000000,,0x80,0x00
4.256135400000000,,0x87,0x9A
4.292228800000000,,0xB0,0x0B
4.294796000000000,,0x00,0x07
4.297769800000000,,0x20,0x00
4.300743600000000,,0x06,0x00
4.303717400000000,,0x0E,0x0F
4.306691200000000,,0x30,0x20
4.309665200000000,,0x16,0x04
4.312639200000000,,0x80,0x00
4.315613000000000,,0xFF,0x9A
4.352004800000000,,0xB0,0x0B
4.354273400000000,,0x00,0x07
4.357247400000000,,0x20,0x00
4.360221400000000,,0x8E,0x00
4.363195200000000,,0x0E,0x0F
4.366169000000000,,0x30,0x20
4.369142800000000,,0x16,0x04
4.372116800000000,,0x80,0x00
4.375090600000000,,0x87,0x9A
4.411197000000000,,0xB0,0x0B
4.413750600000000,,0x00,0x07
4.416724600000000,,0x20,0x00
4.419698400000000,,0x06,0x00
4.422672400000000,,0x0E,0x0F
4.425646200000000,,0x30,0x20
4.428620000000000,,0x16,0x04
4.431593800000000,,0x80,0x00
4.434567600000000,,0xFF,0x9A
4.470972800000000,,0xB0,0x0B
4.473227600000000,,0x00,0x07
4.476201400000000,,0x20,0x00
4.479175400000000,,0x8E,0x00
4.482149200000000,,0x0E,0x0F
4.485123000000000,,0x30,0x20
4.488096800000000,,0x16,0x04
4.491070600000000,,0x80,0x00
4.494044400000000,,0x87,0x9A
4.530165400000000,,0xB0,0x0B
4.532705600000000,,0x00,0x07
4.535679800000000,,0x20,0x00
4.538653800000000,,0x06,0x00
4.541627800000000,,0x0E,0x0F
4.544601800000000,,0x30,0x20
4.547575600000000,,0x16,0x04
4.550549800000000,,0x80,0x00
4.553523800000000,,0xFF,0x9A
4.589946400000000,,0xB0,0x0B
4.592185800000000,,0x00,0x07
4.595159800000000,,0x20,0x00
4.598134000000000,,0x8E,0x00
4.601108200000000,,0x0E,0x0F
4.604082200000000,,0x30,0x20
4.607056200000000,,0x16,0x04
4.610030400000000,,0x80,0x00
4.613004600000000,,0x87,0x9A
4.649159600000000,,0xB0,0x0B
4.651667600000000,,0x00,0x07
4.654641400000000,,0x20,0x00
4.657615400000000,,0x06,0x00
4.660589400000000,,0x0E,0x0F
4.663563400000000,,0x30,0x20
4.666537400000000,,0x16,0x04
4.669511600000000,,0x80,0x00
4.672485400000000,,0xFF,0x9A
4.708923600000000,,0xB0,0x0B
4.711146400000000,,0x00,0x07
4.714120200000000,,0x20,0x00
4.717094000000000,,0x8E,0x00
4.720068000000000,,0x0E,0x0F
4.723041800000000,,0x30,0x20
4.726015800000000,,0x16,0x04
4.728989800000000,,0x80,0x00
4.731963800000000,,0x87,0x9A
4.768135600000000,,0xB0,0x0B
4.770624400000000,,0x00,0x07
4.773598400000000,,0x20,0x00
4.776572200000000,,0x06,0x00
4.779546000000000,,0x0E,0x0F
4.782519800000000,,0x30,0x20
4.785493600000000,,0x16,0x04
4.788467600000000,,0x80,0x00
4.791441400000000,,0xFF,0x9A
4.827896000000000,,0xB0,0x0B
4.830100800000000,,0x00,0x07
4.833074800000000,,0x20,0x00
4.836048600000000,,0x8E,0x00
4.839022400000000,,0x0E,0x0F
4.841996200000000,,0x30,0x20
4.844970000000000,,0x16,0x04
4.847944000000000,,0x80,0x00
4.850917600000000,,0x87,0x9A
4.887414400000000,,0xB0,0x0B
4.889577800000000,,0x00,0x07
4.892551800000000,,0x20,0x00
4.895525800000000,,0x06,0x00
4.898499600000000,,0x0E,0x0F
4.901473400000000,,0x30,0x20
4.904447200000000,,0x17,0x04
4.907421000000000,,0x80,0x00
4.910395000000000,,0x00,0x9A
4.946621600000000,,0xB0,0x0B
4.949054200000000,,0x00,0x07
4.952028000000000,,0x20,0x00
4.955001800000000,,0x8E,0x00
4.957975600000000,,0x0E,0x0F
4.960949600000000,,0x30,0x20
4.963923400000000,,0x17,0x04
4.966897200000000,,0x80,0x00
4.969871000000000,,0x88,0x9A
5.006383800000000,,0xB0,0x0B
5.008530400000000,,0x00,0x07
5.011504200000000,,0x20,0x00
5.014478000000000,,0x06,0x00
5.017451800000000,,0x0E,0x0F
5.020425600000000,,0x30,0x20
5.023399600000000,,0x17,0x04
5.026373400000000,,0x80,0x00
5.029347200000000,,0x00,0x9A
5.065589200000000,,0xB0,0x0B
5.068006800000000,,0x00,0x07
5.070980400000000,,0x20,0x00
5.073954400000000,,0x8E,0x00
5.076928200000000,,0x0E,0x0F
5.079902000000000,,0x30,0x20
5.082876000000000,,0x17,0x04
5.085849600000000,,0x80,0x00
5.088823600000000,,0x88,0x9A
5.125350400000000,,0xB0,0x0B
5.127483400000000,,0x00,0x07
5.130457200000000,,0x20,0x00
5.133431000000000,,0x06,0x00
5.136404600000000,,0x0E,0x0F
5.139378400000000,,0x30,0x20
5.142352200000000,,0x17,0x04
5.145326200000000,,0x80,0x00
5.148300000000000,,0x00,0x9A
5.184769400000000,,0xB0,0x0B
5.186960000000000,,0x00,0x07
5.189933800000000,,0x20,0x00
5.192907800000000,,0x8E,0x00
5.195881400000000,,0x0E,0x0F
5.198855400000000,,0x30,0x20
5.201829400000000,,0x17,0x04
5.204803200000000,,0x80,0x00
5.207777000000000,,0x88,0x9A
5.244042400000000,,0xB0,0x0B
5.246438200000000,,0x20,0x07
5.249412200000000,,0x20,0x00
5.252386000000000,,0x06,0x00
5.255360000000000,,0x0E,0x0F
5.258334000000000,,0x30,0x20
5.261308000000000,,0x17,0x04
5.264281800000000,,0x81,0x00
5.267255600000000,,0x21,0x9A
5.303330600000000,,0xB0,0x0B
5.305915600000000,,0x20,0x07
5.308889400000000,,0x20,0x00
5.311863400000000,,0x8E,0x00
5.314837200000000,,0x0E,0x0F
5.317811200000000,,0x30,0x20
5.320785000000000,,0x17,0x04
5.323759000000000,,0x81,0x00
5.326732800000000,,0xA9,0x9A
5.363215400000000,,0xB0,0x0B
5.365394400000000,,0x20,0x07
5.368368200000000,,0x20,0x00
5.371342000000000,,0x06,0x08
5.374315800000000,,0x0E,0x0F
5.377289600000000,,0x30,0x20
5.380263600000000,,0x17,0x04
5.383237400000000,,0x81,0x00
5.386211200000000,,0x21,0xA2
5.422722200000000,,0xB0,0x0B
5.424872000000000,,0x00,0x07
5.427845800000000,,0x20,0x00
5.430819600000000,,0x8E,0x08
5.433793400000000,,0x0E,0x0F
5.436767200000000,,0x30,0x20
5.439741000000000,,0x17,0x04
5.442714800000000,,0x80,0x00
5.445688600000000,,0x88,0xA2
5.481977600000000,,0xB0,0x0B
5.484348200000000,,0x00,0x07
5.487322000000000,,0x20,0x00
5.490295800000000,,0x06,0x08
5.493269800000000,,0x0E,0x0F
5.496243400000000,,0x30,0x20
5.499217200000000,,0x17,0x04
5.502191000000000,,0x80,0x00
5.505165000000000,,0x00,0xA2
5.541231400000000,,0xB0,0x0B
5.543826000000000,,0x00,0x07
5.546799800000000,,0x20,0x00
5.549773800000000,,0x8E,0x08
5.552747600000000,,0x0E,0x0F
5.555721600000000,,0x30,0x20
5.558695400000000,,0x17,0x04
5.561669400000000,,0x80,0x00
5.564643000000000,,0x88,0xA2
5.601040600000000,,0xB0,0x0B
5.603303800000000,,0x00,0x07
5.606277600000000,,0x20,0x00
5.609251600000000,,0x06,0x08
5.612225600000000,,0x0E,0x0F
5.615199400000000,,0x30,0x20
5.618173200000000,,0x17,0x04
5.621147000000000,,0x80,0x00
5.624120800000000,,0x00,0xA2
5.660293600000000,,0xB0,0x0B
5.662780400000000,,0x00,0x07
5.665754200000000,,0x20,0x00
5.668727800000000,,0x8E,0x08
5.671701600000000,,0x0E,0x0F
5.674675400000000,,0x30,0x20
5.677649400000000,,0x17,0x04
5.680623200000000,,0x80,0x00
5.683597200000000,,0x88,0xA2
5.720103400000000,,0xB0,0x0B
5.722257000000000,,0x00,0x07
5.725230800000000,,0x20,0x00
5.728204600000000,,0x06,0x08
5.731178800000000,,0x0E,0x0F
5.734152600000000,,0x30,0x20
5.737126800000000,,0x17,0x04
5.740101000000000,,0x80,0x00
5.743075000000000,,0x00,0xA2
5.779359000000000,,0xB0,0x0B
5.781735400000000,,0x00,0x07
5.784709400000000,,0x20,0x00
5.787683200000000,,0x8E,0x08
5.790657200000000,,0x0E,0x0F
5.793631200000000,,0x30,0x20
5.796605200000000,,0x17,0x04
5.799579200000000,,0x80,0x00
5.802553400000000,,0x88,0xA2
5.838632000000000,,0xB0,0x0B
5.841214200000000,,0x00,0x07
5.844188000000000,,0x20,0x00
5.847162000000000,,0x06,0x08
5.850135800000000,,0x0E,0x0F
5.853109600000000,,0x30,0x20
5.856083400000000,,0x17,0x04
5.859057400000000,,0x80,0x00
5.862031400000000,,0x00,0xA2
5.898171800000000,,0xB0,0x0B
5.900692800000000,,0x00,0x07
5.903666600000000,,0x20,0x00
5.906640600000000,,0x8E,0x08
5.909614600000000,,0x0E,0x0F
5.912588600000000,,0x30,0x20
5.915562600000000,,0x18,0x04
5.918536600000000,,0x80,0x00
5.921510400000000,,0x89,0xA2
5.957997200000000,,0xB0,0x0B
5.960171600000000,,0x00,0x07
5.963145600000000,,0x20,0x00
5.966119400000000,,0x06,0x08
5.969093400000000,,0x0E,0x0F
5.972067200000000,,0x30,0x20
5.975041200000000,,0x18,0x04
5.978015200000000,,0x80,0x00
5.980989200000000,,0x01,0xA2
6.017238800000000,,0xB0,0x0B
6.019651200000000,,0x00,0x07
6.022625000000000,,0x20,0x00
6.025599000000000,,0x8E,0x08
6.028572800000000,,0x0E,0x0F
6.031546600000000,,0x30,0x20
6.034520400000000,,0x18,0x04
6.037494400000000,,0x80,0x00
6.040468200000000,,0x89,0xA2
6.076494400000000,,0xB0,0x0B
6.079128400000000,,0x00,0x07
6.082102200000000,,0x20,0x00
6.085076000000000,,0x06,0x08
6.088049800000000,,0x0E,0x0F
6.091023800000000,,0x30,0x20
6.093997400000000,,0x18,0x04
6.096971400000000,,0x80,0x00
6.099945200000000,,0x01,0xA2
6.136330400000000,,0xB0,0x0B
6.138606600000000,,0x00,0x07
6.141580400000000,,0x20,0x00
6.144554200000000,,0x8E,0x08
6.147528200000000,,0x0E,0x0F
6.150502200000000,,0x30,0x20
6.153476000000000,,0x18,0x04
6.156450000000000,,0x80,0x00
6.159423800000000,,0x89,0xA2
6.195992800000000,,0xB0,0x0B
6.198088000000000,,0x00,0x07
6.201062000000000,,0x20,0x00
6.204035800000000,,0x06,0x08
6.207009800000000,,0x0E,0x0F
6.209983600000000,,0x30,0x20
6.212957600000000,,0x18,0x04
6.215931600000000,,0x80,0x00
6.218905600000000,,0x01,0xA2
6.255164800000000,,0xB0,0x0B
6.257567200000000,,0x00,0x07
6.260541200000000,,0x20,0x00
6.263515200000000,,0x8E,0x08
6.266489200000000,,0x0E,0x0F
6.269463400000000,,0x30,0x20
6.272437400000000,,0x18,0x04
6.275411400000000,,0x80,0x00
6.278385600000000,,0x89,0xA2
6.314932400000000,,0xB0,0x0B
6.317049400000000,,0x00,0x07
6.320023600000000,,0x20,0x00
6.322997800000000,,0x06,0x08
6.325971800000000,,0x0E,0x0F
6.328945800000000,,0x30,0x20
6.331919800000000,,0x18,0x04
6.334894000000000,,0x80,0x00
6.337868000000000,,0x01,0xA2
6.374146600000000,,0xB0,0x0B
6.376531000000000,,0x00,0x07
6.379505000000000,,0x20,0x00
6.382479200000000,,0x8E,0x08
6.385453400000000,,0x0E,0x0F
6.388427600000000,,0x30,0x20
6.391401600000000,,0x18,0x04
6.394375600000000,,0x80,0x00
6.397349400000000,,0x89,0xA2
6.433929800000000,,0xB0,0x0B
6.436009200000000,,0x00,0x07
6.438983000000000,,0x20,0x00
6.441957200000000,,0x06,0x08
6.444931000000000,,0x0E,0x0F
6.447905200000000,,0x30,0x20
6.450879400000000,,0x18,0x04
6.453853400000000,,0x80,0x00
6.456827600000000,,0x01,0xA2
6.493088400000000,,0xB0,0x0B
6.495488800000000,,0x00,0x07
6.498462600000000,,0x20,0x00
6.501436600000000,,0x8E,0x08
6.504410400000000,,0x0E,0x0F
6.507384400000000,,0x30,0x20
6.510358200000000,,0x18,0x04
6.513332200000000,,0x80,0x00
6.516306200000000,,0x89,0xA2
6.552868600000000,,0xB0,0x0B
6.554967800000000,,0x00,0x07
6.557941800000000,,0x20,0x00
6.560915600000000,,0x06,0x08
6.563889600000000,,0x0E,0x0F
6.566863600000000,,0x30,0x20
6.569837400000000,,0x18,0x04
6.572811400000000,,0x80,0x00
6.575785200000000,,0x01,0xA2
6.612023800000000,,0xB0,0x0B
6.614446600000000,,0x00,0x07
6.617420400000000,,0x20,0x00
6.620394400000000,,0x8E,0x08
6.623368200000000,,0x0E,0x0F
6.626342200000000,,0x30,0x20
6.629316000000000,,0x18,0x04
6.632290200000000,,0x80,0x00
6.635264200000000,,0x89,0xA2
6.671805200000000,,0xB0,0x0B
6.673925800000000,,0x00,0x07
6.676899600000000,,0x20,0x00
6.679873400000000,,0x06,0x08
6.682847400000000,,0x0E,0x0F
6.685821200000000,,0x30,0x20
6.688795200000000,,0x18,0x04
6.691769200000000,,0x80,0x00
6.694743200000000,,0x01,0xA2
6.731011400000000,,0xB0,0x0B
6.733404800000000,,0x00,0x07
6.736378600000000,,0x20,0x00
6.739352600000000,,0x8E,0x08
6.742326600000000,,0x0E,0x0F
6.745300600000000,,0x30,0x20
6.748274400000000,,0x18,0x04
6.751248400000000,,0x80,0x00
6.754222200000000,,0x89,0xA2
6.790777600000000,,0xB0,0x0B
6.792882400000000,,0x00,0x07
6.795856400000000,,0x20,0x00
6.798830400000000,,0x06,0x08
6.801804400000000,,0x0E,0x0F
6.804778400000000,,0x30,0x20
6.807752400000000,,0x18,0x04
6.810726400000000,,0x80,0x00
6.813700400000000,,0x01,0xA2
6.849728200000000,,0xB0,0x0B
6.852362800000000,,0x00,0x07
6.855336800000000,,0x20,0x00
6.858311000000000,,0x8E,0x08
6.861285000000000,,0x0E,0x0F
6.864259200000000,,0x30,0x20
6.867233200000000,,0x19,0x04
6.870207200000000,,0x80,0x00
6.873181200000000,,0x8A,0xA2
6.909494200000000,,0xB0,0x0B
6.911842600000000,,0x00,0x07
6.914816400000000,,0x20,0x00
6.917790200000000,,0x06,0x08
6.920764200000000,,0x0E,0x0F
6.923738000000000,,0x30,0x20
6.926712000000000,,0x19,0x04
6.929686000000000,,0x80,0x00
6.932659800000000,,0x02,0xA2
6.968701200000000,,0xB0,0x0B
6.971320400000000,,0x00,0x07
6.974294200000000,,0x20,0x00
6.977268400000000,,0x8E,0x08
6.980242200000000,,0x0E,0x0F
6.983216200000000,,0x30,0x20
6.986190200000000,,0x19,0x04
6.989164200000000,,0x80,0x00
6.992138000000000,,0x8A,0xA2
7.028484000000000,,0xB0,0x0B
7.030799000000000,,0x00,0x07
7.033772800000000,,0x20,0x00
7.036746800000000,,0x06,0x08
7.039720800000000,,0x0E,0x0F
7.042694600000000,,0x30,0x20
7.045668600000000,,0x19,0x04
7.048642600000000,,0x80,0x00
7.051616600000000,,0x02,0xA2
7.087675800000000,,0xB0,0x0B
7.090279000000000,,0x00,0x07
7.093253000000000,,0x20,0x00
7.096227000000000,,0x8E,0x08
7.099201000000000,,0x0E,0x0F
7.102175200000000,,0x30,0x20
7.105149200000000,,0x19,0x04
7.108123400000000,,0x80,0x00
7.111097600000000,,0x8A,0xA2
7.147656600000000,,0xB0,0x0B
7.149760000000000,,0x00,0x07
7.152733800000000,,0x20,0x00
7.155707800000000,,0x06,0x08
7.158681800000000,,0x0E,0x0F
7.161655800000000,,0x30,0x20
7.164629600000000,,0x19,0x04
7.167603600000000,,0x80,0x00
7.170577600000000,,0x02,0xA2
7.206861800000000,,0xB0,0x0B
7.209239200000000,,0x00,0x07
7.212213400000000,,0x20,0x00
7.215187600000000,,0x8E,0x08
7.218161400000000,,0x0E,0x0F
7.221135600000000,,0x30,0x20
7.224109600000000,,0x19,0x04
7.227083400000000,,0x80,0x00
7.230057400000000,,0x8A,0xA2
7.266142600000000,,0xB0,0x0B
7.268719400000000,,0x20,0x07
7.271693400000000,,0x20,0x00
7.274667600000000,,0x06,0x08
7.277641600000000,,0x0E,0x0F
7.280615600000000,,0x30,0x20
7.283589400000000,,0x19,0x04
7.286563200000000,,0x81,0x00
7.289537000000000,,0x23,0xA2
7.326019800000000,,0xB0,0x0B
7.328198800000000,,0x20,0x07
7.331172800000000,,0x20,0x00
7.334146800000000,,0x8E,0x08
7.337120800000000,,0x0E,0x0F
7.340094800000000,,0x30,0x20
7.343068800000000,,0x19,0x04
7.346042800000000,,0x81,0x00
7.349016600000000,,0xAB,0xA2
7.385316000000000,,0xB0,0x0B
7.387678400000000,,0x20,0x07
7.390652400000000,,0x20,0x00
7.393626200000000,,0x06,0x10
7.396600000000000,,0x0E,0x0F
7.399574000000000,,0x30,0x20
7.402548000000000,,0x19,0x04
7.405522000000000,,0x81,0x00
7.408495800000000,,0x23,0xAA
7.444841200000000,,0xB0,0x0B
7.447159000000000,,0x00,0x07
7.450133200000000,,0x20,0x00
7.453107200000000,,0x8E,0x10
7.456081200000000,,0x0E,0x0F
7.459055400000000,,0x30,0x20
7.462029400000000,,0x19,0x04
7.465003600000000,,0x80,0x00
7.467977800000000,,0x8A,0xAA
7.504086000000000,,0xB0,0x0B
7.506641600000000,,0x00,0x07
7.509615600000000,,0x20,0x00
7.512589800000000,,0x06,0x10
7.515563800000000,,0x0E,0x0F
7.518538000000000,,0x30,0x20
7.521512000000000,,0x19,0x04
7.524486000000000,,0x80,0x00
7.527460000000000,,0x02,0xAA
7.563917000000000,,0xB0,0x0B
7.566122600000000,,0x00,0x07
7.569096800000000,,0x20,0x00
7.572070800000000,,0x8E,0x10
7.575045000000000,,0x0E,0x0F
7.578018800000000,,0x30,0x20
7.580992800000000,,0x19,0x04
7.583966800000000,,0x80,0x00
7.586940800000000,,0x8A,0xAA
7.623174600000000,,0xB0,0x0B
7.625602200000000,,0x00,0x07
7.628576200000000,,0x20,0x00
7.631550200000000,,0x06,0x10
7.634524200000000,,0x0E,0x0F
7.637498000000000,,0x30,0x20
7.640472000000000,,0x19,0x04
7.643445800000000,,0x80,0x00
7.646419800000000,,0x02,0xAA
7.682985800000000,,0xB0,0x0B
7.685080800000000,,0x00,0x07
7.688054800000000,,0x20,0x00
7.691028600000000,,0x8E,0x10
7.694002400000000,,0x0E,0x0F
7.696976200000000,,0x30,0x20
7.699950200000000,,0x19,0x04
7.702924000000000,,0x80,0x00
7.705897800000000,,0x8A,0xAA
7.742202200000000,,0xB0,0x0B
7.744558000000000,,0x00,0x07
7.747531800000000,,0x20,0x00
7.750505800000000,,0x06,0x10
7.753479800000000,,0x0E,0x0F
7.756453600000000,,0x30,0x20
7.759427400000000,,0x19,0x04
7.762401400000000,,0x80,0x00
7.765375400000000,,0x02,0xAA
7.801441000000000,,0xB0,0x0B
7.804036200000000,,0x00,0x07
7.807009800000000,,0x20,0x00
7.809983400000000,,0x8E,0x10
7.812957200000000,,0x0E,0x0F
7.815931000000000,,0x30,0x20
7.818904800000000,,0x19,0x04
7.821878400000000,,0x80,0x00
7.824852200000000,,0x8A,0xAA
7.861002800000000,,0xB0,0x0B
7.863512000000000,,0x00,0x07
7.866485800000000,,0x20,0x00
7.869459600000000,,0x06,0x10
7.872433400000000,,0x0E,0x0F
7.875407400000000,,0x30,0x20
7.878381200000000,,0x1A,0x04
7.881355000000000,,0x80,0x00
7.884329000000000,,0x03,0xAA
7.920828400000000,,0xB0,0x0B
7.922990000000000,,0x00,0x07
7.925963800000000,,0x20,0x00
7.928937800000000,,0x8E,0x10
7.931911400000000,,0x0E,0x0F
7.934885000000000,,0x30,0x20
7.937859000000000,,0x1A,0x04
7.940832600000000,,0x80,0x00
7.943806400000000,,0x8B,0xAA
7.980065600000000,,0xB0,0x0B
7.982466400000000,,0x00,0x07
7.985440200000000,,0x20,0x00
7.988414000000000,,0x06,0x10
7.991387800000000,,0x0E,0x0F
7.994361600000000,,0x30,0x20
7.997335400000000,,0x1A,0x04
8.000309200000000,,0x80,0x00
8.003282799999999,,0x03,0xAA
8.039319000000001,,0xB0,0x0B
8.041943000000000,,0x00,0x07
8.044917000000000,,0x20,0x00
8.047891000000000,,0x8E,0x10
8.050864799999999,,0x0E,0x0F
8.053838799999999,,0x30,0x20
8.056812600000001,,0x1A,0x04
8.059786400000000,,0x80,0x00
8.062760400000000,,0x8B,0xAA
8.099129800000000,,0xB0,0x0B
8.101421000000000,,0x00,0x07
8.104394800000000,,0x20,0x00
8.107368800000000,,0x06,0x10
8.110342599999999,,0x0E,0x0F
8.113316400000000,,0x30,0x20
8.116290400000000,,0x1A,0x04
8.119264200000000,,0x80,0x00
8.122238200000000,,0x03,0xAA
8.158254200000000,,0xB0,0x0B
8.160897400000000,,0x00,0x07
8.163871400000000,,0x20,0x00
8.166845400000000,,0x8E,0x10
8.169819199999999,,0x0E,0x0F
8.172793199999999,,0x30,0x20
8.175767199999999,,0x1A,0x04
8.178741199999999,,0x80,0x00
8.181715199999999,,0x8B,0xAA
8.218031800000000,,0xB0,0x0B
8.220375600000001,,0x00,0x07
8.223349400000000,,0x20,0x00
8.226323200000000,,0x06,0x10
8.229297200000000,,0x0E,0x0F
8.232271000000001,,0x30,0x20
8.235244800000000,,0x1A,0x04
8.238218600000000,,0x80,0x00
8.241192399999999,,0x03,0xAA
8.277218400000001,,0xB0,0x0B
8.279850800000000,,0x00,0x07
8.282824600000000,,0x20,0x00
8.285798399999999,,0x8E,0x10
8.288772200000000,,0x0E,0x0F
8.291746000000000,,0x30,0x20
8.294719600000001,,0x1A,0x04
8.297693400000000,,0x80,0x00
8.300667199999999,,0x8B,0xAA
8.336993600000000,,0xB0,0x0B
8.339326399999999,,0x00,0x07
8.342300200000000,,0x20,0x00
8.345274000000000,,0x06,0x10
8.348247799999999,,0x0E,0x0F
8.351221799999999,,0x30,0x20
8.354195400000000,,0x1A,0x04
8.357169400000000,,0x80,0x00
8.360143200000000,,0x03,0xAA
8.396184999999999,,0xB0,0x0B
8.398803200000000,,0x00,0x07
8.401776999999999,,0x20,0x00
8.404750999999999,,0x8E,0x10
8.407724999999999,,0x0E,0x0F
8.410698999999999,,0x30,0x20
8.413672999999999,,0x1A,0x04
8.416646800000001,,0x80,0x00
8.419620800000001,,0x8B,0xAA
8.455963600000000,,0xB0,0x0B
8.458280600000000,,0x00,0x07
8.461254400000000,,0x20,0x00
8.464228200000001,,0x06,0x10
8.467202000000000,,0x0E,0x0F
8.470175800000000,,0x30,0x20
8.473149800000000,,0x1A,0x04
8.476123599999999,,0x80,0x00
8.479097400000001,,0x03,0xAA
8.515167999999999,,0xB0,0x0B
8.517757200000000,,0x00,0x07
8.520731000000000,,0x20,0x00
8.523705000000000,,0x8E,0x10
8.526678799999999,,0x0E,0x0F
8.529652600000000,,0x30,0x20
8.532626400000000,,0x1A,0x04
8.535600000000001,,0x80,0x00
8.538573800000000,,0x8B,0xAA
8.574928999999999,,0xB0,0x0B
8.577234600000001,,0x00,0x07
8.580208600000001,,0x20,0x00
8.583182600000001,,0x06,0x10
8.586156400000000,,0x0E,0x0F
8.589130400000000,,0x30,0x20
8.592104200000000,,0x1A,0x04
8.595078000000001,,0x80,0x00
8.598051800000000,,0x03,0xAA
8.634136200000000,,0xB0,0x0B
8.636711399999999,,0x00,0x07
8.639685200000001,,0x20,0x00
8.642659200000001,,0x8E,0x10
8.645633000000000,,0x0E,0x0F
8.648607000000000,,0x30,0x20
8.651581000000000,,0x1A,0x04
8.654555000000000,,0x80,0x00
8.657529000000000,,0x8B,0xAA
8.693899000000000,,0xB0,0x0B
8.696190200000000,,0x00,0x07
8.699164000000000,,0x20,0x00
8.702138000000000,,0x06,0x10
8.705111799999999,,0x0E,0x0F
8.708085600000000,,0x30,0x20
8.711059600000000,,0x1A,0x04
8.714033600000000,,0x80,0x00
8.717007199999999,,0x03,0xAA
8.753107999999999,,0xB0,0x0B
8.755668200000001,,0x00,0x07
8.758642000000000,,0x20,0x00
8.761616000000000,,0x8E,0x10
8.764589800000000,,0x0E,0x0F
8.767563400000000,,0x30,0x20
8.770537200000000,,0x1A,0x04
8.773510999999999,,0x80,0x00
8.776484800000000,,0x8B,0xAA
8.812897800000000,,0xB0,0x0B
8.815143800000000,,0x00,0x07
8.818117800000000,,0x20,0x00
8.821091400000000,,0x06,0x10
8.824064999999999,,0x0E,0x0F
8.827038800000000,,0x30,0x20
8.830012600000000,,0x1A,0x04
8.832986600000000,,0x80,0x00
8.835960399999999,,0x03,0xAA
8.872390800000000,,0xB0,0x0B
8.874620000000000,,0x00,0x07
8.877593800000000,,0x20,0x00
8.880567800000000,,0x8E,0x10
8.883541599999999,,0x0E,0x0F
8.886515599999999,,0x30,0x20
8.889489599999999,,0x1B,0x04
8.892463400000000,,0x80,0x00
8.895437400000000,,0x8C,0xAA
8.931600000000000,,0xB0,0x0B
8.934098600000000,,0x00,0x07
8.937072600000000,,0x20,0x00
8.940046600000001,,0x06,0x10
8.943020600000001,,0x0E,0x0F
8.945994600000001,,0x30,0x20
8.948968600000001,,0x1B,0x04
8.951942600000001,,0x80,0x00
8.954916400000000,,0x04,0xAA
8.991364200000000,,0xB0,0x0B
8.993577600000000,,0x00,0x07
8.996551600000000,,0x20,0x00
8.999525600000000,,0x8E,0x10
9.002499600000000,,0x0E,0x0F
9.005473600000000,,0x30,0x20
9.008447400000000,,0x1B,0x04
9.011421400000000,,0x80,0x00
9.014395400000000,,0x8C,0xAA
9.050573399999999,,0xB0,0x0B
9.053056800000000,,0x00,0x07
9.056030600000000,,0x20,0x00
9.059004600000000,,0x06,0x10
9.061978399999999,,0x0E,0x0F
9.064952200000000,,0x30,0x20
9.067926200000000,,0x1B,0x04
9.070900000000000,,0x80,0x00
9.073874000000000,,0x04,0xAA
9.110377000000000,,0xB0,0x0B
9.112534999999999,,0x20,0x07
9.115508800000001,,0x20,0x00
9.118482400000000,,0x8E,0x10
9.121456400000000,,0x0E,0x0F
9.124430200000001,,0x30,0x20
9.127404200000001,,0x1B,0x04
9.130378000000000,,0x81,0x00
9.133352000000000,,0xAD,0xAA
9.169819800000001,,0xB0,0x0B
9.172013400000001,,0x20,0x07
9.174987200000000,,0x20,0x00
9.177961000000000,,0x06,0x10
9.180934799999999,,0x0E,0x0F
9.183908600000001,,0x30,0x20
9.186882400000000,,0x1B,0x04
9.189856400000000,,0x81,0x00
9.192830200000000,,0x25,0xAA
9.229129199999999,,0xB0,0x0B
9.231491600000000,,0x20,0x07
9.234465800000001,,0x20,0x00
9.237439999999999,,0x8E,0x18
9.240413999999999,,0x0E,0x0F
9.243387999999999,,0x30,0x20
9.246361800000001,,0x1B,0x04
9.249335800000001,,0x81,0x00
9.252309800000001,,0xAD,0xB2
9.288648000000000,,0xB0,0x0B
9.290970600000000,,0x00,0x07
9.293944400000001,,0x20,0x00
9.296918200000000,,0x06,0x18
9.299892399999999,,0x0E,0x0F
9.302866399999999,,0x30,0x20
9.305840200000000,,0x1B,0x04
9.308814399999999,,0x80,0x00
9.311788399999999,,0x04,0xB2
9.347899800000000,,0xB0,0x0B
9.350448999999999,,0x00,0x07
9.353422800000001,,0x20,0x00
9.356396800000001,,0x8E,0x18
9.359370800000001,,0x0E,0x0F
9.362344600000000,,0x30,0x20
9.365318400000000,,0x1B,0x04
9.368292400000000,,0x80,0x00
9.371266400000000,,0x8C,0xB2
9.407727200000000,,0xB0,0x0B
9.409927600000000,,0x00,0x07
9.412901600000000,,0x20,0x00
9.415875800000000,,0x06,0x18
9.418849800000000,,0x0E,0x0F
9.421823600000000,,0x30,0x20
9.424797600000000,,0x1B,0x04
9.427771399999999,,0x80,0x00
9.430745399999999,,0x04,0xB2
9.466964800000000,,0xB0,0x0B
9.469405399999999,,0x00,0x07
9.472379200000001,,0x20,0x00
9.475353200000001,,0x8E,0x18
9.478327000000000,,0x0E,0x0F
9.481300800000000,,0x30,0x20
9.484274600000001,,0x1B,0x04
9.487248599999999,,0x80,0x00
9.490222400000000,,0x8C,0xB2
9.526790000000000,,0xB0,0x0B
9.528885200000000,,0x00,0x07
9.531859000000001,,0x20,0x00
9.534832800000000,,0x06,0x18
9.537806600000000,,0x0E,0x0F
9.540780200000000,,0x30,0x20
9.543754000000000,,0x1B,0x04
9.546727400000000,,0x80,0x00
9.549701199999999,,0x04,0xB2
9.585990600000001,,0xB0,0x0B
9.588361000000001,,0x00,0x07
9.591334800000000,,0x20,0x00
9.594308800000000,,0x8E,0x18
9.597282600000000,,0x0E,0x0F
9.600256800000000,,0x30,0x20
9.603230600000000,,0x1B,0x04
9.606204600000000,,0x80,0x00
9.609178600000000,,0x8C,0xB2
9.645247599999999,,0xB0,0x0B
9.647839599999999,,0x00,0x07
9.650813800000000,,0x20,0x00
9.653788000000000,,0x06,0x18
9.656762000000001,,0x0E,0x0F
9.659736000000001,,0x30,0x20
9.662710000000001,,0x1B,0x04
9.665684000000001,,0x80,0x00
9.668658000000001,,0x04,0xB2
9.705076600000000,,0xB0,0x0B
9.707319399999999,,0x00,0x07
9.710293399999999,,0x20,0x00
9.713267399999999,,0x8E,0x18
9.716241200000001,,0x0E,0x0F
9.719215200000001,,0x30,0x20
9.722189000000000,,0x1B,0x04
9.725162800000000,,0x80,0x00
9.728136800000000,,0x8C,0xB2
9.764316000000001,,0xB0,0x0B
9.766798000000000,,0x00,0x07
9.769771799999999,,0x20,0x00
9.772745799999999,,0x06,0x18
9.775719600000000,,0x0E,0x0F
9.778693600000000,,0x30,0x20
9.781667600000000,,0x1B,0x04
9.784641400000000,,0x80,0x00
9.787615400000000,,0x04,0xB2
9.823882800000000,,0xB0,0x0B
9.826275600000001,,0x00,0x07
9.829249600000001,,0x20,0x00
9.832223600000001,,0x8E,0x18
9.835197400000000,,0x0E,0x0F
9.838171400000000,,0x30,0x20
9.841145200000000,,0x1C,0x04
9.844119200000000,,0x80,0x00
9.847092999999999,,0x8D,0xB2
9.883122800000001,,0xB0,0x0B
9.885753400000000,,0x00,0x07
9.888727200000000,,0x20,0x00
9.891701200000000,,0x06,0x18
9.894674999999999,,0x0E,0x0F
9.897648800000001,,0x30,0x20
9.900622800000001,,0x1C,0x04
9.903596600000000,,0x80,0x00
9.906570400000000,,0x05,0xB2
9.942950000000000,,0xB0,0x0B
9.945231200000000,,0x00,0x07
9.948205000000000,,0x20,0x00
9.951178799999999,,0x8E,0x18
9.954152600000000,,0x0E,0x0F
9.957126400000000,,0x30,0x20
9.960100400000000,,0x1C,0x04
9.963074199999999,,0x80,0x00
9.966048199999999,,0x8D,0xB2
10.002205200000001,,0xB0,0x0B
10.004710200000000,,0x00,0x07
10.007684200000000,,0x20,0x00
10.010658400000001,,0x06,0x18
10.013632400000001,,0x0E,0x0F
10.016606599999999,,0x30,0x20
10.019580599999999,,0x1C,0x04
10.022554800000000,,0x80,0x00
10.025528800000000,,0x05,0xB2
10.062018600000000,,0xB0,0x0B
10.064191200000000,,0x00,0x07
10.067165200000000,,0x20,0x00
10.070139200000000,,0x8E,0x18
10.073113200000000,,0x0E,0x0F
10.076087200000000,,0x30,0x20
10.079061200000000,,0x1C,0x04
10.082035400000001,,0x80,0x00
10.085009400000001,,0x8D,0xB2
10.121164000000000,,0xB0,0x0B
10.123671000000000,,0x00,0x07
10.126645000000000,,0x20,0x00
10.129619000000000,,0x06,0x18
10.132593000000000,,0x0E,0x0F
10.135567000000000,,0x30,0x20
10.138541000000000,,0x1C,0x04
10.141515200000001,,0x80,0x00
10.144489200000001,,0x05,0xB2
10.180928000000000,,0xB0,0x0B
10.183150800000000,,0x00,0x07
10.186124800000000,,0x20,0x00
10.189098599999999,,0x8E,0x18
10.192072599999999,,0x0E,0x0F
10.195046400000001,,0x30,0x20
10.198020200000000,,0x1C,0x04
10.200994000000000,,0x80,0x00
10.203967799999999,,0x8D,0xB2
10.240133999999999,,0xB0,0x0B
10.242628399999999,,0x00,0x07
10.245602399999999,,0x20,0x00
10.248576399999999,,0x06,0x18
10.251550399999999,,0x0E,0x0F
10.254524399999999,,0x30,0x20
10.257498200000001,,0x1C,0x04
10.260472200000001,,0x80,0x00
10.263446200000001,,0x05,0xB2
10.299910199999999,,0xB0,0x0B
10.302106999999999,,0x00,0x07
10.305080800000001,,0x20,0x00
10.308054800000001,,0x8E,0x18
10.311028800000001,,0x0E,0x0F
10.314002600000000,,0x30,0x20
10.316976600000000,,0x1C,0x04
10.319950600000000,,0x80,0x00
10.322924600000000,,0x8D,0xB2
10.359104400000000,,0xB0,0x0B
10.361587000000000,,0x00,0x07
10.364561200000001,,0x20,0x00
10.367535400000000,,0x06,0x18
10.370509400000000,,0x0E,0x0F
10.373483600000000,,0x30,0x20
10.376457600000000,,0x1C,0x04
10.379431600000000,,0x80,0x00
10.382405600000000,,0x05,0xB2
10.418886000000001,,0xB0,0x0B
10.421068600000000,,0x00,0x07
10.424042800000000,,0x20,0x00
10.427016800000001,,0x8E,0x18
10.429990999999999,,0x0E,0x0F
10.432964999999999,,0x30,0x20
10.435939200000000,,0x1C,0x04
10.438913200000000,,0x80,0x00
10.441887400000001,,0x8D,0xB2
10.478081400000001,,0xB0,0x0B
10.480550200000000,,0x00,0x07
10.483524200000000,,0x20,0x00
10.486497999999999,,0x06,0x18
10.489471999999999,,0x0E,0x0F
10.492445800000000,,0x30,0x20
10.495419800000001,,0x1C,0x04
10.498393800000001,,0x80,0x00
10.501367800000001,,0x05,0xB2
10.537860400000000,,0xB0,0x0B
10.540029400000000,,0x00,0x07
10.543003600000000,,0x20,0x00
10.545977600000001,,0x8E,0x18
10.548951799999999,,0x0E,0x0F
10.551925799999999,,0x30,0x20
10.554900000000000,,0x1C,0x04
10.557874000000000,,0x80,0x00
10.560848000000000,,0x8D,0xB2
10.597071800000000,,0xB0,0x0B
10.599510600000000,,0x00,0x07
10.602484400000000,,0x20,0x00
10.605458400000000,,0x06,0x18
10.608432400000000,,0x0E,0x0F
10.611406400000000,,0x30,0x20
10.614380000000001,,0x1C,0x04
10.617354000000001,,0x80,0x00
10.620327800000000,,0x05,0xB2
10.656836000000000,,0xB0,0x0B
10.658989200000001,,0x00,0x07
10.661963200000001,,0x20,0x00
10.664937200000001,,0x8E,0x18
10.667911200000001,,0x0E,0x0F
10.670885000000000,,0x30,0x20
10.673859000000000,,0x1C,0x04
10.676833000000000,,0x80,0x00
10.679807000000000,,0x8D,0xB2
10.716042800000000,,0xB0,0x0B
10.718468000000000,,0x00,0x07
10.721441799999999,,0x20,0x00
10.724415799999999,,0x06,0x18
10.727389799999999,,0x0E,0x0F
10.730363799999999,,0x30,0x20
10.733337799999999,,0x1C,0x04
10.736311799999999,,0x80,0x00
10.739285600000001,,0x05,0xB2
10.775805600000000,,0xB0,0x0B
10.777945600000001,,0x00,0x07
10.780919400000000,,0x20,0x00
10.783893200000000,,0x8E,0x18
10.786867000000001,,0x0E,0x0F
10.789840999999999,,0x30,0x20
10.792814999999999,,0x1C,0x04
10.795788999999999,,0x80,0x00
10.798762800000000,,0x8D,0xB2
10.835326800000001,,0xB0,0x0B
10.837426000000001,,0x00,0x07
10.840400000000001,,0x20,0x00
10.843373800000000,,0x06,0x18
10.846347600000000,,0x0E,0x0F
10.849321600000000,,0x30,0x20
10.852295399999999,,0x1D,0x04
10.855269200000000,,0x80,0x00
10.858243200000000,,0x06,0xB2
10.894510400000000,,0xB0,0x0B
10.896902600000001,,0x20,0x07
10.899876400000000,,0x20,0x00
10.902850400000000,,0x8E,0x18
10.905824000000001,,0x0E,0x0F
10.908798000000001,,0x30,0x20
10.911771800000000,,0x1D,0x04
10.914745600000000,,0x81,0x00
10.917719399999999,,0xAF,0xB2
10.953751799999999,,0xB0,0x0B
10.956380400000000,,0x20,0x07
10.959354200000000,,0x20,0x00
10.962328200000000,,0x06,0x18
10.965301999999999,,0x0E,0x0F
10.968275999999999,,0x30,0x20
10.971250000000000,,0x1D,0x04
10.974223800000001,,0x81,0x00
10.977197800000001,,0x27,0xB2
11.013597000000001,,0xB0,0x0B
11.015858600000000,,0x00,0x07
11.018832600000000,,0x20,0x00
11.021806399999999,,0x8E,0x20
11.024780200000000,,0x0E,0x0F
11.027754200000000,,0x30,0x20
11.030727799999999,,0x1D,0x04
11.033701799999999,,0x80,0x00
11.036675600000001,,0x8E,0xBA
11.073150999999999,,0xB0,0x0B
11.075336800000001,,0x00,0x07
11.078310600000000,,0x20,0x00
11.081284600000000,,0x06,0x20
11.084258400000000,,0x0E,0x0F
11.087232200000001,,0x30,0x20
11.090206000000000,,0x1D,0x04
11.093180000000000,,0x80,0x00
11.096153800000000,,0x06,0xBA
11.132180200000001,,0xB0,0x0B
11.134812399999999,,0x00,0x07
11.137786200000001,,0x20,0x00
11.140760200000001,,0x8E,0x20
11.143734000000000,,0x0E,0x0F
11.146707800000000,,0x30,0x20
11.149681599999999,,0x1D,0x04
11.152655400000000,,0x80,0x00
11.155628999999999,,0x8E,0xBA
11.191670200000001,,0xB0,0x0B
11.194288200000001,,0x00,0x07
11.197262000000000,,0x20,0x00
11.200235800000000,,0x06,0x20
11.203209599999999,,0x0E,0x0F
11.206183200000000,,0x30,0x20
11.209157200000000,,0x1D,0x04
11.212130999999999,,0x80,0x00
11.215104800000001,,0x06,0xBA
11.251142800000000,,0xB0,0x0B
11.253764400000000,,0x00,0x07
11.256738000000000,,0x20,0x00
11.259712000000000,,0x8E,0x20
11.262685800000000,,0x0E,0x0F
11.265659800000000,,0x30,0x20
11.268633599999999,,0x1D,0x04
11.271607400000001,,0x80,0x00
11.274581200000000,,0x8E,0xBA
11.310631000000001,,0xB0,0x0B
11.313240000000000,,0x00,0x07
11.316213800000000,,0x20,0x00
11.319187800000000,,0x06,0x20
11.322161599999999,,0x0E,0x0F
11.325135400000001,,0x30,0x20
11.328109200000000,,0x1D,0x04
11.331083000000000,,0x80,0x00
11.334056800000001,,0x06,0xBA
11.370101200000001,,0xB0,0x0B
11.372715599999999,,0x00,0x07
11.375689400000001,,0x20,0x00
11.378663200000000,,0x8E,0x20
11.381637000000000,,0x0E,0x0F
11.384610800000001,,0x30,0x20
11.387584600000000,,0x1D,0x04
11.390558600000000,,0x80,0x00
11.393532400000000,,0x8E,0xBA
11.429592000000000,,0xB0,0x0B
11.432193200000000,,0x00,0x07
11.435167200000000,,0x20,0x00
11.438141200000000,,0x06,0x20
11.441115200000000,,0x0E,0x0F
11.444089200000001,,0x30,0x20
11.447063200000001,,0x1D,0x04
11.450037200000001,,0x80,0x00
11.453011200000001,,0x06,0xBA
11.489086400000000,,0xB0,0x0B
11.491673600000000,,0x00,0x07
11.494647799999999,,0x20,0x00
11.497621799999999,,0x8E,0x20
11.500595799999999,,0x0E,0x0F
11.503570000000000,,0x30,0x20
11.506544000000000,,0x1D,0x04
11.509518000000000,,0x80,0x00
11.512492000000000,,0x8E,0xBA
11.548563400000001,,0xB0,0x0B
11.551152999999999,,0x00,0x07
11.554126999999999,,0x20,0x00
11.557100800000001,,0x06,0x20
11.560074800000001,,0x0E,0x0F
11.563048800000001,,0x30,0x20
11.566022800000001,,0x1D,0x04
11.568996800000001,,0x80,0x00
11.571970800000001,,0x06,0xBA
11.608051600000000,,0xB0,0x0B
11.610632200000000,,0x00,0x07
11.613606200000000,,0x20,0x00
11.616580000000001,,0x8E,0x20
11.619553800000000,,0x0E,0x0F
11.622527600000000,,0x30,0x20
11.625501600000000,,0x1D,0x04
11.628475399999999,,0x80,0x00
11.631449200000000,,0x8E,0xBA
11.667528200000000,,0xB0,0x0B
11.670110200000000,,0x00,0x07
11.673084200000000,,0x20,0x00
11.676058200000000,,0x06,0x20
11.679032200000000,,0x0E,0x0F
11.682005999999999,,0x30,0x20
11.684979800000001,,0x1D,0x04
11.687953600000000,,0x80,0x00
11.690927600000000,,0x06,0xBA
11.727017000000000,,0xB0,0x0B
11.729587600000000,,0x00,0x07
11.732561600000000,,0x20,0x00
11.735535400000000,,0x8E,0x20
11.738509199999999,,0x0E,0x0F
11.741483000000001,,0x30,0x20
11.744456599999999,,0x1D,0x04
11.747430400000001,,0x80,0x00
11.750404000000000,,0x8E,0xBA
11.786523000000001,,0xB0,0x0B
11.789063799999999,,0x00,0x07
11.792037400000000,,0x20,0x00
11.795011199999999,,0x06,0x20
11.797985000000001,,0x0E,0x0F
11.800958800000000,,0x30,0x20
11.803932600000000,,0x1D,0x04
11.806906400000001,,0x80,0x00
11.809880200000000,,0x06,0xBA
11.846280999999999,,0xB0,0x0B
11.848539199999999,,0x00,0x07
11.851513000000001,,0x20,0x00
11.854487000000001,,0x8E,0x20
11.857460600000000,,0x0E,0x0F
11.860434600000000,,0x30,0x20
11.863408400000001,,0x1E,0x04
11.866382400000001,,0x80,0x00
11.869356200000000,,0x8F,0xBA
11.905773399999999,,0xB0,0x0B
11.908016200000000,,0x00,0x07
11.910990000000000,,0x20,0x00
11.913964000000000,,0x06,0x20
11.916938000000000,,0x0E,0x0F
11.919911800000000,,0x30,0x20
11.922885800000000,,0x1E,0x04
11.925859800000000,,0x80,0x00
11.928833600000001,,0x07,0xBA
11.965250400000000,,0xB0,0x0B
11.967493599999999,,0x00,0x07
11.970467599999999,,0x20,0x00
11.973441599999999,,0x8E,0x20
11.976415400000000,,0x0E,0x0F
11.979389400000001,,0x30,0x20
11.982363200000000,,0x1E,0x04
11.985337200000000,,0x80,0x00
11.988310999999999,,0x8F,0xBA
12.024743400000000,,0xB0,0x0B
12.026971800000000,,0x00,0x07
12.029945600000000,,0x20,0x00
12.032919400000001,,0x06,0x20
12.035893400000001,,0x0E,0x0F
12.038867200000000,,0x30,0x20
12.041841000000000,,0x1E,0x04
12.044815000000000,,0x80,0x00
12.047788600000001,,0x07,0xBA
12.084241799999999,,0xB0,0x0B
12.086447600000000,,0x00,0x07
12.089421400000001,,0x20,0x00
12.092395200000000,,0x8E,0x20
12.095369000000000,,0x0E,0x0F
12.098343000000000,,0x30,0x20
12.101316799999999,,0x1E,0x04
12.104290600000001,,0x80,0x00
12.107264400000000,,0x8F,0xBA
12.143557200000000,,0xB0,0x0B
12.145923800000000,,0x00,0x07
12.148897600000000,,0x20,0x00
12.151871200000000,,0x06,0x20
12.154845000000000,,0x0E,0x0F
12.157818799999999,,0x30,0x20
12.160792600000001,,0x1E,0x04
12.163766400000000,,0x80,0x00
12.166740200000000,,0x07,0xBA
12.202999999999999,,0xB0,0x0B
12.205400200000000,,0x00,0x07
12.208373999999999,,0x20,0x00
12.211347800000000,,0x8E,0x20
12.214321800000000,,0x0E,0x0F
12.217295800000000,,0x30,0x20
12.220269800000001,,0x1E,0x04
12.223243600000000,,0x80,0x00
12.226217600000000,,0x8F,0xBA
12.262426400000001,,0xB0,0x0B
12.264877800000001,,0x00,0x07
12.267851800000001,,0x20,0x00
12.270825600000000,,0x06,0x20
12.273799600000000,,0x0E,0x0F
12.276773400000000,,0x30,0x20
12.279747199999999,,0x1E,0x04
12.282721000000000,,0x80,0x00
12.285694800000000,,0x07,0xBA
12.321869400000001,,0xB0,0x0B
12.324354800000000,,0x00,0x07
12.327328600000000,,0x20,0x00
12.330302600000000,,0x8E,0x20
12.333276400000001,,0x0E,0x0F
12.336250000000000,,0x30,0x20
12.339224000000000,,0x1E,0x04
12.342197799999999,,0x80,0x00
12.345171799999999,,0x8F,0xBA
12.381310200000000,,0xB0,0x0B
12.383830400000001,,0x00,0x07
12.386804200000000,,0x20,0x00
12.389778000000000,,0x06,0x20
12.392752000000000,,0x0E,0x0F
12.395725799999999,,0x30,0x20
12.398699400000000,,0x1E,0x04
12.401673400000000,,0x80,0x00
12.404647000000001,,0x07,0xBA
12.440737199999999,,0xB0,0x0B
12.443307200000000,,0x00,0x07
12.446281000000001,,0x20,0x00
12.449255000000001,,0x8E,0x20
12.452228800000000,,0x0E,0x0F
12.455202600000000,,0x30,0x20
12.458176600000000,,0x1E,0x04
12.461150399999999,,0x80,0x00
12.464124200000001,,0x8F,0xBA
12.500181400000001,,0xB0,0x0B
12.502784999999999,,0x00,0x07
12.505758999999999,,0x20,0x00
12.508732999999999,,0x06,0x20
12.511706800000001,,0x0E,0x0F
12.514680600000000,,0x30,0x20
12.517654400000000,,0x1E,0x04
12.520628400000000,,0x80,0x00
12.523602199999999,,0x07,0xBA
12.560179600000000,,0xB0,0x0B
12.562263000000000,,0x00,0x07
12.565236799999999,,0x20,0x00
12.568210600000000,,0x8E,0x20
12.571184600000000,,0x0E,0x0F
12.574158600000001,,0x30,0x20
12.577132400000000,,0x1E,0x04
12.580106400000000,,0x80,0x00
12.583080400000000,,0x8F,0xBA
12.619587200000000,,0xB0,0x0B
12.621741399999999,,0x00,0x07
12.624715399999999,,0x20,0x00
12.627689400000000,,0x06,0x20
12.630663400000000,,0x0E,0x0F
12.633637200000001,,0x30,0x20
12.636611200000001,,0x1E,0x04
12.639585000000000,,0x80,0x00
12.642558800000000,,0x07,0xBA
12.679032400000001,,0xB0,0x0B
12.681218800000000,,0x00,0x07
12.684192599999999,,0x20,0x00
12.687166599999999,,0x8E,0x20
12.690140400000001,,0x0E,0x0F
12.693114200000000,,0x30,0x20
12.696088200000000,,0x1E,0x04
12.699062000000000,,0x80,0x00
12.702035800000001,,0x8F,0xBA
12.738484200000000,,0xB0,0x0B
12.740696000000000,,0x20,0x07
12.743669799999999,,0x20,0x00
12.746643400000000,,0x06,0x20
12.749617400000000,,0x0E,0x0F
12.752591199999999,,0x30,0x20
12.755565199999999,,0x1E,0x04
12.758539200000000,,0x81,0x00
12.761513000000001,,0x28,0xBA
12.797698600000000,,0xB0,0x0B
12.800173400000000,,0x20,0x07
12.803147200000000,,0x20,0x00
12.806121200000000,,0x8E,0x20
12.809094999999999,,0x0E,0x0F
12.812068999999999,,0x30,0x20
12.815042999999999,,0x1F,0x04
12.818016800000001,,0x81,0x00
12.820990800000001,,0xB1,0xBA
12.857183600000001,,0xB0,0x0B
12.859651200000000,,0x20,0x07
12.862625200000000,,0x20,0x00
12.865599200000000,,0x06,0x28
12.868573200000000,,0x0E,0x0F
12.871547400000001,,0x30,0x20
12.874521400000001,,0x1F,0x04
12.877495400000001,,0x81,0x00
12.880469400000001,,0x29,0xC2
12.916856400000000,,0xB0,0x0B
12.919130600000001,,0x00,0x07
12.922104400000000,,0x20,0x00
12.925077999999999,,0x8E,0x28
12.928051800000000,,0x0E,0x0F
12.931025800000000,,0x30,0x20
12.933999600000000,,0x1F,0x04
12.936973399999999,,0x80,0x00
12.939947200000001,,0x90,0xC2
12.976251200000000,,0xB0,0x0B
12.978607000000000,,0x00,0x07
12.981580800000000,,0x20,0x00
12.984554400000000,,0x06,0x28
12.987527999999999,,0x0E,0x0F
12.990501800000001,,0x30,0x20
12.993475600000000,,0x1F,0x04
12.996449399999999,,0x80,0x00
12.999423200000001,,0x08,0xC2
13.035628400000000,,0xB0,0x0B
13.038082200000000,,0x00,0x07
13.041055999999999,,0x20,0x00
13.044029800000001,,0x8E,0x28
13.047003399999999,,0x0E,0x0F
13.049977200000001,,0x30,0x20
13.052951000000000,,0x1F,0x04
13.055924800000000,,0x80,0x00
13.058898599999999,,0x90,0xC2
13.097101200000001,,0xB0,0x0B
13.099539600000000,,0x00,0x07
13.102513600000000,,0x20,0x00
13.105487399999999,,0x06,0x28
13.108461399999999,,0x0E,0x0F
13.111435200000001,,0x30,0x20
13.114409200000001,,0x1F,0x04
13.117383000000000,,0x80,0x00
13.120357000000000,,0x08,0xC2
13.154419000000001,,0xB0,0x0B
13.157034400000001,,0x00,0x07
13.160008400000001,,0x20,0x00
13.162982400000001,,0x8E,0x28
13.165956200000000,,0x0E,0x0F
13.168930000000000,,0x30,0x20
13.171903800000001,,0x1F,0x04
13.174877600000000,,0x80,0x00
13.177851600000000,,0x90,0xC2
13.213953800000001,,0xB0,0x0B
13.216511400000000,,0x00,0x07
13.219485400000000,,0x20,0x00
13.222459000000001,,0x06,0x28
13.225432800000000,,0x0E,0x0F
13.228406800000000,,0x30,0x20
13.231380600000000,,0x1F,0x04
13.234354400000001,,0x80,0x00
13.237328200000000,,0x08,0xC2
13.273490600000001,,0xB0,0x0B
13.275988999999999,,0x00,0x07
13.278962800000000,,0x20,0x00
13.281936600000000,,0x8E,0x28
13.284910399999999,,0x0E,0x0F
13.287884200000001,,0x30,0x20
13.290858000000000,,0x1F,0x04
13.293832000000000,,0x80,0x00
13.296805800000000,,0x90,0xC2
13.333014400000000,,0xB0,0x0B
13.335466000000000,,0x00,0x07
13.338439800000000,,0x20,0x00
13.341413800000000,,0x06,0x28
13.344387599999999,,0x0E,0x0F
13.347361599999999,,0x30,0x20
13.350335599999999,,0x1F,0x04
13.353309599999999,,0x80,0x00
13.356283599999999,,0x08,0xC2
13.392555800000000,,0xB0,0x0B
13.394945200000000,,0x00,0x07
13.397919200000000,,0x20,0x00
13.400893200000001,,0x8E,0x28
13.403867000000000,,0x0E,0x0F
13.406841000000000,,0x30,0x20
13.409815000000000,,0x1F,0x04
13.412789200000001,,0x80,0x00
13.415763200000001,,0x90,0xC2
13.452081200000000,,0xB0,0x0B
13.454424599999999,,0x00,0x07
13.457398599999999,,0x20,0x00
13.460372400000001,,0x06,0x28
13.463346200000000,,0x0E,0x0F
13.466320000000000,,0x30,0x20
13.469294000000000,,0x1F,0x04
13.472267799999999,,0x80,0x00
13.475241799999999,,0x08,0xC2
13.511621600000000,,0xB0,0x0B
13.513903400000000,,0x00,0x07
13.516877200000000,,0x20,0x00
13.519851200000000,,0x8E,0x28
13.522825200000000,,0x0E,0x0F
13.525799200000000,,0x30,0x20
13.528772999999999,,0x1F,0x04
13.531746800000001,,0x80,0x00
13.534720800000001,,0x90,0xC2
13.571163400000000,,0xB0,0x0B
13.573382799999999,,0x00,0x07
13.576356600000000,,0x20,0x00
13.579330600000000,,0x06,0x28
13.582304600000001,,0x0E,0x0F
13.585278600000001,,0x30,0x20
13.588252799999999,,0x1F,0x04
13.591226799999999,,0x80,0x00
13.594200799999999,,0x08,0xC2
13.630689000000000,,0xB0,0x0B
13.632863000000000,,0x00,0x07
13.635837000000000,,0x20,0x00
13.638811000000000,,0x8E,0x28
13.641784800000000,,0x0E,0x0F
13.644758800000000,,0x30,0x20
13.647732800000000,,0x1F,0x04
13.650706599999999,,0x80,0x00
13.653680600000000,,0x90,0xC2
13.690230400000001,,0xB0,0x0B
13.692343200000000,,0x00,0x07
13.695316999999999,,0x20,0x00
13.698290999999999,,0x06,0x28
13.701264999999999,,0x0E,0x0F
13.704238999999999,,0x30,0x20
13.707212999999999,,0x1F,0x04
13.710186999999999,,0x80,0x00
13.713160999999999,,0x08,0xC2
13.749180800000000,,0xB0,0x0B
13.751822199999999,,0x00,0x07
13.754796199999999,,0x20,0x00
13.757770200000000,,0x8E,0x28
13.760744200000000,,0x0E,0x0F
13.763718200000000,,0x30,0x20
13.766692200000000,,0x1F,0x04
13.769666400000000,,0x80,0x00
13.772640400000000,,0x90,0xC2
13.809184600000000,,0xB0,0x0B
13.811305400000000,,0x00,0x07
13.814279400000000,,0x20,0x00
13.817253400000000,,0x06,0x28
13.820227400000000,,0x0E,0x0F
13.823201600000001,,0x30,0x20
13.826175599999999,,0x20,0x04
13.829149599999999,,0x80,0x00
13.832123599999999,,0x09,0xC2
13.868631799999999,,0xB0,0x0B
13.870786000000001,,0x00,0x07
13.873760000000001,,0x20,0x00
13.876734000000001,,0x8E,0x28
13.879708000000001,,0x0E,0x0F
13.882682200000000,,0x30,0x20
13.885656400000000,,0x20,0x04
13.888630400000000,,0x80,0x00
13.891604600000001,,0x91,0xC2
13.928062400000000,,0xB0,0x0B
13.930266400000001,,0x00,0x07
13.933240400000001,,0x20,0x00
13.936214400000001,,0x06,0x28
13.939188600000000,,0x0E,0x0F
13.942162800000000,,0x30,0x20
13.945136800000000,,0x20,0x04
13.948111000000001,,0x80,0x00
13.951085200000000,,0x09,0xC2
13.987508399999999,,0xB0,0x0B
13.989747200000000,,0x00,0x07
13.992721000000000,,0x20,0x00
13.995695000000000,,0x8E,0x28
13.998669000000000,,0x0E,0x0F
14.001643000000000,,0x30,0x20
14.004617200000000,,0x20,0x04
14.007591200000000,,0x80,0x00
14.010565400000001,,0x91,0xC2
14.046940800000000,,0xB0,0x0B
14.049228599999999,,0x00,0x07
14.052202400000001,,0x20,0x00
14.055176200000000,,0x06,0x28
14.058150200000000,,0x0E,0x0F
14.061124200000000,,0x30,0x20
14.064098200000000,,0x20,0x04
14.067072200000000,,0x80,0x00
14.070046200000000,,0x09,0xC2
14.106220400000000,,0xB0,0x0B
14.108706400000001,,0x00,0x07
14.111680200000000,,0x20,0x00
14.114654000000000,,0x8E,0x28
14.117628000000000,,0x0E,0x0F
14.120601799999999,,0x30,0x20
14.123575799999999,,0x20,0x04
14.126549799999999,,0x80,0x00
14.129523799999999,,0x91,0xC2
14.165713999999999,,0xB0,0x0B
14.168184000000000,,0x00,0x07
14.171158000000000,,0x20,0x00
14.174132000000000,,0x06,0x28
14.177105800000000,,0x0E,0x0F
14.180079800000000,,0x30,0x20
14.183053800000000,,0x20,0x04
14.186027800000000,,0x80,0x00
14.189001800000000,,0x09,0xC2
14.225188599999999,,0xB0,0x0B
14.227663000000000,,0x00,0x07
14.230637000000000,,0x20,0x00
14.233610799999999,,0x8E,0x28
14.236584799999999,,0x0E,0x0F
14.239558799999999,,0x30,0x20
14.242532600000001,,0x20,0x04
14.245506600000001,,0x80,0x00
14.248480400000000,,0x91,0xC2
14.284683599999999,,0xB0,0x0B
14.287142400000000,,0x00,0x07
14.290116200000000,,0x20,0x00
14.293090200000000,,0x06,0x28
14.296064200000000,,0x0E,0x0F
14.299038200000000,,0x30,0x20
14.302012200000000,,0x20,0x04
14.304986200000000,,0x80,0x00
14.307960200000000,,0x09,0xC2
14.344161200000000,,0xB0,0x0B
14.346622800000000,,0x00,0x07
14.349596999999999,,0x20,0x00
14.352570999999999,,0x8E,0x28
14.355544999999999,,0x0E,0x0F
14.358518999999999,,0x30,0x20
14.361492999999999,,0x20,0x04
14.364466999999999,,0x80,0x00
14.367440800000001,,0x91,0xC2
14.403653600000000,,0xB0,0x0B
14.406102199999999,,0x00,0x07
14.409076199999999,,0x20,0x00
14.412050199999999,,0x06,0x28
14.415024200000000,,0x0E,0x0F
14.417998200000000,,0x30,0x20
14.420972400000000,,0x20,0x04
14.423946400000000,,0x80,0x00
14.426920400000000,,0x09,0xC2
14.463147400000000,,0xB0,0x0B
14.465583000000001,,0x00,0x07
14.468557000000001,,0x20,0x00
14.471531000000001,,0x8E,0x28
14.474505000000001,,0x0E,0x0F
14.477478800000000,,0x30,0x20
14.480452800000000,,0x20,0x04
14.483426800000000,,0x80,0x00
14.486400800000000,,0x91,0xC2
14.522627399999999,,0xB0,0x0B
14.525062999999999,,0x00,0x07
14.528036800000001,,0x20,0x00
14.531010800000001,,0x06,0x28
14.533984800000001,,0x0E,0x0F
14.536958600000000,,0x30,0x20
14.539932600000000,,0x20,0x04
14.542906600000000,,0x80,0x00
14.545880600000000,,0x09,0xC2
14.582122399999999,,0xB0,0x0B
14.584541600000000,,0x00,0x07
14.587515399999999,,0x20,0x00
14.590489399999999,,0x8E,0x28
14.593463200000000,,0x0E,0x0F
14.596437200000000,,0x30,0x20
14.599411200000000,,0x20,0x04
14.602385000000000,,0x80,0x00
14.605359200000001,,0x91,0xC2
14.641600400000000,,0xB0,0x0B
14.644021800000001,,0x00,0x07
14.646996000000000,,0x20,0x00
14.649970000000000,,0x06,0x28
14.652944000000000,,0x0E,0x0F
14.655918200000000,,0x30,0x20
14.658892200000000,,0x20,0x04
14.661866200000000,,0x80,0x00
14.664840200000000,,0x09,0xC2
14.701093000000000,,0xB0,0x0B
14.703502400000000,,0x00,0x07
14.706476200000001,,0x20,0x00
14.709450199999999,,0x8E,0x28
14.712424199999999,,0x0E,0x0F
14.715398199999999,,0x30,0x20
14.718372000000000,,0x20,0x04
14.721346000000000,,0x80,0x00
14.724320000000001,,0x91,0xC2
14.760600200000001,,0xB0,0x0B
14.762982400000000,,0x00,0x07
14.765958599999999,,0x20,0x00
14.768932400000001,,0x06,0x28
14.771906400000001,,0x0E,0x0F
14.774880400000001,,0x30,0x20
14.777854200000000,,0x20,0x04
14.780828400000001,,0x80,0x00
14.783802400000001,,0x09,0xC2
14.820314200000000,,0xB0,0x0B
14.822464399999999,,0x00,0x07
14.825438399999999,,0x20,0x00
14.828412399999999,,0x8E,0x28
14.831386600000000,,0x0E,0x0F
14.834360600000000,,0x30,0x20
14.837334400000000,,0x21,0x04
14.840308600000000,,0x80,0x00
14.843282600000000,,0x92,0xC2
14.879712000000000,,0xB0,0x0B
14.881944200000000,,0x00,0x07
14.884918200000000,,0x20,0x00
14.887892200000000,,0x06,0x28
14.890866400000000,,0x0E,0x0F
14.893840600000001,,0x30,0x20
14.896814600000001,,0x21,0x04
14.899788800000000,,0x80,0x00
14.902763000000000,,0x0A,0xC2
14.939092000000000,,0xB0,0x0B
14.941425799999999,,0x00,0x07
14.944399799999999,,0x20,0x00
14.947373799999999,,0x8E,0x28
14.950347799999999,,0x0E,0x0F
14.953322000000000,,0x30,0x20
14.956296000000000,,0x21,0x04
14.959270000000000,,0x80,0x00
14.962244000000000,,0x92,0xC2
