Time [s],Packet ID,MOSI,MISO
0.009784800000000,0,0xB0,0x0B
0.012335000000000,,0x00,0x07
0.015308800000000,,0x20,0x00
0.018282600000000,,0x06,0x28
0.021256400000000,,0x0E,0x0F
0.024230400000000,,0x30,0x20
0.027204200000000,,0x12,0x04
0.030178200000000,,0x80,0x00
0.033152200000000,,0xFB,0xC2
0.069214000000000,,0xB0,0x0B
0.071812600000000,,0x00,0x07
0.074786600000000,,0x20,0x00
0.077760600000000,,0x8E,0x28
0.080734600000000,,0x0E,0x0F
0.083708800000000,,0x30,0x20
0.086682800000000,,0x12,0x04
0.089656600000000,,0x80,0x00
0.092630800000000,,0x83,0xC2
0.128663400000000,,0xB0,0x0B
0.131292400000000,,0x00,0x07
0.134266400000000,,0x20,0x00
0.137240400000000,,0x06,0x28
0.140214400000000,,0x0E,0x0F
0.143188200000000,,0x30,0x20
0.146162200000000,,0x12,0x04
0.149136200000000,,0x80,0x00
0.152110200000000,,0xFB,0xC2
0.188682000000000,,0xB0,0x0B
0.190769400000000,,0x00,0x07
0.193743400000000,,0x20,0x00
0.196717200000000,,0x8E,0x28
0.199691000000000,,0x0E,0x0F
0.202665000000000,,0x30,0x20
0.205638800000000,,0x12,0x04
0.208612800000000,,0x80,0x00
0.211586800000000,,0x83,0xC2
0.248092400000000,,0xB0,0x0B
0.250248000000000,,0x00,0x07
0.253222000000000,,0x20,0x00
0.256195800000000,,0x06,0x28
0.259169800000000,,0x0E,0x0F
0.262143800000000,,0x30,0x20
0.265117600000000,,0x12,0x04
0.268091600000000,,0x80,0x00
0.271065400000000,,0xFB,0xC2
0.307581800000000,,0xB0,0x0B
0.309726000000000,,0x00,0x07
0.312699800000000,,0x20,0x00
0.315673800000000,,0x8E,0x28
0.318647600000000,,0x0E,0x0F
0.321621600000000,,0x30,0x20
0.324595400000000,,0x12,0x04
0.327569200000000,,0x80,0x00
0.330543200000000,,0x83,0xC2
0.367054200000000,,0xB0,0x0B
0.369204400000000,,0x00,0x07
0.372178200000000,,0x20,0x00
0.375152000000000,,0x06,0x28
0.378126200000000,,0x0E,0x0F
0.381100000000000,,0x30,0x20
0.384074000000000,,0x12,0x04
0.387048000000000,,0x80,0x00
0.390022000000000,,0xFB,0xC2
0.426546800000000,,0xB0,0x0B
0.428683400000000,,0x00,0x07
0.431657400000000,,0x20,0x00
0.434631200000000,,0x8E,0x28
0.437605200000000,,0x0E,0x0F
0.440579200000000,,0x30,0x20
0.443553000000000,,0x12,0x04
0.446527000000000,,0x80,0x00
0.449500800000000,,0x83,0xC2
0.486040000000000,,0xB0,0x0B
0.488160800000000,,0x00,0x07
0.491134800000000,,0x20,0x00
0.494108600000000,,0x06,0x28
0.497082600000000,,0x0E,0x0F
0.500056600000000,,0x30,0x20
0.503030400000000,,0x12,0x04
0.506004400000000,,0x80,0x00
0.508978400000000,,0xFB,0xC2
0.545516000000000,,0xB0,0x0B
0.547640800000000,,0x00,0x07
0.550614800000000,,0x20,0x00
0.553588600000000,,0x8E,0x28
0.556562400000000,,0x0E,0x0F
0.559536400000000,,0x30,0x20
0.562510400000000,,0x12,0x04
0.565484400000000,,0x80,0x00
0.568458400000000,,0x83,0xC2
0.605010000000000,,0xB0,0x0B
0.607118800000000,,0x00,0x07
0.610092600000000,,0x20,0x00
0.613066600000000,,0x06,0x28
0.616040400000000,,0x0E,0x0F
0.619014200000000,,0x30,0x20
0.621988200000000,,0x12,0x04
0.624962200000000,,0x80,0x00
0.627936000000000,,0xFB,0xC2
0.664484800000000,,0xB0,0x0B
0.666597600000000,,0x00,0x07
0.669571600000000,,0x20,0x00
0.672545400000000,,0x8E,0x28
0.675519400000000,,0x0E,0x0F
0.678493400000000,,0x30,0x20
0.681467400000000,,0x12,0x04
0.684441200000000,,0x80,0x00
0.687415200000000,,0x83,0xC2
0.723977800000000,,0xB0,0x0B
0.726077200000000,,0x00,0x07
0.729051000000000,,0x20,0x00
0.732025000000000,,0x06,0x28
0.734999000000000,,0x0E,0x0F
0.737972800000000,,0x30,0x20
0.740946800000000,,0x12,0x04
0.743920800000000,,0x80,0x00
0.746894800000000,,0xFB,0xC2
0.783433800000000,,0xB0,0x0B
0.785558600000000,,0x00,0x07
0.788532600000000,,0x20,0x00
0.791506600000000,,0x8E,0x28
0.794480600000000,,0x0E,0x0F
0.797454600000000,,0x30,0x20
0.800428600000000,,0x12,0x04
0.803402600000000,,0x80,0x00
0.806376400000000,,0x83,0xC2
0.842911000000000,,0xB0,0x0B
0.845036600000000,,0x00,0x07
0.848010600000000,,0x20,0x00
0.850984400000000,,0x06,0x28
0.853958000000000,,0x0E,0x0F
0.856931800000000,,0x30,0x20
0.859905600000000,,0x12,0x04
0.862879400000000,,0x80,0x00
0.865853200000000,,0xFB,0xC2
0.901956400000000,,0xB0,0x0B
0.904513600000000,,0x00,0x07
0.907487400000000,,0x20,0x00
0.910461400000000,,0x8E,0x28
0.913435200000000,,0x0E,0x0F
0.916409000000000,,0x30,0x20
0.919383000000000,,0x13,0x04
0.922356800000000,,0x80,0x00
0.925330600000000,,0x84,0xC2
0.961902800000000,,0xB0,0x0B
0.963990000000000,,0x00,0x07
0.966963800000000,,0x20,0x00
0.969937600000000,,0x06,0x28
0.972911400000000,,0x0E,0x0F
0.975885400000000,,0x30,0x20
0.978859400000000,,0x13,0x04
0.981833400000000,,0x80,0x00
0.984807200000000,,0xFC,0xC2
1.021262200000000,,0xB0,0x0B
1.023468200000000,,0x00,0x07
1.026442000000000,,0x20,0x00
1.029416000000000,,0x8E,0x28
1.032390000000000,,0x0E,0x0F
1.035363800000000,,0x30,0x20
1.038337800000000,,0x13,0x04
1.041311800000000,,0x80,0x00
1.044285800000000,,0x84,0xC2
1.080660400000000,,0xB0,0x0B
1.082946600000000,,0x00,0x07
1.085920400000000,,0x20,0x00
1.088894400000000,,0x06,0x28
1.091868200000000,,0x0E,0x0F
1.094842000000000,,0x30,0x20
1.097816000000000,,0x13,0x04
1.100790000000000,,0x80,0x00
1.103764000000000,,0xFC,0xC2
1.140042400000000,,0xB0,0x0B
1.142425800000000,,0x00,0x07
1.145399800000000,,0x20,0x00
1.148373800000000,,0x8E,0x28
1.151347600000000,,0x0E,0x0F
1.154321800000000,,0x30,0x20
1.157295600000000,,0x13,0x04
1.160269400000000,,0x80,0x00
1.163243400000000,,0x84,0xC2
1.201511400000000,,0xB0,0x0B
1.203886200000000,,0x00,0x07
1.206860000000000,,0x20,0x00
1.209834000000000,,0x06,0x28
1.212807800000000,,0x0E,0x0F
1.215781600000000,,0x30,0x20
1.218755600000000,,0x13,0x04
1.221729400000000,,0x80,0x00
1.224703200000000,,0xFC,0xC2
1.258835200000000,,0xB0,0x0B
1.261381000000000,,0x00,0x07
1.264355000000000,,0x20,0x00
1.267329000000000,,0x8E,0x28
1.270303000000000,,0x0E,0x0F
1.273277000000000,,0x30,0x20
1.276250800000000,,0x13,0x04
1.279224800000000,,0x80,0x00
1.282198600000000,,0x84,0xC2
1.318378400000000,,0xB0,0x0B
1.320860400000000,,0x00,0x07
1.323834400000000,,0x20,0x00
1.326808200000000,,0x06,0x28
1.329782200000000,,0x0E,0x0F
1.332756200000000,,0x30,0x20
1.335730400000000,,0x13,0x04
1.338704400000000,,0x80,0x00
1.341678400000000,,0xFC,0xC2
1.377919400000000,,0xB0,0x0B
1.380339400000000,,0x00,0x07
1.383313400000000,,0x20,0x00
1.386287200000000,,0x8E,0x28
1.389261000000000,,0x0E,0x0F
1.392234800000000,,0x30,0x20
1.395208800000000,,0x13,0x04
1.398182600000000,,0x80,0x00
1.401156800000000,,0x84,0xC2
1.437445600000000,,0xB0,0x0B
1.439818000000000,,0x00,0x07
1.442792200000000,,0x20,0x00
1.445766000000000,,0x06,0x28
1.448739800000000,,0x0E,0x0F
1.451713800000000,,0x30,0x20
1.454687600000000,,0x13,0x04
1.457661400000000,,0x80,0x00
1.460635400000000,,0xFC,0xC2
1.496989200000000,,0xB0,0x0B
1.499298200000000,,0x00,0x07
1.502272200000000,,0x20,0x00
1.505246200000000,,0x8E,0x28
1.508220200000000,,0x0E,0x0F
1.511194200000000,,0x30,0x20
1.514168000000000,,0x13,0x04
1.517142000000000,,0x80,0x00
1.520116000000000,,0x84,0xC2
1.556515600000000,,0xB0,0x0B
1.558778400000000,,0x00,0x07
1.561752400000000,,0x20,0x00
1.564726200000000,,0x06,0x28
1.567700200000000,,0x0E,0x0F
1.570674200000000,,0x30,0x20
1.573648400000000,,0x13,0x04
1.576622200000000,,0x80,0x00
1.579596200000000,,0xFC,0xC2
1.616054600000000,,0xB0,0x0B
1.618257000000000,,0x00,0x07
1.621231000000000,,0x20,0x00
1.624205000000000,,0x8E,0x28
1.627179000000000,,0x0E,0x0F
1.630153000000000,,0x30,0x20
1.633127000000000,,0x13,0x04
1.636101000000000,,0x80,0x00
1.639075000000000,,0x84,0xC2
1.675597400000000,,0xB0,0x0B
1.677737000000000,,0x00,0x07
1.680711000000000,,0x20,0x00
1.683684800000000,,0x06,0x28
1.686658800000000,,0x0E,0x0F
1.689632600000000,,0x30,0x20
1.692606600000000,,0x13,0x04
1.695580600000000,,0x80,0x00
1.698554600000000,,0xFC,0xC2
1.735120400000000,,0xB0,0x0B
1.737215600000000,,0x00,0x07
1.740189600000000,,0x20,0x00
1.743163600000000,,0x8E,0x28
1.746137400000000,,0x0E,0x0F
1.749111400000000,,0x30,0x20
1.752085400000000,,0x13,0x04
1.755059400000000,,0x80,0x00
1.758033600000000,,0x84,0xC2
1.794624000000000,,0xB0,0x0B
1.796695800000000,,0x00,0x07
1.799669800000000,,0x20,0x00
1.802643800000000,,0x06,0x28
1.805617800000000,,0x0E,0x0F
1.808591600000000,,0x30,0x20
1.811565400000000,,0x13,0x04
1.814539200000000,,0x80,0x00
1.817513200000000,,0xFC,0xC2
1.853535400000000,,0xB0,0x0B
1.856174400000000,,0x00,0x07
1.859148400000000,,0x20,0x00
1.862122200000000,,0x8E,0x28
1.865096200000000,,0x0E,0x0F
1.868070200000000,,0x30,0x20
1.871044200000000,,0x13,0x04
1.874018000000000,,0x80,0x00
1.876992000000000,,0x84,0xC2
1.913536000000000,,0xB0,0x0B
1.915652600000000,,0x00,0x07
1.918626600000000,,0x20,0x00
1.921600600000000,,0x06,0x28
1.924574600000000,,0x0E,0x0F
1.927548800000000,,0x30,0x20
1.930522800000000,,0x14,0x04
1.933496800000000,,0x80,0x00
1.936470800000000,,0xFD,0xC2
1.972982600000000,,0xB0,0x0B
1.975132600000000,,0x00,0x07
1.978106600000000,,0x20,0x00
1.981080600000000,,0x8E,0x28
1.984054600000000,,0x0E,0x0F
1.987028400000000,,0x30,0x20
1.990002600000000,,0x14,0x04
1.992976600000000,,0x80,0x00
1.995950600000000,,0x85,0xC2
2.032410000000000,,0xB0,0x0B
2.034612400000000,,0x00,0x07
2.037586400000000,,0x20,0x00
2.040560400000000,,0x06,0x28
2.043534400000000,,0x0E,0x0F
2.046508400000000,,0x30,0x20
2.049482400000000,,0x14,0x04
2.052456600000000,,0x80,0x00
2.055430400000000,,0xFD,0xC2
2.091857200000000,,0xB0,0x0B
2.094092400000000,,0x00,0x07
2.097066400000000,,0x20,0x00
2.100040400000000,,0x8E,0x28
2.103014400000000,,0x0E,0x0F
2.105988200000000,,0x30,0x20
2.108962200000000,,0x14,0x04
2.111936200000000,,0x80,0x00
2.114910200000000,,0x85,0xC2
2.151283000000000,,0xB0,0x0B
2.153570800000000,,0x00,0x07
2.156544800000000,,0x20,0x00
2.159518600000000,,0x06,0x28
2.162492600000000,,0x0E,0x0F
2.165466200000000,,0x30,0x20
2.168440000000000,,0x14,0x04
2.171413800000000,,0x80,0x00
2.174387600000000,,0xFD,0xC2
2.210563400000000,,0xB0,0x0B
2.213047800000000,,0x00,0x07
2.216021800000000,,0x20,0x00
2.218995800000000,,0x8E,0x28
2.221969800000000,,0x0E,0x0F
2.224943800000000,,0x30,0x20
2.227917800000000,,0x14,0x04
2.230891600000000,,0x80,0x00
2.233865400000000,,0x85,0xC2
2.270055000000000,,0xB0,0x0B
2.272526400000000,,0x00,0x07
2.275500400000000,,0x20,0x00
2.278474200000000,,0x06,0x28
2.281448200000000,,0x0E,0x0F
2.284422000000000,,0x30,0x20
2.287395800000000,,0x14,0x04
2.290369800000000,,0x80,0x00
2.293343600000000,,0xFD,0xC2
2.329532600000000,,0xB0,0x0B
2.332005800000000,,0x00,0x07
2.334979600000000,,0x20,0x00
2.337953400000000,,0x8E,0x28
2.340927400000000,,0x0E,0x0F
2.343901400000000,,0x30,0x20
2.346875600000000,,0x14,0x04
2.349849600000000,,0x80,0x00
2.352823600000000,,0x85,0xC2
2.389027800000000,,0xB0,0x0B
2.391484800000000,,0x00,0x07
2.394458800000000,,0x20,0x00
2.397432800000000,,0x06,0x28
2.400407000000000,,0x0E,0x0F
2.403381000000000,,0x30,0x20
2.406354800000000,,0x14,0x04
2.409328600000000,,0x80,0x00
2.412302600000000,,0xFD,0xC2
2.448501800000000,,0xB0,0x0B
2.450962400000000,,0x00,0x07
2.453936200000000,,0x20,0x00
2.456910000000000,,0x8E,0x28
2.459883800000000,,0x0E,0x0F
2.462857600000000,,0x30,0x20
2.465831400000000,,0x14,0x04
2.468805400000000,,0x80,0x00
2.471779400000000,,0x85,0xC2
2.507991400000000,,0xB0,0x0B
2.510439400000000,,0x00,0x07
2.513413000000000,,0x20,0x00
2.516387000000000,,0x06,0x28
2.519360800000000,,0x0E,0x0F
2.522334600000000,,0x30,0x20
2.525308600000000,,0x14,0x04
2.528282600000000,,0x80,0x00
2.531256600000000,,0xFD,0xC2
2.567483400000000,,0xB0,0x0B
2.569918200000000,,0x00,0x07
2.572892200000000,,0x20,0x00
2.575866400000000,,0x8E,0x28
2.578840600000000,,0x0E,0x0F
2.581814600000000,,0x30,0x20
2.584788600000000,,0x14,0x04
2.587762600000000,,0x80,0x00
2.590736400000000,,0x85,0xC2
2.626963400000000,,0xB0,0x0B
2.629397600000000,,0x00,0x07
2.632371600000000,,0x20,0x00
2.635345600000000,,0x06,0x28
2.638319400000000,,0x0E,0x0F
2.641293400000000,,0x30,0x20
2.644267400000000,,0x14,0x04
2.647241400000000,,0x80,0x00
2.650215400000000,,0xFD,0xC2
2.686457000000000,,0xB0,0x0B
2.688876800000000,,0x00,0x07
2.691850800000000,,0x20,0x00
2.694825000000000,,0x8E,0x28
2.697799000000000,,0x0E,0x0F
2.700773000000000,,0x30,0x20
2.703747000000000,,0x14,0x04
2.706721000000000,,0x80,0x00
2.709695000000000,,0x85,0xC2
2.745934800000000,,0xB0,0x0B
2.748356600000000,,0x00,0x07
2.751330600000000,,0x20,0x00
2.754304600000000,,0x06,0x28
2.757278400000000,,0x0E,0x0F
2.760252600000000,,0x30,0x20
2.763226600000000,,0x14,0x04
2.766200600000000,,0x80,0x00
2.769174600000000,,0xFD,0xC2
2.805450400000000,,0xB0,0x0B
2.807836200000000,,0x20,0x07
2.810810000000000,,0x20,0x00
2.813784000000000,,0x8E,0x28
2.816757800000000,,0x0E,0x0F
2.819731600000000,,0x30,0x20
2.822705400000000,,0x14,0x04
2.825679400000000,,0x81,0x00
2.828653200000000,,0xA6,0xC2
2.865005600000000,,0xB0,0x0B
2.867313600000000,,0x20,0x07
2.870287600000000,,0x20,0x00
2.873261600000000,,0x06,0x28
2.876235600000000,,0x0E,0x0F
2.879209600000000,,0x30,0x20
2.882183800000000,,0x14,0x04
2.885157800000000,,0x81,0x00
2.888131800000000,,0x1E,0xC2
2.924191600000000,,0xB0,0x0B
2.926792200000000,,0x00,0x07
2.929766000000000,,0x20,0x00
2.932739800000000,,0x8E,0x00
2.935713600000000,,0x0E,0x0F
2.938687400000000,,0x30,0x20
2.941661200000000,,0x15,0x04
2.944635000000000,,0x80,0x00
2.947609000000000,,0x86,0x9A
2.984073800000000,,0xB0,0x0B
2.986270200000000,,0x00,0x07
2.989244000000000,,0x20,0x00
2.992218000000000,,0x06,0x00
2.995191800000000,,0x0E,0x0F
2.998165800000000,,0x30,0x20
3.001139600000000,,0x15,0x04
3.004113600000000,,0x80,0x00
3.007087400000000,,0xFE,0x9A
3.043264200000000,,0xB0,0x0B
3.045747800000000,,0x00,0x07
3.048721600000000,,0x20,0x00
3.051695400000000,,0x8E,0x00
3.054669200000000,,0x0E,0x0F
3.057643000000000,,0x30,0x20
3.060616800000000,,0x15,0x04
3.063590600000000,,0x80,0x00
3.066564600000000,,0x86,0x9A
3.103041800000000,,0xB0,0x0B
3.105224800000000,,0x00,0x07
3.108198600000000,,0x20,0x00
3.111172400000000,,0x06,0x00
3.114146200000000,,0x0E,0x0F
3.117120000000000,,0x30,0x20
3.120094000000000,,0x15,0x04
3.123067800000000,,0x80,0x00
3.126041600000000,,0xFE,0x9A
3.162254800000000,,0xB0,0x0B
3.164702400000000,,0x00,0x07
3.167676400000000,,0x20,0x00
3.170650200000000,,0x8E,0x00
3.173624200000000,,0x0E,0x0F
3.176598200000000,,0x30,0x20
3.179572200000000,,0x15,0x04
3.182546200000000,,0x80,0x00
3.185520200000000,,0x86,0x9A
3.221658800000000,,0xB0,0x0B
3.224183200000000,,0x00,0x07
3.227157200000000,,0x20,0x00
3.230131200000000,,0x06,0x00
3.233105000000000,,0x0E,0x0F
3.236079000000000,,0x30,0x20
3.239053000000000,,0x15,0x04
3.242027000000000,,0x80,0x00
3.245001000000000,,0xFE,0x9A
3.281484600000000,,0xB0,0x0B
3.283660000000000,,0x00,0x07
3.286633800000000,,0x20,0x00
3.289607600000000,,0x8E,0x00
3.292581400000000,,0x0E,0x0F
3.295555200000000,,0x30,0x20
3.298529000000000,,0x15,0x04
3.301502600000000,,0x80,0x00
3.304476600000000,,0x86,0x9A
3.340722600000000,,0xB0,0x0B
3.343137200000000,,0x00,0x07
3.346111200000000,,0x20,0x00
3.349085000000000,,0x06,0x00
3.352059000000000,,0x0E,0x0F
3.355033000000000,,0x30,0x20
3.358006800000000,,0x15,0x04
3.360980800000000,,0x80,0x00
3.363954600000000,,0xFE,0x9A
3.399974800000000,,0xB0,0x0B
3.402614800000000,,0x00,0x07
3.405588600000000,,0x20,0x00
3.408562400000000,,0x8E,0x00
3.411536200000000,,0x0E,0x0F
3.414510000000000,,0x30,0x20
3.417483800000000,,0x15,0x04
3.420457600000000,,0x80,0x00
3.423431600000000,,0x86,0x9A
3.459798200000000,,0xB0,0x0B
3.462090800000000,,0x00,0x07
3.465064600000000,,0x20,0x00
3.468038400000000,,0x06,0x00
3.471012200000000,,0x0E,0x0F
3.473986200000000,,0x30,0x20
3.476960000000000,,0x15,0x04
3.479933800000000,,0x80,0x00
3.482907800000000,,0xFE,0x9A
3.519039600000000,,0xB0,0x0B
3.521569000000000,,0x00,0x07
3.524543000000000,,0x20,0x00
3.527517000000000,,0x8E,0x00
3.530490800000000,,0x0E,0x0F
3.533464600000000,,0x30,0x20
3.536438600000000,,0x15,0x04
3.539412400000000,,0x80,0x00
3.542386400000000,,0x86,0x9A
3.578866000000000,,0xB0,0x0B
3.581047600000000,,0x00,0x07
3.584021600000000,,0x20,0x00
3.586995600000000,,0x06,0x00
3.589969600000000,,0x0E,0x0F
3.592943600000000,,0x30,0x20
3.595917600000000,,0x15,0x04
3.598891600000000,,0x80,0x00
3.601865400000000,,0xFE,0x9A
3.638104400000000,,0xB0,0x0B
3.640526600000000,,0x00,0x07
3.643500600000000,,0x20,0x00
3.646474400000000,,0x8E,0x00
3.649448400000000,,0x0E,0x0F
3.652422200000000,,0x30,0x20
3.655396000000000,,0x15,0x04
3.658370000000000,,0x80,0x00
3.661344000000000,,0x86,0x9A
3.697931200000000,,0xB0,0x0B
3.700005600000000,,0x00,0x07
3.702979600000000,,0x20,0x00
3.705953600000000,,0x06,0x00
3.708927600000000,,0x0E,0x0F
3.711901600000000,,0x30,0x20
3.714875600000000,,0x15,0x04
3.717849600000000,,0x80,0x00
3.720823600000000,,0xFE,0x9A
3.757149000000000,,0xB0,0x0B
3.759485600000000,,0x00,0x07
3.762459800000000,,0x20,0x00
3.765433800000000,,0x8E,0x00
3.768408000000000,,0x0E,0x0F
3.771382000000000,,0x30,0x20
3.774355800000000,,0x15,0x04
3.777329800000000,,0x80,0x00
3.780303800000000,,0x86,0x9A
3.816389200000000,,0xB0,0x0B
3.818965400000000,,0x00,0x07
3.821939400000000,,0x20,0x00
3.824913400000000,,0x06,0x00
3.827887200000000,,0x0E,0x0F
3.830861200000000,,0x30,0x20
3.833835000000000,,0x15,0x04
3.836809000000000,,0x80,0x00
3.839783000000000,,0xFE,0x9A
3.875956200000000,,0xB0,0x0B
3.878443200000000,,0x00,0x07
3.881417000000000,,0x20,0x00
3.884390800000000,,0x8E,0x00
3.887364400000000,,0x0E,0x0F
3.890338000000000,,0x30,0x20
3.893311800000000,,0x16,0x04
3.896285600000000,,0x80,0x00
3.899259400000000,,0x87,0x9A
3.935766000000000,,0xB0,0x0B
3.937919400000000,,0x00,0x07
3.940893200000000,,0x20,0x00
3.943867000000000,,0x06,0x00
3.946840800000000,,0x0E,0x0F
3.949814600000000,,0x30,0x20
3.952788400000000,,0x16,0x04
3.955762200000000,,0x80,0x00
3.958736000000000,,0xFF,0x9A
3.995021000000000,,0xB0,0x0B
3.997397400000000,,0x00,0x07
4.000371400000000,,0x20,0x00
4.003345400000000,,0x8E,0x00
4.006319400000000,,0x0E,0x0F
4.009293400000000,,0x30,0x20
4.012267400000000,,0x16,0x04
4.015241400000000,,0x80,0x00
4.018215400000000,,0x87,0x9A
4.054281600000000,,0xB0,0x0B
4.056877200000000,,0x00,0x07
4.059851400000000,,0x20,0x00
4.062825400000000,,0x06,0x00
4.065799400000000,,0x0E,0x0F
4.068773400000000,,0x30,0x20
4.071747600000000,,0x16,0x04
4.074721600000000,,0x80,0x00
4.077695800000000,,0xFF,0x9A
4.114093800000000,,0xB0,0x0B
4.116357600000000,,0x00,0x07
4.119331800000000,,0x20,0x00
4.122305800000000,,0x8E,0x00
4.125279800000000,,0x0E,0x0F
4.128253800000000,,0x30,0x20
4.131228000000000,,0x16,0x04
4.134202000000000,,0x80,0x00
4.137176200000000,,0x87,0x9A
4.173255000000000,,0xB0,0x0B
4.175838200000000,,0x00,0x07
4.178812000000000,,0x20,0x00
4.181786000000000,,0x06,0x00
4.184759800000000,,0x0E,0x0F
4.187733800000000,,0x30,0x20
4.190708000000000,,0x16,0x04
4.193682000000000,,0x80,0x00
4.196656200000000,,0xFF,0x9A
4.233019800000000,,0xB0,0x0B
4.235317400000000,,0x00,0x07
4.238291400000000,,0x20,0x00
4.241265400000000,,0x8E,0x00
4.244239400000000,,0x0E,0x0F
4.247213400000000,,0x30,0x20
4.250187400000000,,0x16,0x04
4.253161400000000,,0x80,0x00
4.256135400000000,,0x87,0x9A
4.292228800000000,,0xB0,0x0B
4.294796000000000,,0x00,0x07
4.297769800000000,,0x20,0x00
4.300743600000000,,0x06,0x00
4.303717400000000,,0x0E,0x0F
4.306691200000000,,0x30,0x20
4.309665200000000,,0x16,0x04
4.312639200000000,,0x80,0x00
4.315613000000000,,0xFF,0x9A
4.352004800000000,,0xB0,0x0B
4.354273400000000,,0x00,0x07
4.357247400000000,,0x20,0x00
4.360221400000000,,0x8E,0x00
4.363195200000000,,0x0E,0x0F
4.366169000000000,,0x30,0x20
4.369142800000000,,0x16,0x04
4.372116800000000,,0x80,0x00
4.375090600000000,,0x87,0x9A
4.411197000000000,,0xB0,0x0B
4.413750600000000,,0x00,0x07
4.416724600000000,,0x20,0x00
4.419698400000000,,0x06,0x00
4.422672400000000,,0x0E,0x0F
4.425646200000000,,0x30,0x20
4.428620000000000,,0x16,0x04
4.431593800000000,,0x80,0x00
4.434567600000000,,0xFF,0x9A
4.470972800000000,,0xB0,0x0B
4.473227600000000,,0x00,0x07
4.476201400000000,,0x20,0x00
4.479175400000000,,0x8E,0x00
4.482149200000000,,0x0E,0x0F
4.485123000000000,,0x30,0x20
4.488096800000000,,0x16,0x04
4.491070600000000,,0x80,0x00
4.494044400000000,,0x87,0x9A
4.530165400000000,,0xB0,0x0B
4.532705600000000,,0x00,0x07
4.535679800000000,,0x20,0x00
4.538653800000000,,0x06,0x00
