Time [s],Packet ID,MOSI,MISO
7.690547000000000,0,0xB0,0x00
7.693130000000000,,0x02,0x00
7.696107000000000,,0x20,0x00
7.699084000000000,,0x06,0x00
7.702061000000000,,0x16,0x00
7.705038000000000,,0x1B,0x00
7.708015000000000,,0x19,0x00
7.710992000000000,,0x81,0x00
7.713969000000000,,0xF8,0x00
7.750144000000000,,0xB0,0x00
7.752670000000000,,0x02,0x00
7.755647000000000,,0x20,0x00
7.758624000000000,,0x8E,0x00
7.761601000000000,,0x16,0x00
7.764578000000000,,0x1B,0x00
7.767554000000000,,0x19,0x00
7.770531000000000,,0x81,0x00
7.773508000000000,,0x80,0x00
7.809726000000000,,0xB0,0x00
7.812210000000000,,0x02,0x00
7.815187000000000,,0x20,0x00
7.818164000000000,,0x06,0x00
7.821141000000000,,0x16,0x00
7.824118000000000,,0x1B,0x00
7.827095000000000,,0x19,0x00
7.830072000000000,,0x81,0x00
7.833049000000000,,0xF8,0x00
7.869323000000000,,0xB0,0x00
7.871750000000000,,0x02,0x00
7.874727000000000,,0x20,0x00
7.877704000000000,,0x8E,0x00
7.880681000000000,,0x16,0x00
7.883658000000000,,0x1B,0x0F
7.886635000000000,,0x19,0xFB
7.889612000000000,,0x81,0x19
7.892589000000000,,0x80,0x81
7.928922000000000,,0xB0,0x80
7.931290000000000,,0x02,0x00
7.934267000000000,,0x20,0x00
7.937244000000000,,0x06,0x00
7.940221000000000,,0x16,0x00
7.943198000000000,,0x1B,0x00
7.946174000000000,,0x19,0x00
7.949151000000000,,0x81,0x00
7.952128000000000,,0xF8,0x00
7.988223000000000,,0xB0,0x0B
7.990830000000000,,0x02,0x00
7.993808000000000,,0x20,0x00
7.996785000000000,,0x8E,0x00
7.999762000000000,,0x16,0x4F
8.002739000000000,,0x1B,0x00
8.005716000000000,,0x19,0x00
8.008692999999999,,0x81,0x00
8.011671000000000,,0x80,0xAF
8.049492000000001,,0xB0,0x0B
8.052357000000001,,0x02,0x00
8.055334000000000,,0x20,0x00
8.058311000000000,,0x06,0x00
8.061287999999999,,0x16,0x4F
8.064265000000001,,0x1B,0x02
8.067242000000000,,0x19,0x00
8.070219000000000,,0x81,0x00
8.073195999999999,,0xF8,0xB1
8.107272000000000,,0xB0,0x0B
8.109911000000000,,0x02,0x00
8.112888000000000,,0x20,0x00
8.115864999999999,,0x8E,0x00
8.118841000000000,,0x16,0x4F
8.121817999999999,,0x1B,0x02
8.124795000000001,,0x19,0x00
8.127772000000000,,0x81,0x00
8.130749000000000,,0x80,0xB1
8.167249999999999,,0xB0,0x0B
8.169449999999999,,0x02,0x00
8.172427000000001,,0x20,0x00
8.175404000000000,,0x06,0x00
8.178381000000000,,0x16,0x4F
8.181357999999999,,0x1B,0x02
8.184335000000001,,0x19,0x00
8.187312000000000,,0x81,0x00
8.190289000000000,,0xF8,0xB1
8.226661999999999,,0xB0,0x0B
8.228990000000000,,0x02,0x00
8.231966999999999,,0x20,0x00
8.234944000000000,,0x8E,0x00
8.237921000000000,,0x16,0x4F
8.240898000000000,,0x1B,0x02
8.243874999999999,,0x19,0x00
8.246852000000001,,0x81,0x00
8.249829000000000,,0x80,0xB1
8.286060000000001,,0xB0,0x0B
8.288529000000000,,0x02,0x00
8.291506000000000,,0x20,0x00
8.294484000000001,,0x06,0x00
8.297461000000000,,0x16,0x4F
8.300438000000000,,0x1B,0x02
8.303414999999999,,0x19,0x00
8.306392000000001,,0x81,0x00
8.309369000000000,,0xF8,0xB1
8.345810000000000,,0xB0,0x0B
8.348068000000000,,0x02,0x00
8.351044999999999,,0x20,0x00
8.354022000000001,,0x8E,0x00
8.356999000000000,,0x16,0x4F
8.359976000000000,,0x1B,0x02
8.362952999999999,,0x1A,0x00
8.365930000000001,,0x81,0x00
8.368907000000000,,0x81,0xB1
8.405206000000000,,0xB0,0x0B
8.407607000000000,,0x02,0x00
8.410584000000000,,0x20,0x00
8.413561000000000,,0x06,0x00
8.416537999999999,,0x16,0x4F
8.419515000000001,,0x1B,0x02
8.422491000000001,,0x1A,0x00
8.425468000000000,,0x81,0x00
8.428445000000000,,0xF9,0xB1
8.464617000000001,,0xB0,0x0B
8.467145000000000,,0x02,0x00
8.470122000000000,,0x20,0x00
8.473098999999999,,0x8E,0x00
8.476076000000001,,0x16,0x4F
8.479053000000000,,0x1B,0x02
8.482030000000000,,0x1A,0x00
8.485007000000000,,0x81,0x00
8.487984000000001,,0x81,0xB1
8.524597000000000,,0xB0,0x0B
8.526687000000001,,0x02,0x00
8.529664000000000,,0x20,0x00
8.532641000000000,,0x06,0x00
8.535617000000000,,0x16,0x4F
8.538594000000000,,0x1B,0x02
8.541570999999999,,0x1A,0x00
8.544548000000001,,0x81,0x00
8.547525000000000,,0xF9,0xB1
8.583955000000000,,0xB0,0x0B
8.586223000000000,,0x02,0x00
8.589200000000000,,0x20,0x00
8.592177000000000,,0x8E,0x00
8.595154000000001,,0x16,0x4F
8.598131000000000,,0x1B,0x02
8.601108000000000,,0x1A,0x00
8.604084000000000,,0x81,0x00
8.607061000000000,,0x81,0xB1
8.643375000000001,,0xB0,0x0B
8.645759999999999,,0x02,0x00
8.648737000000001,,0x20,0x00
8.651714000000000,,0x06,0x00
8.654691000000000,,0x16,0x4F
8.657667999999999,,0x1B,0x02
8.660645000000001,,0x1A,0x00
8.663622000000000,,0x81,0x00
8.666599000000000,,0xF9,0xB1
8.702772000000000,,0xB0,0x0B
8.705299999999999,,0x02,0x00
8.708277000000001,,0x20,0x00
8.711254000000000,,0x8E,0x00
8.714231000000000,,0x16,0x4F
8.717207999999999,,0x1B,0x02
8.720185000000001,,0x1A,0x00
8.723162000000000,,0x81,0x00
8.726139000000000,,0x81,0xB1
8.762755000000000,,0xB0,0x0B
8.764840000000000,,0x02,0x00
8.767817000000001,,0x20,0x00
8.770794000000000,,0x06,0x00
8.773771000000000,,0x16,0x4F
8.776749000000001,,0x1B,0x02
8.779724999999999,,0x1A,0x00
8.782702000000000,,0x81,0x00
8.785679000000000,,0xF9,0xB1
8.822132000000000,,0xB0,0x0B
8.824381000000001,,0x02,0x00
8.827358000000000,,0x20,0x00
8.830335000000000,,0x8E,0x00
8.833311999999999,,0x16,0x4F
8.836288000000000,,0x1B,0x02
8.839264999999999,,0x1A,0x04
8.842242000000001,,0x81,0x00
8.845219000000000,,0x81,0xB5
8.881527999999999,,0xB0,0x0B
8.883920000000000,,0x02,0x00
8.886896999999999,,0x20,0x00
8.889874000000001,,0x06,0x00
8.892851000000000,,0x16,0x4F
8.895828000000000,,0x1B,0x02
8.898804999999999,,0x1A,0x04
8.901782000000001,,0x81,0x00
8.904759000000000,,0xF9,0xB5
8.940941000000000,,0xB0,0x0B
8.943460000000000,,0x02,0x00
8.946437000000000,,0x20,0x00
8.949414000000001,,0x8E,0x00
8.952391000000000,,0x16,0x4F
8.955367000000001,,0x1B,0x02
8.958344000000000,,0x1A,0x04
8.961321000000000,,0x81,0x00
8.964297999999999,,0x81,0xB5
9.000907000000000,,0xB0,0x0B
9.003000000000000,,0x02,0x00
9.005977000000000,,0x20,0x00
9.008953999999999,,0x06,0x00
9.011931000000001,,0x16,0x4F
9.014908000000000,,0x1B,0x02
9.017885000000000,,0x1A,0x04
9.020861999999999,,0x81,0x00
9.023838000000000,,0xF9,0xB5
9.060280000000001,,0xB0,0x0B
9.062538000000000,,0x02,0x00
9.065515000000000,,0x20,0x00
9.068492000000001,,0x8E,0x00
9.071469000000000,,0x16,0x4F
9.074446000000000,,0x1B,0x02
9.077422000000000,,0x1A,0x04
9.080399999999999,,0x81,0x00
9.083375999999999,,0x81,0xB5
9.119692000000001,,0xB0,0x0B
9.122077000000001,,0x02,0x00
9.125055000000000,,0x20,0x00
9.128031999999999,,0x06,0x00
9.131009000000001,,0x16,0x4F
9.133986000000000,,0x1B,0x02
9.136963000000000,,0x1A,0x04
9.139941000000000,,0x81,0x00
9.142918000000000,,0xF9,0xB5
9.179092000000001,,0xB0,0x0B
9.181620000000001,,0x02,0x00
9.184597000000000,,0x20,0x00
9.187574000000000,,0x8E,0x00
9.190550999999999,,0x16,0x4F
9.193528000000001,,0x1B,0x02
9.196505000000000,,0x1A,0x04
9.199482000000000,,0x81,0x00
9.202458999999999,,0x81,0xB5
9.239070999999999,,0xB0,0x0B
9.241160000000001,,0x02,0x00
9.244137000000000,,0x20,0x00
9.247114000000000,,0x06,0x00
9.250090999999999,,0x16,0x4F
9.253068000000001,,0x1B,0x02
9.256045000000000,,0x1A,0x04
9.259022000000000,,0x81,0x00
9.261998999999999,,0xF9,0xB5
9.298432000000000,,0xB0,0x0B
9.300700000000001,,0x02,0x00
9.303677000000000,,0x20,0x00
9.306654000000000,,0x8E,0x00
9.309631000000000,,0x16,0x4F
9.312608000000001,,0x1B,0x02
9.315585000000000,,0x1A,0x04
9.318562000000000,,0x81,0x00
9.321539000000000,,0x81,0xB5
9.357616000000000,,0xB0,0x0B
9.360242000000000,,0x02,0x00
9.363219000000001,,0x20,0x00
9.366196000000000,,0x06,0x00
9.369173000000000,,0x16,0x4F
9.372150000000000,,0x1B,0x02
9.375128000000000,,0x1B,0x04
9.378105000000000,,0x81,0x00
9.381081999999999,,0xFA,0xB5
9.417597000000001,,0xB0,0x0B
9.419783000000001,,0x02,0x00
9.422760000000000,,0x20,0x00
9.425736000000001,,0x8E,0x00
9.428713000000000,,0x16,0x4F
9.431690000000000,,0x1B,0x02
9.434666999999999,,0x1B,0x04
9.437644000000001,,0x81,0x00
9.440621000000000,,0x82,0xB5
9.476993999999999,,0xB0,0x0B
9.479322000000000,,0x02,0x00
9.482298999999999,,0x20,0x00
9.485276000000001,,0x06,0x00
9.488253000000000,,0x16,0x4F
9.491230000000000,,0x1B,0x02
9.494206999999999,,0x1B,0x04
9.497184000000001,,0x81,0x00
9.500161000000000,,0xFA,0xB5
9.536405000000000,,0xB0,0x0B
9.538862000000000,,0x02,0x00
9.541839000000000,,0x20,0x00
9.544816000000001,,0x8E,0x00
9.547793000000000,,0x16,0x4F
9.550770000000000,,0x1B,0x02
9.553747000000000,,0x1B,0x04
9.556724000000001,,0x81,0x00
9.559701000000000,,0x82,0xB5
9.595802000000001,,0xB0,0x0B
9.598402000000000,,0x02,0x00
9.601379000000000,,0x20,0x00
9.604355999999999,,0x06,0x00
9.607333000000001,,0x16,0x4F
9.610310000000000,,0x1B,0x02
9.613287000000000,,0x1B,0x04
9.616263999999999,,0x81,0x00
9.619241000000001,,0xFA,0xB5
9.655787999999999,,0xB0,0x0B
9.657943000000000,,0x02,0x00
9.660920000000001,,0x20,0x00
9.663897000000000,,0x8E,0x00
9.666874000000000,,0x16,0x4F
9.669851000000000,,0x1B,0x02
9.672828000000001,,0x1B,0x04
9.675805000000000,,0x81,0x00
9.678782999999999,,0x82,0xB5
9.715202000000000,,0xB0,0x0B
9.717484000000001,,0x02,0x00
9.720461000000000,,0x20,0x00
9.723438000000000,,0x06,0x00
9.726414999999999,,0x16,0x4F
9.729392000000001,,0x1B,0x02
9.732369000000000,,0x1B,0x04
9.735346000000000,,0x81,0x00
9.738322999999999,,0xFA,0xB5
9.774599000000000,,0xB0,0x0B
9.777025000000000,,0x02,0x00
9.780002000000000,,0x20,0x00
9.782978999999999,,0x8E,0x00
9.785956000000001,,0x16,0x4F
9.788933000000000,,0x1B,0x00
9.791910000000000,,0x1B,0x04
9.794886999999999,,0x81,0x00
9.797864000000001,,0x82,0xB3
9.834013000000001,,0xB0,0x0B
9.836565999999999,,0x02,0x00
9.839543000000001,,0x20,0x00
9.842520000000000,,0x06,0x00
9.845497000000000,,0x16,0x4F
9.848474000000000,,0x1B,0x00
9.851451000000001,,0x1B,0x04
9.854429000000000,,0x81,0x00
9.857405999999999,,0xFA,0xB3
9.893981999999999,,0xB0,0x0B
9.896110000000000,,0x02,0x00
9.899088000000001,,0x20,0x00
9.902065000000000,,0x8E,0x00
9.905042000000000,,0x16,0x4F
9.908018999999999,,0x1B,0x00
9.910996000000001,,0x1B,0x04
9.913974000000000,,0x81,0x00
9.916950999999999,,0x82,0xB3
9.953400000000000,,0xB0,0x0B
9.955653999999999,,0x02,0x00
9.958631000000000,,0x20,0x00
9.961608000000000,,0x06,0x00
9.964585000000000,,0x16,0x4F
9.967563000000000,,0x1B,0x00
9.970540000000000,,0x1B,0x04
9.973516999999999,,0x81,0x00
9.976494000000001,,0xFA,0xB3
10.012815000000000,,0xB0,0x0B
10.015197000000001,,0x02,0x00
10.018174000000000,,0x20,0x00
10.021151000000000,,0x8E,0x00
10.024127999999999,,0x16,0x4F
10.027105000000001,,0x1B,0x00
10.030082000000000,,0x1B,0x04
10.033059000000000,,0x81,0x00
10.036035999999999,,0x82,0xB3
10.072215000000000,,0xB0,0x0B
10.074738000000000,,0x02,0x00
10.077715000000000,,0x20,0x00
10.080692000000001,,0x06,0x00
10.083669000000000,,0x16,0x4F
10.086646000000000,,0x1B,0x00
10.089623000000000,,0x1B,0x04
10.092601000000000,,0x81,0x00
10.095578000000000,,0xFA,0xB3
10.132198000000001,,0xB0,0x0B
10.134278999999999,,0x02,0x00
10.137256000000001,,0x20,0x00
10.140233000000000,,0x8E,0x00
10.143210000000000,,0x16,0x4F
10.146186999999999,,0x1B,0x00
10.149164000000001,,0x1B,0x04
10.152141000000000,,0x81,0x00
10.155118000000000,,0x82,0xB3
10.191556000000000,,0xB0,0x0B
10.193819000000000,,0x02,0x00
10.196796000000001,,0x20,0x00
10.199773000000000,,0x06,0x00
10.202750000000000,,0x16,0x4F
10.205727000000000,,0x1B,0x00
10.208703999999999,,0x1B,0x04
10.211682000000000,,0x81,0x00
10.214658999999999,,0xFA,0xB3
10.250973000000000,,0xB0,0x0B
10.253360000000001,,0x02,0x00
10.256337000000000,,0x20,0x00
10.259314000000000,,0x8E,0x00
10.262290999999999,,0x16,0x4F
10.265268000000001,,0x1B,0x00
10.268245000000000,,0x1B,0x04
10.271223000000001,,0x81,0x00
10.274200000000000,,0x82,0xB3
10.310397999999999,,0xB0,0x0B
10.312901000000000,,0x02,0x00
10.315878000000000,,0x20,0x00
10.318854999999999,,0x06,0x00
10.321832000000001,,0x16,0x4F
10.324809000000000,,0x1B,0x00
10.327786000000000,,0x1B,0x04
10.330762999999999,,0x81,0x00
10.333740000000001,,0xFA,0xB3
10.370124000000001,,0xB0,0x0B
10.372441999999999,,0x02,0x00
10.375419000000001,,0x20,0x00
10.378396000000000,,0x8E,0x00
10.381373000000000,,0x16,0x4F
10.384350000000000,,0x1B,0x00
10.387327000000001,,0x1C,0x04
10.390304000000000,,0x81,0x00
10.393281000000000,,0x83,0xB3
10.429537000000000,,0xB0,0x0B
10.431981000000000,,0x02,0x00
10.434958000000000,,0x20,0x00
10.437935000000000,,0x06,0x00
10.440912000000001,,0x16,0x4F
10.443889000000000,,0x1B,0x00
10.446866000000000,,0x1C,0x04
10.449843000000000,,0x81,0x00
10.452819999999999,,0xFB,0xB3
10.488930999999999,,0xB0,0x0B
10.491520000000000,,0x02,0x00
10.494497000000001,,0x20,0x00
10.497474000000000,,0x8E,0x00
10.500450000000001,,0x16,0x4F
10.503428000000000,,0x1B,0x00
10.506404000000000,,0x1C,0x04
10.509382000000000,,0x81,0x00
10.512359000000000,,0x83,0xB3
10.548914999999999,,0xB0,0x0B
10.551060000000000,,0x02,0x00
10.554036999999999,,0x20,0x00
10.557014000000001,,0x06,0x00
10.559991000000000,,0x16,0x4F
10.562969000000001,,0x1B,0x00
10.565944999999999,,0x1C,0x04
10.568922000000001,,0x81,0x00
10.571899999999999,,0xFB,0xB3
10.608335000000000,,0xB0,0x0B
10.610601000000001,,0x02,0x00
10.613578000000000,,0x20,0x00
10.616554000000001,,0x8E,0x00
10.619531000000000,,0x16,0x4F
10.622508000000000,,0x1B,0x00
10.625484999999999,,0x1C,0x04
10.628462000000001,,0x81,0x00
10.631439000000000,,0x83,0xB3
10.667733999999999,,0xB0,0x0B
10.670140000000000,,0x02,0x00
10.673117000000000,,0x20,0x00
10.676094000000001,,0x06,0x00
10.679071000000000,,0x16,0x4F
10.682048000000000,,0x1B,0x00
10.685025000000000,,0x1C,0x04
10.688001999999999,,0x81,0x00
10.690979000000000,,0xFB,0xB3
10.727149000000001,,0xB0,0x0B
10.729680000000000,,0x02,0x00
10.732657000000000,,0x20,0x00
10.735633999999999,,0x8E,0x00
10.738612000000000,,0x16,0x4F
10.741588999999999,,0x1B,0x00
10.744566000000001,,0x1C,0x04
10.747543000000000,,0x81,0x00
10.750520000000000,,0x83,0xB3
10.787112000000000,,0xB0,0x0B
10.789223000000000,,0x02,0x00
10.792199999999999,,0x20,0x00
10.795177000000001,,0x06,0x00
10.798154000000000,,0x16,0x4F
10.801131000000000,,0x1B,0x00
10.804107999999999,,0x1C,0x04
10.807085000000001,,0x81,0x00
10.810062000000000,,0xFB,0xB3
10.846525000000000,,0xB0,0x0B
10.848762000000001,,0x02,0x00
10.851739000000000,,0x20,0x00
10.854716000000000,,0x8E,0x00
10.857692999999999,,0x16,0x4F
10.860670000000001,,0x1B,0x00
10.863647000000000,,0x1C,0x04
10.866624000000000,,0x81,0x00
10.869600999999999,,0x83,0xB3
10.905938000000001,,0xB0,0x0B
10.908301000000000,,0x02,0x00
10.911277999999999,,0x20,0x00
10.914255000000001,,0x06,0x00
10.917232000000000,,0x16,0x4F
10.920209000000000,,0x1B,0x00
10.923185999999999,,0x1C,0x04
10.926164000000000,,0x81,0x00
10.929141000000000,,0xFB,0xB3
10.965335000000000,,0xB0,0x0B
10.967843000000000,,0x02,0x00
10.970820000000000,,0x20,0x00
10.973796999999999,,0x8E,0x00
10.976774000000001,,0x16,0x4F
10.979751000000000,,0x1B,0x00
10.982728000000000,,0x1C,0x04
10.985704999999999,,0x81,0x00
10.988682000000001,,0x83,0xB3
11.024749999999999,,0xB0,0x0B
11.027385000000001,,0x02,0x00
11.030362000000000,,0x20,0x00
11.033339000000000,,0x06,0x00
11.036315999999999,,0x16,0x4F
11.039292000000000,,0x1B,0x00
11.042268999999999,,0x1C,0x04
11.045246000000001,,0x81,0x00
11.048223000000000,,0xFB,0xB3
11.084711000000000,,0xB0,0x0B
11.086923000000001,,0x02,0x00
11.089900000000000,,0x20,0x00
11.092877000000000,,0x8E,0x00
11.095853999999999,,0x16,0x4F
11.098830000000000,,0x1B,0x00
11.101807000000001,,0x1C,0x04
11.104784000000000,,0x81,0x00
11.107761000000000,,0x83,0xB3
11.144121999999999,,0xB0,0x0B
11.146462000000000,,0x02,0x00
11.149438999999999,,0x20,0x00
11.152416000000001,,0x06,0x00
11.155393000000000,,0x16,0x4F
11.158370000000000,,0x1B,0x00
11.161346999999999,,0x1C,0x04
11.164323000000000,,0x81,0x00
11.167299999999999,,0xFB,0xB3
11.203533999999999,,0xB0,0x0B
11.206000000000000,,0x02,0x00
11.208977000000001,,0x20,0x00
11.211954000000000,,0x8E,0x00
11.214931000000000,,0x16,0x4F
11.217908000000000,,0x1B,0x00
11.220885000000001,,0x1C,0x04
11.223862000000000,,0x81,0x00
11.226839000000000,,0x83,0xB3
11.262931999999999,,0xB0,0x0B
11.265539000000000,,0x02,0x00
11.268516000000000,,0x20,0x00
11.271493000000000,,0x06,0x00
11.274470000000001,,0x16,0x4F
11.277447000000000,,0x1B,0x00
11.280424000000000,,0x1C,0x04
11.283401000000000,,0x81,0x00
11.286379000000000,,0xFB,0xB3
11.322678000000000,,0xB0,0x0B
11.325082000000000,,0x02,0x00
11.328059000000000,,0x20,0x00
11.331035999999999,,0x8E,0x00
11.334013000000001,,0x16,0x4F
11.336990000000000,,0x1B,0x00
11.339967000000000,,0x1D,0x04
11.342943000000000,,0x81,0x00
11.345921000000001,,0x84,0xB3
11.382075000000000,,0xB0,0x0B
11.384622000000000,,0x02,0x00
11.387599000000000,,0x20,0x00
11.390575999999999,,0x06,0x00
11.393553000000001,,0x16,0x4F
11.396530000000000,,0x1B,0x00
11.399507000000000,,0x1D,0x04
11.402483999999999,,0x81,0x00
11.405461000000001,,0xFC,0xB3
11.442057999999999,,0xB0,0x0B
11.444163000000000,,0x02,0x00
11.447139999999999,,0x20,0x00
11.450117000000001,,0x8E,0x00
11.453094000000000,,0x16,0x4F
11.456071000000000,,0x1B,0x00
11.459047999999999,,0x1D,0x04
11.462025000000001,,0x81,0x00
11.465002000000000,,0x84,0xB3
11.501431999999999,,0xB0,0x0B
11.503701000000000,,0x02,0x00
11.506678000000001,,0x20,0x00
11.509655000000000,,0x06,0x00
11.512632000000000,,0x16,0x4F
11.515609000000000,,0x1B,0x00
11.518586000000001,,0x1D,0x04
11.521563000000000,,0x81,0x00
11.524540000000000,,0xFC,0xB3
11.560828000000001,,0xB0,0x0B
11.563238999999999,,0x02,0x00
11.566216000000001,,0x20,0x00
11.569193000000000,,0x8E,0x00
11.572170000000000,,0x16,0x4F
11.575146999999999,,0x1B,0x00
11.578124000000001,,0x1D,0x04
11.581099999999999,,0x81,0x00
11.584077000000001,,0x84,0xB3
11.620251000000000,,0xB0,0x0B
11.622779000000000,,0x02,0x00
11.625756000000001,,0x20,0x00
11.628733000000000,,0x06,0x00
11.631710000000000,,0x16,0x4F
11.634687000000000,,0x1B,0x00
11.637663999999999,,0x1D,0x04
11.640641000000000,,0x81,0x00
11.643618000000000,,0xFC,0xB3
11.680213000000000,,0xB0,0x0B
11.682318000000000,,0x02,0x00
11.685295000000000,,0x20,0x00
11.688272000000000,,0x8E,0x00
11.691248999999999,,0x16,0x4F
11.694226000000000,,0x1B,0x00
11.697203000000000,,0x1D,0x04
11.700180000000000,,0x81,0x00
11.703156999999999,,0x84,0xB3
11.739587999999999,,0xB0,0x0B
11.741857000000000,,0x02,0x00
11.744834000000001,,0x20,0x00
11.747811000000000,,0x06,0x00
11.750788000000000,,0x16,0x4F
11.753765000000000,,0x1B,0x00
11.756741999999999,,0x1D,0x04
11.759719000000000,,0x81,0x00
11.762695000000001,,0xFC,0xB3
11.799001000000001,,0xB0,0x0B
11.801394999999999,,0x02,0x00
11.804372000000001,,0x20,0x00
11.807349000000000,,0x8E,0x00
11.810326000000000,,0x16,0x4F
11.813302999999999,,0x1B,0x00
11.816280000000001,,0x1D,0x04
11.819255999999999,,0x81,0x00
11.822233000000001,,0x84,0xB3
11.858394000000001,,0xB0,0x0B
11.860934000000000,,0x02,0x00
11.863911000000000,,0x20,0x00
11.866887999999999,,0x06,0x00
11.869865000000001,,0x16,0x4F
11.872842000000000,,0x1B,0x00
11.875819000000000,,0x1D,0x04
11.878795999999999,,0x81,0x00
11.881773000000001,,0xFC,0xB3
11.918376000000000,,0xB0,0x0B
11.920477000000000,,0x02,0x00
11.923454000000000,,0x20,0x00
11.926430999999999,,0x8E,0x00
11.929408000000000,,0x16,0x4F
11.932385000000000,,0x1B,0x00
11.935362000000000,,0x1D,0x04
11.938338999999999,,0x81,0x00
11.941316000000000,,0x84,0xB3
11.977736999999999,,0xB0,0x0B
11.980017999999999,,0x02,0x00
11.982995000000001,,0x20,0x00
11.985972000000000,,0x06,0x00
11.988949000000000,,0x16,0x4F
11.991925999999999,,0x1B,0x00
11.994903000000001,,0x1D,0x04
11.997880000000000,,0x81,0x00
12.000857000000000,,0xFC,0xB3
12.037148000000000,,0xB0,0x0B
12.039555999999999,,0x02,0x00
12.042533000000001,,0x20,0x00
12.045510999999999,,0x8E,0x00
12.048488000000001,,0x16,0x4F
12.051465000000000,,0x1B,0x00
12.054442000000000,,0x1D,0x04
12.057418999999999,,0x81,0x00
12.060396000000001,,0x84,0xB3
12.096565000000000,,0xB0,0x0B
12.099098000000000,,0x02,0x00
12.102074999999999,,0x20,0x00
12.105052000000001,,0x06,0x00
12.108029000000000,,0x16,0x4F
12.111006000000000,,0x1B,0x00
12.113982999999999,,0x1D,0x04
12.116961000000000,,0x81,0x00
12.119937999999999,,0xFC,0xB3
12.156532000000000,,0xB0,0x0B
12.158638000000000,,0x02,0x00
12.161614999999999,,0x20,0x00
12.164593000000000,,0x8E,0x00
12.167570000000000,,0x16,0x4F
12.170546999999999,,0x1B,0x00
12.173524000000000,,0x1D,0x04
12.176501000000000,,0x81,0x00
12.179478000000000,,0x84,0xB3
12.215944000000000,,0xB0,0x0B
12.218176000000000,,0x02,0x00
12.221152999999999,,0x20,0x00
12.224130000000001,,0x06,0x00
12.227107000000000,,0x16,0x4F
12.230084000000000,,0x1B,0x00
12.233060999999999,,0x1D,0x04
12.236038000000001,,0x81,0x00
12.239013999999999,,0xFC,0xB3
12.275335000000000,,0xB0,0x0B
12.277714000000000,,0x02,0x00
12.280690999999999,,0x20,0x00
12.283666999999999,,0x8E,0x00
12.286644000000001,,0x16,0x4F
12.289621000000000,,0x1B,0x00
12.292598000000000,,0x1D,0x04
12.295574999999999,,0x81,0x00
12.298552000000001,,0x84,0xB3
12.335082999999999,,0xB0,0x0B
12.337251000000000,,0x02,0x00
12.340228000000000,,0x20,0x00
12.343204999999999,,0x06,0x00
12.346182000000001,,0x16,0x4F
12.349159000000000,,0x1B,0x00
12.352136000000000,,0x1E,0x04
12.355112999999999,,0x81,0x00
12.358090000000001,,0xFD,0xB3
12.394496000000000,,0xB0,0x0B
12.396789999999999,,0x02,0x00
12.399767000000001,,0x20,0x00
12.402744000000000,,0x8E,0x00
12.405721000000000,,0x16,0x4F
12.408697999999999,,0x1B,0x00
12.411675000000001,,0x1E,0x04
12.414652000000000,,0x81,0x00
12.417629000000000,,0x85,0xB3
12.453892000000000,,0xB0,0x0B
12.456329999999999,,0x02,0x00
12.459307000000001,,0x20,0x00
12.462284000000000,,0x06,0x00
12.465261000000000,,0x16,0x4F
12.468237999999999,,0x1B,0x00
12.471215000000001,,0x1E,0x04
12.474192000000000,,0x81,0x00
12.477168000000001,,0xFD,0xB3
12.513304000000000,,0xB0,0x0B
12.515867999999999,,0x02,0x00
12.518845000000001,,0x20,0x00
12.521822000000000,,0x8E,0x00
12.524799000000000,,0x16,0x4F
12.527775999999999,,0x1B,0x00
12.530753000000001,,0x1E,0x04
12.533730000000000,,0x81,0x00
12.536707000000000,,0x85,0xB3
12.573267000000000,,0xB0,0x0B
12.575407000000000,,0x02,0x00
12.578384000000000,,0x20,0x00
12.581360999999999,,0x06,0x00
12.584339000000000,,0x16,0x4F
12.587316000000000,,0x1B,0x00
12.590292000000000,,0x1E,0x04
12.593268999999999,,0x81,0x00
12.596246000000001,,0xFD,0xB3
12.632683999999999,,0xB0,0x0B
12.634947000000000,,0x02,0x00
12.637924000000000,,0x20,0x00
12.640900999999999,,0x8E,0x00
12.643878000000001,,0x16,0x4F
12.646855000000000,,0x1B,0x00
12.649832000000000,,0x1E,0x04
12.652809000000000,,0x81,0x00
12.655786000000001,,0x85,0xB3
12.692095000000000,,0xB0,0x0B
12.694485999999999,,0x02,0x00
12.697463000000001,,0x20,0x00
12.700440000000000,,0x06,0x00
12.703417000000000,,0x16,0x4F
12.706394000000000,,0x1B,0x00
12.709371000000001,,0x1E,0x04
12.712348000000000,,0x81,0x00
12.715325000000000,,0xFD,0xB3
12.751493999999999,,0xB0,0x0B
12.754026000000000,,0x02,0x00
12.757002999999999,,0x20,0x00
12.759980000000001,,0x8E,0x00
12.762957000000000,,0x16,0x4F
12.765934000000000,,0x1B,0x00
12.768910999999999,,0x1E,0x04
12.771888000000001,,0x81,0x00
12.774865000000000,,0x85,0xB3
12.811470999999999,,0xB0,0x0B
12.813565000000001,,0x02,0x00
12.816542000000000,,0x20,0x00
12.819519000000000,,0x06,0x00
12.822495999999999,,0x16,0x4F
12.825473000000001,,0x1B,0x00
12.828450000000000,,0x1E,0x04
12.831427000000000,,0x81,0x00
12.834403999999999,,0xFD,0xB3
12.870830000000000,,0xB0,0x0B
12.873104000000000,,0x02,0x00
12.876080999999999,,0x20,0x00
12.879058000000001,,0x8E,0x00
12.882035000000000,,0x16,0x4F
12.885012000000000,,0x1B,0x00
12.887988999999999,,0x1E,0x04
12.890966000000001,,0x81,0x00
12.893943000000000,,0x85,0xB3
12.930246000000000,,0xB0,0x0B
12.932644000000000,,0x02,0x00
12.935620999999999,,0x20,0x00
12.938598000000001,,0x06,0x00
12.941575000000000,,0x16,0x4F
12.944552000000000,,0x1B,0x00
12.947528999999999,,0x1E,0x04
12.950506000000001,,0x81,0x00
12.953483000000000,,0xFD,0xB3
12.989659000000000,,0xB0,0x0B
12.992183000000001,,0x02,0x00
12.995160000000000,,0x20,0x00
12.998137000000000,,0x8E,0x00
13.001113999999999,,0x16,0x4F
13.004090000000000,,0x1B,0x00
13.007066999999999,,0x1E,0x04
13.010044000000001,,0x81,0x00
13.013021000000000,,0x85,0xB3
13.049621999999999,,0xB0,0x0B
13.051723000000001,,0x02,0x00
13.054700000000000,,0x20,0x00
13.057677999999999,,0x06,0x00
13.060655000000001,,0x16,0x4F
13.063632000000000,,0x1B,0x00
13.066609000000000,,0x1E,0x04
13.069585999999999,,0x81,0x00
13.072563000000001,,0xFD,0xB3
13.109000999999999,,0xB0,0x0B
13.111264000000000,,0x02,0x00
13.114241000000000,,0x20,0x00
13.117217999999999,,0x8E,0x00
13.120195000000001,,0x16,0x4F
13.123172000000000,,0x1B,0x00
13.126150000000001,,0x1E,0x04
13.129127000000000,,0x81,0x00
13.132104000000000,,0x85,0xB3
13.168399000000001,,0xB0,0x0B
13.170806000000001,,0x02,0x00
13.173783000000000,,0x20,0x00
13.176760000000000,,0x06,0x00
13.179736999999999,,0x16,0x4F
13.182714000000001,,0x1B,0x00
13.185691000000000,,0x1E,0x04
13.188668000000000,,0x81,0x00
13.191644999999999,,0xFD,0xB3
13.227812999999999,,0xB0,0x0B
13.230345000000000,,0x02,0x00
13.233321999999999,,0x20,0x00
13.236299000000001,,0x8E,0x00
13.239276000000000,,0x16,0x4F
13.242253000000000,,0x1B,0x00
13.245229999999999,,0x1E,0x04
13.248206000000000,,0x81,0x00
13.251182999999999,,0x85,0xB3
13.287805000000001,,0xB0,0x0B
13.289885999999999,,0x02,0x00
13.292863000000001,,0x20,0x00
13.295840000000000,,0x06,0x00
13.298817000000000,,0x16,0x4F
13.301793999999999,,0x1B,0x00
13.304771000000001,,0x1E,0x04
13.307748000000000,,0x81,0x00
13.310726000000001,,0xFD,0xB3
13.346923000000000,,0xB0,0x0B
13.349425999999999,,0x02,0x00
13.352403000000001,,0x20,0x00
13.355380000000000,,0x8E,0x00
13.358357000000000,,0x16,0x4F
13.361333999999999,,0x1B,0x00
13.364311000000001,,0x1F,0x04
13.367288000000000,,0x81,0x00
13.370265000000000,,0x86,0xB3
13.406338000000000,,0xB0,0x0B
13.408967000000001,,0x02,0x00
13.411944000000000,,0x20,0x00
13.414921000000000,,0x06,0x00
13.417897999999999,,0x16,0x4F
13.420876000000000,,0x1B,0x00
13.423852999999999,,0x1F,0x04
13.426830000000001,,0x81,0x00
13.429807000000000,,0xFE,0xB3
13.466303999999999,,0xB0,0x0B
13.468508999999999,,0x02,0x00
13.471486000000001,,0x20,0x00
13.474463000000000,,0x8E,0x00
13.477440000000000,,0x16,0x4F
13.480416999999999,,0x1B,0x00
13.483394000000001,,0x1F,0x04
13.486371000000000,,0x81,0x00
13.489348000000000,,0x86,0xB3
13.525719000000000,,0xB0,0x0B
13.528050000000000,,0x02,0x00
13.531026000000001,,0x20,0x00
13.534003999999999,,0x06,0x00
13.536981000000001,,0x16,0x4F
13.539958000000000,,0x1B,0x00
13.542935000000000,,0x1F,0x04
13.545912000000000,,0x81,0x00
13.548889000000001,,0xFE,0xB3
13.585140000000001,,0xB0,0x0B
13.587588999999999,,0x02,0x00
13.590566000000001,,0x20,0x00
13.593543000000000,,0x8E,0x00
13.596520000000000,,0x16,0x4F
13.599497000000000,,0x1B,0x00
13.602474000000001,,0x1F,0x04
13.605451000000000,,0x81,0x00
13.608428000000000,,0x86,0xB3
13.644538000000001,,0xB0,0x0B
13.647129000000000,,0x02,0x00
13.650105999999999,,0x20,0x00
13.653083000000001,,0x06,0x00
13.656060000000000,,0x16,0x4F
13.659037000000000,,0x1B,0x00
13.662013000000000,,0x1F,0x04
13.664991000000001,,0x81,0x00
13.667968000000000,,0xFE,0xB3
13.704516999999999,,0xB0,0x0B
13.706666999999999,,0x02,0x00
13.709644000000001,,0x20,0x00
13.712621000000000,,0x8E,0x00
13.715598000000000,,0x16,0x4F
13.718575000000000,,0x1B,0x00
13.721552000000001,,0x1F,0x04
13.724527999999999,,0x81,0x00
13.727505000000001,,0x86,0xB3
13.763911999999999,,0xB0,0x0B
13.766206000000000,,0x02,0x00
13.769183000000000,,0x20,0x00
13.772160000000000,,0x06,0x00
13.775137000000001,,0x16,0x4F
13.778114000000000,,0x1B,0x00
13.781091000000000,,0x1F,0x04
13.784068000000000,,0x81,0x00
13.787045000000001,,0xFE,0xB3
13.823324000000000,,0xB0,0x0B
13.825745000000000,,0x02,0x00
13.828722000000001,,0x20,0x00
13.831699000000000,,0x8E,0x00
13.834676000000000,,0x16,0x4F
13.837653000000000,,0x1B,0x00
13.840630000000001,,0x1F,0x04
13.843607000000000,,0x81,0x00
13.846584000000000,,0x86,0xB3
13.882739000000001,,0xB0,0x0B
13.885286000000001,,0x02,0x00
13.888263000000000,,0x20,0x00
13.891240000000000,,0x06,0x00
13.894216999999999,,0x16,0x4F
13.897194000000001,,0x1B,0x00
13.900169999999999,,0x1F,0x04
13.903148000000000,,0x81,0x00
13.906124999999999,,0xFE,0xB3
13.942704000000001,,0xB0,0x0B
13.944826000000001,,0x02,0x00
13.947803000000000,,0x20,0x00
13.950780000000000,,0x8E,0x00
13.953757000000000,,0x16,0x4F
13.956734000000001,,0x1B,0x00
13.959711000000000,,0x1F,0x04
13.962688000000000,,0x81,0x00
13.965665000000000,,0x86,0xB3
14.002117000000000,,0xB0,0x0B
14.004365999999999,,0x02,0x00
14.007343000000001,,0x20,0x00
14.010320000000000,,0x06,0x00
14.013297000000000,,0x16,0x4F
14.016273000000000,,0x1B,0x00
14.019250000000000,,0x1F,0x04
14.022227000000001,,0x81,0x00
14.025204000000000,,0xFE,0xB3
14.061514000000001,,0xB0,0x0B
14.063904000000001,,0x02,0x00
14.066881000000000,,0x20,0x00
14.069858000000000,,0x8E,0x00
14.072835000000000,,0x16,0x4F
14.075812000000001,,0x1B,0x00
14.078789000000000,,0x1F,0x04
14.081766000000000,,0x81,0x00
14.084743000000000,,0x86,0xB3
14.120926000000001,,0xB0,0x0B
14.123443000000000,,0x02,0x00
14.126419000000000,,0x20,0x00
14.129396000000000,,0x06,0x00
14.132372999999999,,0x16,0x4F
14.135350000000001,,0x1B,0x00
14.138327000000000,,0x1F,0x04
14.141304000000000,,0x81,0x00
14.144280999999999,,0xFE,0xB3
14.180906000000000,,0xB0,0x0B
14.182981000000000,,0x02,0x00
14.185957999999999,,0x20,0x00
14.188935000000001,,0x8E,0x00
14.191912000000000,,0x16,0x4F
14.194889000000000,,0x1B,0x00
14.197865000000000,,0x1F,0x04
14.200842000000000,,0x81,0x00
14.203818999999999,,0x86,0xB3
14.240264000000000,,0xB0,0x0B
14.242520000000001,,0x02,0x00
14.245497000000000,,0x20,0x00
14.248474000000000,,0x06,0x00
14.251450999999999,,0x16,0x4F
14.254428000000001,,0x1B,0x00
14.257405000000000,,0x1F,0x04
14.260382000000000,,0x81,0x00
14.263358999999999,,0xFE,0xB3
14.299445000000000,,0xB0,0x0B
14.302061000000000,,0x02,0x00
14.305038000000000,,0x20,0x00
14.308014999999999,,0x8E,0x00
14.310992000000001,,0x16,0x4F
14.313969000000000,,0x1B,0x00
14.316946000000000,,0x20,0x04
14.319922999999999,,0x81,0x00
14.322900000000001,,0x87,0xB3
14.359408000000000,,0xB0,0x0B
14.361599999999999,,0x02,0x00
14.364576000000000,,0x20,0x00
14.367552999999999,,0x06,0x00
14.370530000000000,,0x16,0x4F
14.373507000000000,,0x1B,0x00
14.376484000000000,,0x20,0x04
14.379460999999999,,0x81,0x00
14.382438000000000,,0xFF,0xB3
14.418823000000000,,0xB0,0x0B
14.421139000000000,,0x02,0x00
14.424116000000000,,0x20,0x00
14.427092000000000,,0x8E,0x00
14.430069000000000,,0x16,0x4F
14.433045999999999,,0x1B,0x00
14.436023000000000,,0x20,0x04
14.439000000000000,,0x81,0x00
14.441977000000000,,0x87,0xB3
14.478236000000001,,0xB0,0x0B
14.480677999999999,,0x02,0x00
14.483655000000001,,0x20,0x00
14.486632000000000,,0x06,0x00
14.489609000000000,,0x16,0x4F
14.492585999999999,,0x1B,0x00
14.495563000000001,,0x20,0x04
14.498540000000000,,0x81,0x00
14.501517000000000,,0xFF,0xB3
14.537634000000001,,0xB0,0x0B
14.540220000000000,,0x02,0x00
14.543196999999999,,0x20,0x00
14.546174000000001,,0x8E,0x00
14.549151000000000,,0x16,0x4F
14.552128000000000,,0x1B,0x00
14.555104999999999,,0x20,0x04
14.558082000000001,,0x81,0x00
14.561059000000000,,0x87,0xB3
14.597624000000000,,0xB0,0x0B
14.599761000000001,,0x02,0x00
14.602738000000000,,0x20,0x00
14.605715000000000,,0x06,0x00
14.608692000000000,,0x16,0x4F
14.611670000000000,,0x1B,0x00
14.614646000000000,,0x20,0x04
14.617623000000000,,0x81,0x00
14.620600000000000,,0xFF,0xB3
14.657019000000000,,0xB0,0x0B
14.659300000000000,,0x02,0x00
14.662277000000000,,0x20,0x00
14.665253999999999,,0x8E,0x00
14.668231000000000,,0x16,0x4F
14.671208000000000,,0x1B,0x00
14.674185000000000,,0x20,0x04
14.677163000000000,,0x81,0x00
14.680140000000000,,0x87,0xB3
14.716436000000000,,0xB0,0x0B
14.718842000000000,,0x02,0x00
14.721819000000000,,0x20,0x00
14.724796000000000,,0x06,0x00
14.727772999999999,,0x16,0x4F
14.730750000000000,,0x1B,0x00
14.733727000000000,,0x20,0x04
14.736704000000000,,0x81,0x00
14.739680999999999,,0xFF,0xB3
14.775850999999999,,0xB0,0x0B
14.778382000000001,,0x02,0x00
14.781359000000000,,0x20,0x00
14.784336000000000,,0x8E,0x00
14.787312999999999,,0x16,0x4F
14.790290000000001,,0x1B,0x00
14.793267000000000,,0x20,0x04
14.796244000000000,,0x81,0x00
14.799220999999999,,0x87,0xB3
14.835813999999999,,0xB0,0x0B
14.837920000000000,,0x02,0x00
14.840896000000001,,0x20,0x00
14.843873000000000,,0x06,0x00
14.846850000000000,,0x16,0x4F
14.849826999999999,,0x1B,0x00
14.852804000000001,,0x20,0x04
14.855781000000000,,0x81,0x00
14.858758000000000,,0xFF,0xB3
14.895185000000000,,0xB0,0x0B
14.897456999999999,,0x02,0x00
14.900434000000001,,0x20,0x00
14.903411000000000,,0x8E,0x00
14.906388000000000,,0x16,0x4F
14.909364000000000,,0x1B,0x00
14.912341000000000,,0x20,0x04
14.915317999999999,,0x81,0x00
14.918295000000001,,0x87,0xB3
14.954584000000001,,0xB0,0x0B
14.956996000000000,,0x02,0x00
14.959974000000001,,0x20,0x00
14.962951000000000,,0x06,0x00
14.965928000000000,,0x16,0x4F
14.968904999999999,,0x1B,0x00
14.971882000000001,,0x20,0x04
14.974859000000000,,0x81,0x00
14.977836000000000,,0xFF,0xB3
15.013998000000001,,0xB0,0x0B
15.016538000000001,,0x02,0x00
15.019515000000000,,0x20,0x00
15.022492000000000,,0x8E,0x00
15.025468999999999,,0x16,0x4F
15.028446000000001,,0x1B,0x00
15.031423000000000,,0x20,0x04
15.034400000000000,,0x81,0x00
15.037376999999999,,0x87,0xB3
15.073976999999999,,0xB0,0x0B
15.076078000000001,,0x02,0x00
15.079055000000000,,0x20,0x00
15.082032000000000,,0x06,0x00
15.085008999999999,,0x16,0x4F
15.087986000000001,,0x1B,0x00
15.090963000000000,,0x20,0x04
15.093940000000000,,0x81,0x00
15.096916999999999,,0xFF,0xB3
15.133335000000001,,0xB0,0x0B
15.135616000000001,,0x02,0x00
15.138593000000000,,0x20,0x00
15.141570000000000,,0x8E,0x00
15.144546999999999,,0x16,0x4F
15.147524000000001,,0x1B,0x00
15.150501000000000,,0x20,0x04
15.153478000000000,,0x81,0x00
15.156454999999999,,0x87,0xB3
15.192747000000001,,0xB0,0x0B
15.195155000000000,,0x02,0x00
15.198131000000000,,0x20,0x00
15.201108000000000,,0x06,0x00
15.204084999999999,,0x16,0x4F
15.207062000000001,,0x1B,0x00
15.210039000000000,,0x20,0x04
15.213016000000000,,0x81,0x00
15.215992999999999,,0xFF,0xB3
15.252143999999999,,0xB0,0x0B
15.254695000000000,,0x02,0x00
15.257671999999999,,0x20,0x00
15.260649000000001,,0x8E,0x00
15.263626000000000,,0x16,0x4F
15.266603000000000,,0x1B,0x00
15.269581000000001,,0x20,0x04
15.272558000000000,,0x81,0x00
15.275535000000000,,0x87,0xB3
15.311899000000000,,0xB0,0x0B
15.314235999999999,,0x02,0x00
15.317213000000001,,0x20,0x00
15.320190000000000,,0x06,0x00
15.323167000000000,,0x16,0x4F
15.326143999999999,,0x1B,0x00
15.329122000000000,,0x20,0x04
15.332098999999999,,0x81,0x00
15.335076000000001,,0xFF,0xB3
15.371311000000000,,0xB0,0x0B
15.373777000000000,,0x02,0x00
15.376754999999999,,0x20,0x00
15.379732000000001,,0x8E,0x00
15.382709000000000,,0x16,0x4F
15.385686000000000,,0x1B,0x00
15.388662999999999,,0x20,0x04
15.391640000000001,,0x81,0x00
15.394617000000000,,0x87,0xB3
15.430709999999999,,0xB0,0x0B
15.433318000000000,,0x02,0x00
15.436294999999999,,0x20,0x00
15.439271000000000,,0x06,0x00
15.442247999999999,,0x16,0x4F
15.445225000000001,,0x1B,0x00
15.448202000000000,,0x20,0x04
15.451179000000000,,0x81,0x00
15.454155999999999,,0xFF,0xB3
15.490686999999999,,0xB0,0x0B
15.492856000000000,,0x02,0x00
15.495832999999999,,0x20,0x00
15.498810000000001,,0x8E,0x00
15.501785999999999,,0x16,0x4F
15.504763000000001,,0x1B,0x00
15.507740000000000,,0x20,0x04
15.510717000000000,,0x81,0x00
15.513693999999999,,0x87,0xB3
15.550084000000000,,0xB0,0x0B
15.552396000000000,,0x02,0x00
15.555372999999999,,0x20,0x00
15.558350000000001,,0x06,0x00
15.561327000000000,,0x16,0x4F
15.564304000000000,,0x1B,0x00
15.567280999999999,,0x20,0x04
15.570258000000001,,0x81,0x00
15.573235000000000,,0xFF,0xB3
15.609505000000000,,0xB0,0x0B
15.611936999999999,,0x02,0x00
15.614914000000001,,0x20,0x00
15.617891000000000,,0x8E,0x00
15.620868000000000,,0x16,0x4F
15.623844999999999,,0x1B,0x00
15.626822000000001,,0x20,0x04
15.629799000000000,,0x81,0x00
15.632777000000001,,0x87,0xB3
15.668922000000000,,0xB0,0x0B
15.671478000000000,,0x02,0x00
15.674455000000000,,0x20,0x00
15.677432000000000,,0x06,0x00
15.680410000000000,,0x16,0x4F
15.683387000000000,,0x1B,0x00
15.686363999999999,,0x20,0x04
15.689341000000001,,0x81,0x00
15.692318000000000,,0xFF,0xB3
15.728887000000000,,0xB0,0x0B
15.731019000000000,,0x02,0x00
15.733995999999999,,0x20,0x00
15.736973000000001,,0x8E,0x00
15.739950000000000,,0x16,0x4F
15.742927000000000,,0x1B,0x00
15.745903999999999,,0x20,0x04
15.748881000000001,,0x81,0x00
15.751858000000000,,0x87,0xB3
15.788301000000001,,0xB0,0x0B
15.790561000000000,,0x02,0x00
15.793538000000000,,0x20,0x00
15.796514999999999,,0x06,0x00
15.799492000000001,,0x16,0x4F
15.802469000000000,,0x1B,0x00
15.805446000000000,,0x20,0x04
15.808424000000000,,0x81,0x00
15.811401000000000,,0xFF,0xB3
15.847701000000001,,0xB0,0x0B
15.850103000000001,,0x02,0x00
15.853080000000000,,0x20,0x00
15.856058000000001,,0x8E,0x00
15.859035000000000,,0x16,0x4F
15.862012000000000,,0x1B,0x04
15.864989000000000,,0x20,0x04
15.867965999999999,,0x81,0x00
15.870943000000000,,0x87,0xB7
15.907116000000000,,0xB0,0x0B
15.909644999999999,,0x02,0x00
15.912622000000001,,0x20,0x00
15.915599000000000,,0x06,0x00
15.918576000000000,,0x16,0x4F
15.921552000000000,,0x1B,0x04
15.924529000000000,,0x20,0x04
15.927505999999999,,0x81,0x00
15.930483000000001,,0xFF,0xB7
15.967091999999999,,0xB0,0x0B
15.969185000000000,,0x02,0x00
15.972162000000001,,0x20,0x00
15.975139000000000,,0x8E,0x00
15.978116000000000,,0x16,0x4F
15.981093000000000,,0x1B,0x04
15.984069999999999,,0x20,0x04
15.987047000000000,,0x81,0x00
15.990024000000000,,0x87,0xB7
16.026450000000001,,0xB0,0x0B
16.028722999999999,,0x02,0x00
16.031700000000001,,0x20,0x00
16.034676999999999,,0x06,0x00
16.037654000000000,,0x16,0x4F
16.040631000000001,,0x1B,0x04
16.043607999999999,,0x20,0x04
16.046585000000000,,0x81,0x00
16.049562000000002,,0xFF,0xB7
16.085861999999999,,0xB0,0x0B
16.088263000000001,,0x02,0x00
16.091239999999999,,0x20,0x00
16.094217000000000,,0x8E,0x00
16.097193999999998,,0x16,0x4F
16.100171000000000,,0x1B,0x04
16.103148000000001,,0x20,0x04
16.106124999999999,,0x81,0x00
16.109102000000000,,0x87,0xB7
16.145258999999999,,0xB0,0x0B
16.147803000000000,,0x02,0x00
16.150780000000001,,0x20,0x00
16.153756000000001,,0x06,0x00
16.156732999999999,,0x16,0x4F
16.159710000000000,,0x1B,0x04
16.162686999999998,,0x20,0x04
16.165664000000000,,0x81,0x00
16.168641000000001,,0xFF,0xB7
16.205234000000001,,0xB0,0x0B
16.207339999999999,,0x02,0x00
16.210317000000000,,0x20,0x00
16.213294000000001,,0x8E,0x00
16.216270999999999,,0x16,0x4F
16.219248000000000,,0x1B,0x04
16.222225000000002,,0x20,0x04
16.225200999999998,,0x81,0x00
16.228178000000000,,0x87,0xB7
16.264658000000001,,0xB0,0x0B
16.266878999999999,,0x02,0x00
16.269855000000000,,0x20,0x00
16.272832000000001,,0x06,0x00
16.275808999999999,,0x16,0x4F
16.278786000000000,,0x1B,0x04
16.281763000000002,,0x20,0x04
16.284739999999999,,0x81,0x00
16.287717000000001,,0xFF,0xB7
16.323806000000001,,0xB0,0x0B
16.326416999999999,,0x02,0x00
16.329394000000001,,0x20,0x00
16.332370999999998,,0x8E,0x00
16.335346999999999,,0x16,0x4F
16.338324000000000,,0x1B,0x04
16.341301000000001,,0x21,0x04
16.344277999999999,,0x81,0x00
16.347255000000001,,0x88,0xB7
16.383785000000000,,0xB0,0x0B
16.385954000000002,,0x02,0x00
16.388930999999999,,0x20,0x01
16.391908000000001,,0x06,0x00
16.394884999999999,,0x16,0x4F
16.397862000000000,,0x1B,0x04
16.400839000000001,,0x21,0x04
16.403815000000002,,0x81,0x00
16.406791999999999,,0x00,0xB8
16.443179000000001,,0xB0,0x0B
16.445492999999999,,0x02,0x00
16.448468999999999,,0x20,0x01
16.451446000000001,,0x8E,0x00
16.454422999999998,,0x16,0x4F
16.457400000000000,,0x1B,0x04
16.460377000000001,,0x21,0x04
16.463353999999999,,0x81,0x00
16.466331000000000,,0x88,0xB8
16.502592000000000,,0xB0,0x0B
16.505030999999999,,0x02,0x00
16.508008000000000,,0x20,0x01
16.510985000000002,,0x06,0x00
16.513961999999999,,0x16,0x4F
16.516939000000001,,0x1B,0x04
16.519915000000001,,0x21,0x04
16.522891999999999,,0x81,0x00
16.525869000000000,,0x00,0xB8
16.562009000000000,,0xB0,0x0B
16.564568000000001,,0x02,0x00
16.567544999999999,,0x20,0x01
16.570522000000000,,0x8E,0x00
16.573499000000002,,0x16,0x4F
16.576476000000000,,0x1B,0x04
16.579453000000001,,0x21,0x04
16.582429000000001,,0x81,0x00
16.585405999999999,,0x88,0xB8
16.621967999999999,,0xB0,0x0B
16.624105000000000,,0x02,0x00
16.627082000000001,,0x20,0x01
16.630058999999999,,0x06,0x00
16.633036000000001,,0x16,0x4F
16.636012000000001,,0x1B,0x04
16.638988999999999,,0x21,0x04
16.641966000000000,,0x81,0x00
16.644943000000001,,0x00,0xB8
16.681374999999999,,0xB0,0x0B
16.683643000000000,,0x02,0x00
16.686620000000001,,0x20,0x01
16.689596999999999,,0x8E,0x00
16.692572999999999,,0x16,0x4F
16.695550999999998,,0x1B,0x04
16.698528000000000,,0x21,0x04
16.701505000000001,,0x81,0x00
16.704481999999999,,0x88,0xB8
16.740770999999999,,0xB0,0x0B
16.743181000000000,,0x02,0x00
16.746158000000001,,0x20,0x01
16.749134999999999,,0x06,0x00
16.752112000000000,,0x16,0x4F
16.755089000000002,,0x1B,0x04
16.758064999999998,,0x21,0x04
16.761042000000000,,0x81,0x00
16.764019000000001,,0x00,0xB8
16.800180999999998,,0xB0,0x0B
16.802719000000000,,0x02,0x00
16.805696000000001,,0x20,0x01
16.808672999999999,,0x8E,0x00
16.811650000000000,,0x16,0x4F
16.814627000000002,,0x1B,0x04
16.817603999999999,,0x21,0x04
16.820580000000000,,0x81,0x00
16.823557000000001,,0x88,0xB8
16.860160000000000,,0xB0,0x0B
16.862257000000000,,0x02,0x00
16.865234000000001,,0x20,0x01
16.868210999999999,,0x06,0x00
16.871188000000000,,0x16,0x4F
16.874164000000000,,0x1B,0x04
16.877141000000002,,0x21,0x04
16.880118000000000,,0x81,0x00
16.883095000000001,,0x00,0xB8
16.919516999999999,,0xB0,0x0B
16.921793999999998,,0x02,0x00
16.924769999999999,,0x20,0x01
16.927747000000000,,0x8E,0x00
16.930724000000001,,0x16,0x4F
16.933700999999999,,0x1B,0x04
16.936678000000001,,0x21,0x04
16.939654000000001,,0x81,0x00
16.942630999999999,,0x88,0xB8
16.978929000000001,,0xB0,0x0B
16.981330000000000,,0x02,0x00
16.984307000000001,,0x20,0x01
16.987283999999999,,0x06,0x00
16.990261000000000,,0x16,0x4F
16.993238000000002,,0x1B,0x04
16.996213999999998,,0x21,0x04
16.999191000000000,,0x81,0x00
17.002168000000001,,0x00,0xB8
17.038322000000001,,0xB0,0x0B
17.040866999999999,,0x02,0x00
17.043842999999999,,0x20,0x01
17.046820000000000,,0x8E,0x00
17.049797000000002,,0x16,0x4F
17.052773999999999,,0x1B,0x04
17.055751000000001,,0x21,0x04
17.058727999999999,,0x81,0x00
17.061705000000000,,0x88,0xB8
17.098299000000001,,0xB0,0x0B
17.100404999999999,,0x02,0x00
17.103380999999999,,0x20,0x01
17.106358000000000,,0x06,0x00
17.109335000000002,,0x16,0x4F
17.112311999999999,,0x1B,0x04
17.115289000000001,,0x21,0x04
17.118265999999998,,0x81,0x00
17.121243000000000,,0x00,0xB8
17.157672999999999,,0xB0,0x0B
17.159942999999998,,0x02,0x00
17.162920000000000,,0x20,0x01
17.165897000000001,,0x8E,0x00
17.168873999999999,,0x16,0x4F
17.171849999999999,,0x1B,0x04
17.174827000000001,,0x21,0x04
17.177803999999998,,0x81,0x00
17.180781000000000,,0x88,0xB8
17.217070000000000,,0xB0,0x0B
17.219480000000001,,0x02,0x00
17.222456999999999,,0x20,0x01
17.225434000000000,,0x06,0x00
17.228411000000001,,0x16,0x4F
17.231387999999999,,0x1B,0x04
17.234365000000000,,0x21,0x04
17.237342000000002,,0x81,0x00
17.240319000000000,,0x00,0xB8
17.276819000000000,,0xB0,0x0B
17.279019000000002,,0x02,0x00
17.281995999999999,,0x20,0x01
17.284973000000001,,0x8E,0x00
17.287949999999999,,0x16,0x4F
17.290925999999999,,0x1B,0x04
17.293903000000000,,0x22,0x04
17.296880000000002,,0x81,0x00
17.299856999999999,,0x89,0xB8
17.336212000000000,,0xB0,0x0B
17.338554999999999,,0x02,0x00
17.341532000000001,,0x20,0x01
17.344508000000001,,0x06,0x00
17.347484999999999,,0x16,0x4F
17.350462000000000,,0x1B,0x04
17.353439000000002,,0x22,0x04
17.356415999999999,,0x81,0x00
17.359393000000001,,0x01,0xB8
17.395620000000001,,0xB0,0x0B
17.398092999999999,,0x02,0x00
17.401069000000000,,0x20,0x01
17.404046000000001,,0x8E,0x00
17.407022999999999,,0x16,0x4F
17.410000000000000,,0x1B,0x00
17.412977000000001,,0x22,0x04
17.415952999999998,,0x81,0x00
17.418930000000000,,0x89,0xB4
17.455031000000002,,0xB0,0x0B
17.457630999999999,,0x02,0x00
17.460607000000000,,0x20,0x01
17.463584000000001,,0x06,0x00
17.466560999999999,,0x16,0x4F
17.469538000000000,,0x1B,0x00
17.472515000000001,,0x22,0x04
17.475491999999999,,0x81,0x00
17.478469000000000,,0x01,0xB4
17.514990999999998,,0xB0,0x0B
17.517167000000001,,0x02,0x00
17.520143999999998,,0x20,0x01
17.523121000000000,,0x8E,0x00
17.526098000000001,,0x16,0x4F
17.529074999999999,,0x1B,0x00
17.532050999999999,,0x22,0x04
17.535028000000001,,0x81,0x00
17.538004999999998,,0x89,0xB4
17.574408999999999,,0xB0,0x0B
17.576705000000000,,0x02,0x00
17.579681999999998,,0x20,0x01
17.582659000000000,,0x06,0x00
17.585635000000000,,0x16,0x4F
17.588612000000001,,0x1B,0x00
17.591588999999999,,0x22,0x04
17.594566000000000,,0x81,0x00
17.597543000000002,,0x01,0xB4
17.633803000000000,,0xB0,0x0B
17.636240999999998,,0x02,0x00
17.639218000000000,,0x20,0x01
17.642195000000001,,0x8E,0x00
17.645171999999999,,0x16,0x4F
17.648147999999999,,0x1B,0x00
17.651125000000000,,0x22,0x04
17.654102000000002,,0x81,0x00
17.657079000000000,,0x89,0xB4
17.693213000000000,,0xB0,0x0B
17.695779000000002,,0x02,0x00
17.698754999999998,,0x20,0x01
17.701732000000000,,0x06,0x00
17.704709000000001,,0x16,0x4F
17.707685999999999,,0x1B,0x00
17.710663000000000,,0x22,0x04
17.713640000000002,,0x81,0x00
17.716616999999999,,0x01,0xB4
17.753188999999999,,0xB0,0x0B
17.755316000000001,,0x02,0x00
17.758292999999998,,0x20,0x01
17.761270000000000,,0x8E,0x00
17.764247000000001,,0x16,0x4F
17.767223999999999,,0x1B,0x00
17.770201000000000,,0x22,0x04
17.773178000000001,,0x81,0x00
17.776154999999999,,0x89,0xB4
17.812587000000001,,0xB0,0x0B
17.814855000000001,,0x02,0x00
17.817831999999999,,0x20,0x01
17.820809000000001,,0x06,0x00
17.823785999999998,,0x16,0x4F
17.826763000000000,,0x1B,0x00
17.829740000000001,,0x22,0x04
17.832716999999999,,0x81,0x00
17.835694000000000,,0x01,0xB4
17.872000000000000,,0xB0,0x0B
17.874395000000000,,0x02,0x00
17.877372000000001,,0x20,0x01
17.880348999999999,,0x8E,0x00
17.883326000000000,,0x16,0x4F
17.886303000000002,,0x1B,0x00
17.889279999999999,,0x22,0x04
17.892258000000002,,0x81,0x00
17.895235000000000,,0x89,0xB4
17.931398999999999,,0xB0,0x0B
17.933935999999999,,0x02,0x00
17.936913000000001,,0x20,0x01
17.939889999999998,,0x06,0x00
17.942867000000000,,0x16,0x4F
17.945844000000001,,0x1B,0x00
17.948820999999999,,0x22,0x04
17.951798000000000,,0x81,0x00
17.954775000000001,,0x01,0xB4
17.991381000000001,,0xB0,0x0B
17.993478000000000,,0x02,0x00
17.996455000000001,,0x20,0x01
17.999431999999999,,0x8E,0x00
18.002409000000000,,0x16,0x4F
18.005386000000001,,0x1B,0x00
18.008362999999999,,0x22,0x04
18.011341000000002,,0x81,0x00
18.014316999999998,,0x89,0xB4
18.050754999999999,,0xB0,0x0B
18.053018000000002,,0x02,0x00
18.055994999999999,,0x20,0x01
18.058971000000000,,0x06,0x00
18.061948000000001,,0x16,0x4F
18.064924999999999,,0x1B,0x00
18.067902000000000,,0x22,0x04
18.070879000000001,,0x81,0x00
18.073855999999999,,0x01,0xB4
18.110147999999999,,0xB0,0x0B
18.112555000000000,,0x02,0x00
18.115532000000002,,0x20,0x01
18.118509000000000,,0x8E,0x00
18.121486000000001,,0x16,0x4F
18.124462999999999,,0x1B,0x00
18.127440000000000,,0x22,0x04
18.130417000000001,,0x81,0x00
18.133393999999999,,0x89,0xB4
18.169561999999999,,0xB0,0x0B
18.172096000000000,,0x02,0x00
18.175072000000000,,0x20,0x01
18.178049000000001,,0x06,0x00
18.181025999999999,,0x16,0x4F
18.184003000000001,,0x1B,0x00
18.186979999999998,,0x22,0x04
18.189958000000001,,0x81,0x00
18.192934000000001,,0x01,0xB4
18.229524999999999,,0xB0,0x0B
18.231636000000002,,0x02,0x00
18.234613000000000,,0x20,0x01
18.237590000000001,,0x8E,0x00
18.240566999999999,,0x16,0x4F
18.243544000000000,,0x1B,0x00
18.246521000000001,,0x22,0x04
18.249497999999999,,0x81,0x00
18.252475000000000,,0x89,0xB4
18.288709999999998,,0xB0,0x0B
18.291176000000000,,0x02,0x00
18.294153000000001,,0x20,0x01
18.297129999999999,,0x06,0x00
18.300107000000001,,0x16,0x4F
18.303083999999998,,0x1B,0x00
18.306061000000000,,0x23,0x04
18.309038000000001,,0x81,0x00
18.312014999999999,,0x02,0xB4
18.348117999999999,,0xB0,0x0B
18.350714000000000,,0x02,0x00
18.353691000000001,,0x20,0x01
18.356667999999999,,0x8E,0x00
18.359645000000000,,0x16,0x4F
18.362622000000002,,0x1B,0x00
18.365599000000000,,0x23,0x04
18.368576000000001,,0x81,0x00
18.371552999999999,,0x8A,0xB4
18.408083999999999,,0xB0,0x0B
18.410253999999998,,0x02,0x00
18.413231000000000,,0x20,0x01
18.416208000000001,,0x06,0x00
18.419184999999999,,0x16,0x4F
18.422162000000000,,0x1B,0x00
18.425139000000001,,0x23,0x04
18.428115999999999,,0x81,0x00
18.431093000000001,,0x02,0xB4
18.467496000000001,,0xB0,0x0B
18.469792999999999,,0x02,0x00
18.472770000000001,,0x20,0x01
18.475746999999998,,0x8E,0x00
18.478724000000000,,0x16,0x4F
18.481701000000001,,0x1B,0x00
18.484677999999999,,0x23,0x04
18.487655000000000,,0x81,0x00
18.490632000000002,,0x8A,0xB4
18.526896000000001,,0xB0,0x0B
18.529333000000001,,0x02,0x00
18.532309999999999,,0x20,0x01
18.535287000000000,,0x06,0x00
18.538264999999999,,0x16,0x4F
18.541242000000000,,0x1B,0x00
18.544218999999998,,0x23,0x04
18.547196000000000,,0x81,0x00
18.550173000000001,,0x02,0xB4
18.586316000000000,,0xB0,0x0B
18.588875000000002,,0x02,0x00
18.591851999999999,,0x20,0x01
18.594829000000001,,0x8E,0x00
18.597805999999999,,0x16,0x4F
18.600784000000001,,0x1B,0x00
18.603760999999999,,0x23,0x04
18.606738000000000,,0x81,0x00
18.609715000000001,,0x8A,0xB4
18.646298999999999,,0xB0,0x0B
18.648417999999999,,0x02,0x00
18.651395000000001,,0x20,0x01
18.654371999999999,,0x06,0x00
18.657349000000000,,0x16,0x4F
18.660325000000000,,0x1B,0x00
18.663302000000002,,0x23,0x04
18.666280000000000,,0x81,0x00
18.669257000000002,,0x02,0xB4
18.705696000000000,,0xB0,0x0B
18.707957000000000,,0x02,0x00
18.710934000000002,,0x20,0x01
18.713911000000000,,0x8E,0x00
18.716888000000001,,0x16,0x4F
18.719864999999999,,0x1B,0x00
18.722842000000000,,0x23,0x04
18.725818000000000,,0x81,0x00
18.728795000000002,,0x8A,0xB4
18.765107000000000,,0xB0,0x0B
18.767496000000001,,0x02,0x00
18.770472999999999,,0x20,0x01
18.773450000000000,,0x06,0x00
18.776427000000002,,0x16,0x4F
18.779404000000000,,0x1B,0x00
18.782381000000001,,0x23,0x04
18.785357999999999,,0x81,0x00
18.788333999999999,,0x02,0xB4
18.824503000000000,,0xB0,0x0B
18.827034999999999,,0x02,0x00
18.830010999999999,,0x20,0x01
18.832988000000000,,0x8E,0x00
18.835965000000002,,0x16,0x4F
18.838941999999999,,0x1B,0x00
18.841919000000001,,0x23,0x04
18.844895999999999,,0x81,0x00
18.847873000000000,,0x8A,0xB4
18.884481999999998,,0xB0,0x0B
18.886575000000001,,0x02,0x00
18.889551999999998,,0x20,0x01
18.892529000000000,,0x06,0x00
18.895506000000001,,0x16,0x4F
18.898482999999999,,0x1B,0x00
18.901460000000000,,0x23,0x04
18.904437000000001,,0x81,0x00
18.907413999999999,,0x02,0xB4
18.943856000000000,,0xB0,0x0B
18.946114999999999,,0x02,0x00
18.949092000000000,,0x20,0x01
18.952069000000002,,0x8E,0x00
18.955044999999998,,0x16,0x4F
18.958022000000000,,0x1B,0x00
18.960999000000001,,0x23,0x04
18.963975999999999,,0x81,0x00
18.966953000000000,,0x8A,0xB4
19.003250999999999,,0xB0,0x0B
19.005652000000001,,0x02,0x00
19.008628999999999,,0x20,0x01
19.011606000000000,,0x06,0x00
19.014582999999998,,0x16,0x4F
19.017560000000000,,0x1B,0x00
19.020537000000001,,0x23,0x04
19.023513999999999,,0x81,0x00
19.026489999999999,,0x02,0xB4
19.062663000000001,,0xB0,0x0B
19.065190999999999,,0x02,0x00
19.068168000000000,,0x20,0x01
19.071145000000001,,0x8E,0x00
19.074121999999999,,0x16,0x4F
19.077099000000000,,0x1B,0x00
19.080075999999998,,0x23,0x04
19.083053000000000,,0x81,0x00
19.086030000000001,,0x8A,0xB4
19.122627999999999,,0xB0,0x0B
19.124732999999999,,0x02,0x00
19.127710000000000,,0x20,0x01
19.130687000000002,,0x06,0x00
19.133664000000000,,0x16,0x4F
19.136641000000001,,0x1B,0x00
19.139617999999999,,0x23,0x04
19.142595000000000,,0x81,0x00
19.145572000000001,,0x02,0xB4
19.181999999999999,,0xB0,0x0B
19.184270999999999,,0x02,0x00
19.187246999999999,,0x20,0x01
19.190224000000001,,0x8E,0x00
19.193200999999998,,0x16,0x4F
19.196178000000000,,0x1B,0x00
19.199155000000001,,0x23,0x04
19.202131999999999,,0x81,0x00
19.205109000000000,,0x8A,0xB4
19.241426000000001,,0xB0,0x0B
19.243808999999999,,0x02,0x00
19.246786000000000,,0x20,0x01
19.249763000000002,,0x06,0x00
19.252738999999998,,0x16,0x4F
19.255716000000000,,0x1B,0x00
19.258693000000001,,0x23,0x04
19.261669999999999,,0x81,0x00
19.264647000000000,,0x02,0xB4
19.301143000000000,,0xB0,0x0B
19.303348000000000,,0x02,0x00
19.306325000000001,,0x20,0x01
19.309301999999999,,0x8E,0x00
19.312279000000000,,0x16,0x4F
19.315255000000001,,0x1B,0x00
19.318231999999998,,0x24,0x04
19.321209000000000,,0x81,0x00
19.324186000000001,,0x8B,0xB4
19.360557000000000,,0xB0,0x0B
19.362887000000001,,0x02,0x00
19.365863000000001,,0x20,0x01
19.368839999999999,,0x06,0x00
19.371817000000000,,0x16,0x4F
19.374794000000001,,0x1B,0x00
19.377770999999999,,0x24,0x04
19.380748000000001,,0x81,0x00
19.383724999999998,,0x03,0xB4
19.419954000000001,,0xB0,0x0B
19.422426999999999,,0x02,0x00
19.425405000000001,,0x20,0x01
19.428381999999999,,0x8E,0x00
19.431359000000000,,0x16,0x4F
19.434335999999998,,0x1B,0x00
19.437314000000001,,0x24,0x04
19.440290999999998,,0x81,0x00
19.443268000000000,,0x8B,0xB4
19.479374000000000,,0xB0,0x0B
19.481973000000000,,0x02,0x00
19.484950000000001,,0x20,0x01
19.487926999999999,,0x06,0x00
19.490904000000000,,0x16,0x4F
19.493881999999999,,0x1B,0x00
19.496859000000001,,0x24,0x04
19.499835999999998,,0x81,0x00
19.502813000000000,,0x03,0xB4
19.539365000000000,,0xB0,0x0B
19.541516000000001,,0x02,0x00
19.544492999999999,,0x20,0x01
19.547470000000001,,0x8E,0x00
19.550446999999998,,0x16,0x4F
19.553424000000000,,0x1B,0x00
19.556401999999999,,0x24,0x04
19.559379000000000,,0x81,0x00
19.562356000000001,,0x8B,0xB4
19.598766000000001,,0xB0,0x0B
19.601058999999999,,0x02,0x00
19.604036000000001,,0x20,0x01
19.607012999999998,,0x06,0x00
19.609990000000000,,0x16,0x4F
19.612967999999999,,0x1B,0x00
19.615945000000000,,0x24,0x04
19.618922000000001,,0x81,0x00
19.621898999999999,,0x03,0xB4
19.658180999999999,,0xB0,0x0B
19.660601000000000,,0x02,0x00
19.663578000000001,,0x20,0x01
19.666554999999999,,0x8E,0x00
19.669532000000000,,0x16,0x4F
19.672509000000002,,0x1B,0x00
19.675485999999999,,0x24,0x04
19.678463000000001,,0x81,0x00
19.681439999999998,,0x8B,0xB4
19.717580000000002,,0xB0,0x0B
19.720141000000002,,0x02,0x00
19.723117999999999,,0x20,0x01
19.726095000000001,,0x06,0x00
19.729071999999999,,0x16,0x4F
19.732049000000000,,0x1B,0x00
19.735026000000001,,0x24,0x04
19.738002999999999,,0x81,0x00
19.740980000000000,,0x03,0xB4
19.777560000000001,,0xB0,0x0B
19.779682999999999,,0x02,0x00
19.782660000000000,,0x20,0x01
19.785637000000001,,0x8E,0x00
19.788613999999999,,0x16,0x4F
19.791591000000000,,0x1B,0x00
19.794568000000002,,0x24,0x04
19.797545000000000,,0x81,0x00
19.800522000000001,,0x8B,0xB4
19.836971999999999,,0xB0,0x0B
19.839220999999998,,0x02,0x00
19.842198000000000,,0x20,0x01
19.845175000000001,,0x06,0x00
19.848151999999999,,0x16,0x4F
19.851129000000000,,0x1B,0x00
19.854106000000002,,0x24,0x04
19.857082999999999,,0x81,0x00
19.860060000000001,,0x03,0xB4
19.896370000000001,,0xB0,0x0B
19.898761000000000,,0x02,0x00
19.901738000000002,,0x20,0x01
19.904714999999999,,0x8E,0x00
19.907692000000001,,0x16,0x4F
19.910668999999999,,0x1B,0x00
19.913646000000000,,0x24,0x04
19.916623999999999,,0x81,0x00
19.919599999999999,,0x8B,0xB4
19.955787000000001,,0xB0,0x0B
19.958302000000000,,0x02,0x00
19.961279000000001,,0x20,0x01
19.964255999999999,,0x06,0x00
19.967233000000000,,0x16,0x4F
19.970210000000002,,0x1B,0x00
19.973186999999999,,0x24,0x04
19.976164000000001,,0x81,0x00
19.979140999999998,,0x03,0xB4
20.015751000000002,,0xB0,0x0B
20.017845000000001,,0x02,0x00
20.020821999999999,,0x20,0x01
20.023799000000000,,0x8E,0x00
20.026776000000002,,0x16,0x4F
20.029752999999999,,0x1B,0x00
20.032730000000001,,0x24,0x04
20.035706999999999,,0x81,0x00
20.038682999999999,,0x8B,0xB4
20.075127999999999,,0xB0,0x0B
20.077383999999999,,0x02,0x00
20.080361000000000,,0x20,0x01
20.083338000000001,,0x06,0x00
20.086314999999999,,0x16,0x4F
20.089292000000000,,0x1B,0x00
20.092269999999999,,0x24,0x04
20.095247000000001,,0x81,0x00
20.098223000000001,,0x03,0xB4
20.134542000000000,,0xB0,0x0B
20.136924000000000,,0x02,0x00
20.139900999999998,,0x20,0x01
20.142878000000000,,0x8E,0x00
20.145855000000001,,0x16,0x4F
20.148831999999999,,0x1B,0x00
20.151809000000000,,0x24,0x04
20.154786000000001,,0x81,0x00
20.157762999999999,,0x8B,0xB4
20.193940999999999,,0xB0,0x0B
20.196463000000001,,0x02,0x00
20.199439999999999,,0x20,0x01
20.202418000000002,,0x06,0x00
20.205394999999999,,0x16,0x4F
20.208372000000001,,0x1B,0x00
20.211348999999998,,0x24,0x04
20.214326000000000,,0x81,0x00
20.217303000000001,,0x03,0xB4
20.253696999999999,,0xB0,0x0B
20.256004999999998,,0x02,0x00
20.258982000000000,,0x20,0x01
20.261959000000001,,0x8E,0x00
20.264935999999999,,0x16,0x4F
20.267913000000000,,0x1B,0x00
20.270890000000001,,0x25,0x04
20.273866999999999,,0x81,0x00
20.276844000000001,,0x8C,0xB4
20.313096000000002,,0xB0,0x0B
20.315546000000001,,0x02,0x00
20.318522999999999,,0x20,0x01
20.321501000000001,,0x06,0x00
20.324477999999999,,0x16,0x4F
20.327455000000000,,0x1B,0x00
20.330431999999998,,0x25,0x04
20.333409000000000,,0x81,0x00
20.336386999999998,,0x04,0xB4
20.372513999999999,,0xB0,0x0B
20.375090000000000,,0x02,0x00
20.378067000000001,,0x20,0x01
20.381043999999999,,0x8E,0x00
20.384021000000001,,0x16,0x4F
20.386998999999999,,0x1B,0x00
20.389976000000001,,0x25,0x04
20.392952999999999,,0x81,0x00
20.395930000000000,,0x8C,0xB4
20.432500999999998,,0xB0,0x0B
20.434633000000002,,0x02,0x00
20.437609999999999,,0x20,0x01
20.440587000000001,,0x06,0x00
20.443563999999999,,0x16,0x4F
20.446542000000001,,0x1B,0x00
20.449518999999999,,0x25,0x04
20.452496000000000,,0x81,0x00
20.455473000000001,,0x04,0xB4
20.491897999999999,,0xB0,0x0B
20.494174999999998,,0x02,0x00
20.497152000000000,,0x20,0x01
20.500129000000001,,0x8E,0x00
20.503105999999999,,0x16,0x4F
20.506083000000000,,0x1B,0x00
20.509060000000002,,0x25,0x04
20.512036999999999,,0x81,0x00
20.515014000000001,,0x8C,0xB4
20.551317000000001,,0xB0,0x0B
20.553715000000000,,0x02,0x00
20.556692999999999,,0x20,0x01
20.559670000000001,,0x06,0x00
20.562646999999998,,0x16,0x4F
20.565624000000000,,0x1B,0x00
20.568601000000001,,0x25,0x04
20.571577999999999,,0x81,0x00
20.574555000000000,,0x04,0xB4
20.610714999999999,,0xB0,0x0B
20.613256000000000,,0x02,0x00
20.616233000000001,,0x20,0x01
20.619211000000000,,0x8E,0x00
20.622188000000001,,0x16,0x4F
20.625164999999999,,0x1B,0x00
20.628142000000000,,0x25,0x04
20.631119000000002,,0x81,0x00
20.634096000000000,,0x8C,0xB4
20.670694000000001,,0xB0,0x0B
20.672799000000001,,0x02,0x00
20.675775999999999,,0x20,0x01
20.678753000000000,,0x06,0x00
20.681730000000002,,0x16,0x4F
20.684707000000000,,0x1B,0x00
20.687684000000001,,0x25,0x04
20.690660999999999,,0x81,0x00
20.693638000000000,,0x04,0xB4
20.730069000000000,,0xB0,0x0B
20.732339000000000,,0x02,0x00
20.735316000000001,,0x20,0x01
20.738292999999999,,0x8E,0x00
20.741270000000000,,0x16,0x4F
20.744247000000001,,0x1B,0x00
20.747223999999999,,0x25,0x04
20.750201000000001,,0x81,0x00
20.753177999999998,,0x8C,0xB4
20.789463999999999,,0xB0,0x0B
20.791876999999999,,0x02,0x00
20.794854000000001,,0x20,0x01
20.797830999999999,,0x06,0x00
20.800808000000000,,0x16,0x4F
20.803785000000001,,0x1B,0x00
20.806761999999999,,0x25,0x04
20.809739000000000,,0x81,0x00
20.812716000000002,,0x04,0xB4
20.848875000000000,,0xB0,0x0B
20.851414999999999,,0x02,0x00
20.854392000000001,,0x20,0x01
20.857368999999998,,0x8E,0x00
20.860346000000000,,0x16,0x4F
20.863323000000001,,0x1B,0x00
20.866299999999999,,0x25,0x04
20.869277000000000,,0x81,0x00
20.872254000000002,,0x8C,0xB4
20.908840999999999,,0xB0,0x0B
20.910955999999999,,0x02,0x00
20.913933000000000,,0x20,0x01
20.916910000000001,,0x06,0x00
20.919886999999999,,0x16,0x4F
20.922864000000001,,0x1B,0x00
20.925840999999998,,0x25,0x04
20.928818000000000,,0x81,0x00
20.931795000000001,,0x04,0xB4
20.968254999999999,,0xB0,0x0B
20.970496000000001,,0x02,0x00
20.973472999999998,,0x20,0x01
20.976450000000000,,0x8E,0x00
20.979427000000001,,0x16,0x4F
20.982403999999999,,0x1B,0x00
20.985381000000000,,0x25,0x04
20.988358000000002,,0x81,0x00
20.991334999999999,,0x8C,0xB4
21.027671000000002,,0xB0,0x0B
21.030038000000001,,0x02,0x00
21.033014999999999,,0x20,0x01
21.035992000000000,,0x06,0x00
21.038968000000001,,0x16,0x4F
21.041944999999998,,0x1B,0x00
21.044922000000000,,0x25,0x04
21.047899000000001,,0x81,0x00
21.050875999999999,,0x04,0xB4
21.087067000000001,,0xB0,0x0B
21.089577999999999,,0x02,0x00
21.092554000000000,,0x20,0x01
21.095531000000001,,0x8E,0x00
21.098507999999999,,0x16,0x4F
21.101486000000001,,0x1B,0x00
21.104462000000002,,0x25,0x04
21.107438999999999,,0x81,0x00
21.110417000000002,,0x8C,0xB4
21.146478999999999,,0xB0,0x0B
21.149118000000001,,0x02,0x00
21.152094999999999,,0x20,0x01
21.155072000000001,,0x06,0x00
21.158048999999998,,0x16,0x4F
21.161026000000000,,0x1B,0x00
21.164003000000001,,0x25,0x04
21.166979999999999,,0x81,0x00
21.169957000000000,,0x04,0xB4
21.206441999999999,,0xB0,0x0B
21.208656999999999,,0x02,0x00
21.211634000000000,,0x20,0x01
21.214611000000001,,0x8E,0x00
21.217587999999999,,0x16,0x4F
21.220565000000001,,0x1B,0x00
21.223541999999998,,0x25,0x04
21.226519000000000,,0x81,0x00
21.229496000000001,,0x8C,0xB4
21.265622000000000,,0xB0,0x0B
21.268197000000001,,0x02,0x00
21.271173999999998,,0x20,0x01
21.274151000000000,,0x06,0x00
21.277128000000001,,0x16,0x4F
21.280104000000001,,0x1B,0x00
21.283080999999999,,0x26,0x04
21.286058000000001,,0x81,0x00
21.289034999999998,,0x05,0xB4
21.325600999999999,,0xB0,0x0B
21.327735000000001,,0x02,0x00
21.330711999999998,,0x20,0x01
21.333689000000000,,0x8E,0x00
21.336666000000001,,0x16,0x4F
21.339642999999999,,0x1B,0x00
21.342620000000000,,0x26,0x04
21.345597000000001,,0x81,0x00
21.348573999999999,,0x8D,0xB4
21.384999000000001,,0xB0,0x0B
21.387274999999999,,0x02,0x00
21.390252000000000,,0x20,0x01
21.393229000000002,,0x06,0x00
21.396205999999999,,0x16,0x4F
21.399183000000001,,0x1B,0x00
21.402159999999999,,0x26,0x04
21.405137000000000,,0x81,0x00
21.408114000000001,,0x05,0xB4
21.444412000000000,,0xB0,0x0B
21.446815999999998,,0x02,0x00
21.449793000000000,,0x20,0x01
21.452770999999998,,0x8E,0x00
21.455748000000000,,0x16,0x4F
21.458725000000001,,0x1B,0x00
21.461701999999999,,0x26,0x04
21.464679000000000,,0x81,0x00
21.467656000000002,,0x8D,0xB4
21.503812000000000,,0xB0,0x0B
21.506359000000000,,0x02,0x00
21.509336000000001,,0x20,0x01
21.512312999999999,,0x06,0x00
21.515290000000000,,0x16,0x4F
21.518267000000002,,0x1B,0x00
21.521245000000000,,0x26,0x04
21.524222000000002,,0x81,0x00
21.527199000000000,,0x05,0xB4
21.563798999999999,,0xB0,0x0B
21.565905000000001,,0x02,0x00
21.568881999999999,,0x20,0x01
21.571859000000000,,0x8E,0x00
21.574836000000001,,0x16,0x4F
21.577812999999999,,0x1B,0x00
21.580790000000000,,0x26,0x04
21.583767000000002,,0x81,0x00
21.586745000000001,,0x8D,0xB4
21.623179000000000,,0xB0,0x0B
21.625447999999999,,0x02,0x00
21.628426000000001,,0x20,0x01
21.631402999999999,,0x06,0x00
21.634380000000000,,0x16,0x4F
21.637357000000002,,0x1B,0x00
21.640333999999999,,0x26,0x04
21.643311000000001,,0x81,0x00
21.646287999999998,,0x05,0xB4
21.682580000000002,,0xB0,0x0B
21.684991000000000,,0x02,0x00
21.687968000000001,,0x20,0x01
21.690944999999999,,0x8E,0x00
21.693922000000001,,0x16,0x4F
21.696898999999998,,0x1B,0x00
21.699876000000000,,0x26,0x04
21.702853000000001,,0x81,0x00
21.705829999999999,,0x8D,0xB4
21.741994999999999,,0xB0,0x0B
21.744533000000001,,0x02,0x00
21.747509999999998,,0x20,0x01
21.750487000000000,,0x06,0x00
21.753464000000001,,0x16,0x4F
21.756440999999999,,0x1B,0x00
21.759418000000000,,0x26,0x04
21.762395000000001,,0x81,0x00
21.765371999999999,,0x05,0xB4
21.801959000000000,,0xB0,0x0B
21.804074000000000,,0x02,0x00
21.807051000000001,,0x20,0x01
21.810027999999999,,0x8E,0x00
21.813006000000001,,0x16,0x4F
21.815982999999999,,0x1B,0x00
21.818960000000001,,0x26,0x04
21.821936999999998,,0x81,0x00
21.824914000000000,,0x8D,0xB4
21.861371999999999,,0xB0,0x0B
21.863614999999999,,0x02,0x00
21.866593000000002,,0x20,0x01
21.869570000000000,,0x06,0x00
21.872547000000001,,0x16,0x4F
21.875523999999999,,0x1B,0x00
21.878501000000000,,0x26,0x04
21.881478000000001,,0x81,0x00
21.884454999999999,,0x05,0xB4
21.920788999999999,,0xB0,0x0B
21.923158000000001,,0x02,0x00
21.926134999999999,,0x20,0x01
21.929112000000000,,0x8E,0x00
21.932089000000001,,0x16,0x4F
21.935065999999999,,0x1B,0x00
21.938044000000001,,0x26,0x04
21.941020999999999,,0x81,0x00
21.943998000000001,,0x8D,0xB4
21.980191000000001,,0xB0,0x0B
21.982700999999999,,0x02,0x00
21.985678000000000,,0x20,0x01
21.988655000000001,,0x06,0x00
21.991631999999999,,0x16,0x4F
21.994609000000001,,0x1B,0x00
21.997585999999998,,0x26,0x04
22.000563000000000,,0x81,0x00
22.003540000000001,,0x05,0xB4
22.039605000000002,,0xB0,0x0B
22.042242000000002,,0x02,0x00
22.045218999999999,,0x20,0x01
22.048196000000001,,0x8E,0x00
22.051172999999999,,0x16,0x4F
22.054150000000000,,0x1B,0x00
22.057127000000001,,0x26,0x04
22.060103999999999,,0x81,0x00
22.063081000000000,,0x8D,0xB4
22.099571000000001,,0xB0,0x0B
22.101783000000001,,0x02,0x00
22.104759999999999,,0x20,0x01
22.107737000000000,,0x06,0x00
22.110714000000002,,0x16,0x4F
22.113690999999999,,0x1B,0x00
22.116668000000001,,0x26,0x04
22.119644999999998,,0x81,0x00
22.122622000000000,,0x05,0xB4
22.158985000000001,,0xB0,0x0B
22.161324000000000,,0x02,0x00
22.164300999999998,,0x20,0x01
22.167278000000000,,0x8E,0x00
22.170255000000001,,0x16,0x4F
22.173231999999999,,0x1B,0x00
22.176209000000000,,0x26,0x04
22.179186000000001,,0x81,0x00
22.182162999999999,,0x8D,0xB4
22.218408000000000,,0xB0,0x0B
22.220863999999999,,0x02,0x00
22.223841000000000,,0x20,0x01
22.226818000000002,,0x06,0x00
22.229794999999999,,0x16,0x4F
22.232772000000001,,0x1B,0x00
22.235748999999998,,0x26,0x04
22.238726000000000,,0x81,0x00
22.241703000000001,,0x05,0xB4
22.278130999999998,,0xB0,0x0B
22.280404999999998,,0x02,0x00
22.283382000000000,,0x20,0x01
22.286359000000001,,0x8E,0x00
22.289335000000001,,0x16,0x4F
22.292311999999999,,0x1B,0x00
22.295289000000000,,0x27,0x04
22.298266000000002,,0x81,0x00
22.301244000000001,,0x8E,0xB4
22.337544000000001,,0xB0,0x0B
22.339943999999999,,0x02,0x00
22.342921000000000,,0x20,0x01
22.345897999999998,,0x06,0x00
22.348876000000001,,0x16,0x4F
22.351852999999998,,0x1B,0x00
22.354828999999999,,0x27,0x04
22.357806000000000,,0x81,0x00
22.360783000000001,,0x06,0xB4
22.396941999999999,,0xB0,0x0B
22.399484000000001,,0x02,0x00
22.402460999999999,,0x20,0x01
22.405436999999999,,0x8E,0x00
22.408414000000000,,0x16,0x4F
22.411390999999998,,0x1B,0x00
22.414368000000000,,0x27,0x04
22.417345000000001,,0x81,0x00
22.420321999999999,,0x8E,0xB4
22.456918999999999,,0xB0,0x0B
22.459021000000000,,0x02,0x00
22.461998000000001,,0x20,0x01
22.464974999999999,,0x06,0x00
22.467952000000000,,0x16,0x4F
22.470929000000002,,0x1B,0x00
22.473905999999999,,0x27,0x04
22.476883000000001,,0x81,0x00
22.479859999999999,,0x06,0xB4
22.516304000000002,,0xB0,0x0B
22.518561999999999,,0x02,0x00
22.521539000000001,,0x20,0x01
22.524515999999998,,0x8E,0x00
22.527493000000000,,0x16,0x4F
22.530470000000001,,0x1B,0x00
22.533446999999999,,0x27,0x04
22.536424000000000,,0x81,0x00
22.539401000000002,,0x8E,0xB4
22.575703000000001,,0xB0,0x0B
22.578102999999999,,0x02,0x00
22.581080000000000,,0x20,0x01
22.584057000000001,,0x06,0x00
22.587033999999999,,0x16,0x4F
22.590011000000001,,0x1B,0x00
22.592987000000001,,0x27,0x04
22.595963999999999,,0x81,0x00
22.598941000000000,,0x06,0xB4
22.635114999999999,,0xB0,0x0B
22.637642000000000,,0x02,0x00
22.640619999999998,,0x20,0x01
22.643597000000000,,0x8E,0x00
22.646574000000001,,0x16,0x4F
22.649550999999999,,0x1B,0x00
22.652528000000000,,0x27,0x04
22.655505000000002,,0x81,0x00
22.658481999999999,,0x8E,0xB4
22.695081999999999,,0xB0,0x0B
22.697182999999999,,0x02,0x00
22.700160000000000,,0x20,0x01
22.703137000000002,,0x06,0x00
22.706113999999999,,0x16,0x4F
22.709091000000001,,0x1B,0x00
22.712067999999999,,0x27,0x04
22.715043999999999,,0x81,0x00
22.718021000000000,,0x06,0xB4
22.754456999999999,,0xB0,0x0B
22.756720000000001,,0x02,0x00
22.759696999999999,,0x20,0x01
22.762674000000001,,0x8E,0x00
22.765650999999998,,0x16,0x4F
22.768628000000000,,0x1B,0x00
22.771605000000001,,0x27,0x04
22.774581999999999,,0x81,0x00
22.777559000000000,,0x8E,0xB4
22.813867999999999,,0xB0,0x0B
22.816258000000001,,0x02,0x00
22.819234999999999,,0x20,0x01
22.822212000000000,,0x06,0x00
22.825189000000002,,0x16,0x4F
22.828166000000000,,0x1B,0x00
22.831143000000001,,0x27,0x04
22.834119999999999,,0x81,0x00
22.837095999999999,,0x06,0xB4
22.873262000000000,,0xB0,0x0B
22.875793999999999,,0x02,0x00
22.878771000000000,,0x20,0x01
22.881748000000002,,0x8E,0x00
22.884725000000000,,0x16,0x4F
22.887702000000001,,0x1B,0x00
22.890678000000001,,0x27,0x04
22.893654999999999,,0x81,0x00
22.896632000000000,,0x8E,0xB4
22.933236000000001,,0xB0,0x0B
22.935328999999999,,0x02,0x00
22.938306000000001,,0x20,0x01
22.941282999999999,,0x06,0x00
22.944260000000000,,0x16,0x4F
22.947236000000000,,0x1B,0x00
22.950213000000002,,0x27,0x04
22.953189999999999,,0x81,0x00
22.956167000000001,,0x06,0xB4
22.992591999999998,,0xB0,0x0B
22.994865999999998,,0x02,0x00
22.997843000000000,,0x20,0x01
23.000820999999998,,0x8E,0x00
23.003798000000000,,0x16,0x4F
23.006774000000000,,0x1B,0x02
23.009751000000001,,0x27,0x44
23.012727999999999,,0x81,0x43
23.015705000000001,,0x8E,0x39
23.051856999999998,,0xB0,0x0B
23.054404999999999,,0x02,0x00
23.057382000000000,,0x20,0x01
23.060358999999998,,0x06,0x00
23.063336000000000,,0x16,0x4F
23.066313000000001,,0x1B,0x02
23.069289999999999,,0x27,0x44
23.072267000000000,,0x81,0x43
23.075243000000000,,0x06,0x39
23.111602000000001,,0xB0,0x0B
23.113942999999999,,0x02,0x00
23.116918999999999,,0x20,0x01
23.119896000000001,,0x8E,0x00
23.122872999999998,,0x16,0x4F
23.125850000000000,,0x1B,0x02
23.128827000000001,,0x27,0x44
23.131803999999999,,0x81,0x43
23.134781000000000,,0x8E,0x39
23.170942000000000,,0xB0,0x0B
23.173480000000001,,0x02,0x00
23.176456999999999,,0x20,0x01
23.179434000000001,,0x06,0x00
23.182410999999998,,0x16,0x4F
23.185388000000000,,0x1B,0x02
23.188365000000001,,0x27,0x44
23.191341999999999,,0x81,0x43
23.194319000000000,,0x06,0x39
23.230450999999999,,0xB0,0x0B
23.233018999999999,,0x02,0x00
23.235996000000000,,0x20,0x01
23.238973000000001,,0x8E,0x00
23.241949999999999,,0x16,0x4F
23.244927000000001,,0x1B,0x02
23.247903999999998,,0x28,0x44
23.250881000000000,,0x81,0x43
23.253858000000001,,0x8F,0x39
23.290181000000000,,0xB0,0x0B
23.292558000000000,,0x02,0x00
23.295535000000001,,0x20,0x01
23.298511999999999,,0x06,0x00
23.301489000000000,,0x16,0x4F
23.304466000000001,,0x1B,0x02
23.307442000000002,,0x28,0x44
23.310419000000000,,0x81,0x43
23.313396000000001,,0x07,0x39
23.349533000000001,,0xB0,0x0B
23.352096000000000,,0x02,0x00
23.355073000000001,,0x20,0x01
23.358049999999999,,0x8E,0x00
23.361027000000000,,0x16,0x4F
23.364003000000000,,0x1B,0x02
23.366980000000002,,0x28,0x44
23.369956999999999,,0x81,0x43
23.372934000000001,,0x8F,0x39
23.409282999999999,,0xB0,0x0B
23.411636000000001,,0x02,0x00
23.414612999999999,,0x20,0x01
23.417590000000001,,0x06,0x00
23.420566999999998,,0x16,0x4F
23.423544000000000,,0x1B,0x02
23.426521000000001,,0x28,0x44
23.429497999999999,,0x81,0x43
23.432475000000000,,0x07,0x39
23.468623999999998,,0xB0,0x0B
23.471176000000000,,0x02,0x00
23.474153000000001,,0x20,0x01
23.477129999999999,,0x8E,0x00
23.480107000000000,,0x16,0x4F
23.483084000000002,,0x1B,0x02
23.486060999999999,,0x28,0x44
23.489038000000001,,0x81,0x43
23.492014999999999,,0x8F,0x39
23.528379999999999,,0xB0,0x0B
23.530716999999999,,0x02,0x00
23.533694000000001,,0x20,0x01
23.536670999999998,,0x06,0x00
23.539648000000000,,0x16,0x4F
23.542625000000001,,0x1B,0x02
23.545601999999999,,0x28,0x44
23.548579000000000,,0x81,0x43
23.551556000000001,,0x07,0x39
23.587719000000000,,0xB0,0x0B
23.590254999999999,,0x02,0x00
23.593232000000000,,0x20,0x01
23.596209000000002,,0x8E,0x00
23.599187000000001,,0x16,0x4F
23.602163999999998,,0x1B,0x02
23.605141000000000,,0x28,0x44
23.608118000000001,,0x81,0x43
23.611094999999999,,0x8F,0x39
23.647470999999999,,0xB0,0x0B
23.649797000000000,,0x02,0x00
23.652774000000001,,0x20,0x01
23.655750999999999,,0x06,0x00
23.658728000000000,,0x16,0x4F
23.661705000000001,,0x1B,0x02
23.664681999999999,,0x28,0x44
23.667659000000000,,0x81,0x43
23.670635999999998,,0x07,0x39
23.706827000000001,,0xB0,0x0B
23.709337000000001,,0x02,0x00
23.712313999999999,,0x20,0x01
23.715290000000000,,0x8E,0x00
23.718267000000001,,0x16,0x4F
23.721245000000000,,0x1B,0x02
23.724222000000001,,0x28,0x44
23.727198999999999,,0x81,0x43
23.730176000000000,,0x8F,0x39
23.766559000000001,,0xB0,0x0B
23.768875000000001,,0x02,0x00
23.771851999999999,,0x20,0x01
23.774829000000000,,0x06,0x00
23.777806000000002,,0x16,0x4F
23.780783000000000,,0x1B,0x02
23.783760000000001,,0x28,0x44
23.786736999999999,,0x81,0x43
23.789712999999999,,0x07,0x39
23.825914000000001,,0xB0,0x0B
23.828413000000001,,0x02,0x00
23.831389999999999,,0x20,0x01
23.834367000000000,,0x8E,0x00
23.837343000000001,,0x16,0x4F
23.840319999999998,,0x1B,0x02
23.843297000000000,,0x28,0x44
23.846274000000001,,0x81,0x43
23.849250000000001,,0x8F,0x39
23.885646000000001,,0xB0,0x0B
23.887951000000001,,0x02,0x00
23.890927999999999,,0x20,0x01
23.893905000000000,,0x06,0x00
23.896882000000002,,0x16,0x4F
23.899858999999999,,0x1B,0x02
23.902836000000001,,0x28,0x44
23.905812999999998,,0x81,0x43
23.908790000000000,,0x07,0x39
23.944997000000001,,0xB0,0x0B
23.947489999999998,,0x02,0x00
23.950467000000000,,0x20,0x01
23.953444000000001,,0x8E,0x00
23.956420000000001,,0x16,0x4F
23.959398000000000,,0x1B,0x02
23.962374000000001,,0x28,0x44
23.965350999999998,,0x81,0x43
23.968328000000000,,0x8F,0x39
24.004743000000001,,0xB0,0x0B
24.007027000000001,,0x02,0x00
24.010003999999999,,0x20,0x01
24.012981000000000,,0x06,0x00
24.015958000000001,,0x16,0x4F
24.018934999999999,,0x1B,0x02
24.021910999999999,,0x28,0x44
24.024888000000001,,0x81,0x43
24.027864999999998,,0x07,0x39
24.064077000000001,,0xB0,0x0B
24.066564000000000,,0x02,0x00
24.069541000000001,,0x20,0x01
24.072517999999999,,0x8E,0x00
24.075495000000000,,0x16,0x4F
24.078471000000000,,0x1B,0x02
24.081448000000002,,0x28,0x44
24.084425000000000,,0x81,0x43
24.087402000000001,,0x8F,0x39
24.123823999999999,,0xB0,0x0B
24.126100999999998,,0x02,0x00
24.129078000000000,,0x20,0x01
24.132055000000001,,0x06,0x00
24.135031999999999,,0x16,0x4F
24.138007999999999,,0x1B,0x02
24.140985000000001,,0x28,0x44
24.143961999999998,,0x81,0x43
24.146939000000000,,0x07,0x39
24.183159000000000,,0xB0,0x0B
24.185638000000001,,0x02,0x00
24.188614999999999,,0x20,0x01
24.191592000000000,,0x8E,0x00
24.194568000000000,,0x16,0x4F
24.197545000000002,,0x1B,0x02
24.200521999999999,,0x28,0x44
24.203499000000001,,0x81,0x43
24.206475000000001,,0x8F,0x39
24.242664999999999,,0xB0,0x0B
24.245173000000001,,0x02,0x00
24.248149000000002,,0x20,0x01
24.251125999999999,,0x06,0x00
24.254103000000001,,0x16,0x4F
24.257079999999998,,0x1B,0x02
24.260057000000000,,0x29,0x44
24.263033000000000,,0x81,0x43
24.266010000000001,,0x08,0x39
24.302410999999999,,0xB0,0x0B
24.304708000000002,,0x02,0x00
24.307684999999999,,0x20,0x01
24.310662000000001,,0x8E,0x00
24.313638000000001,,0x16,0x4F
24.316614999999999,,0x1B,0x02
24.319592000000000,,0x29,0x44
24.322569000000001,,0x81,0x43
24.325545999999999,,0x90,0x39
24.361744999999999,,0xB0,0x0B
24.364243999999999,,0x02,0x00
24.367220000000000,,0x20,0x01
24.370197000000001,,0x06,0x00
24.373173999999999,,0x16,0x4F
24.376151000000000,,0x1B,0x02
24.379128000000001,,0x29,0x44
24.382104999999999,,0x81,0x43
24.385081000000000,,0x08,0x39
24.421493000000002,,0xB0,0x0B
24.423780000000001,,0x02,0x00
24.426756999999998,,0x20,0x01
24.429734000000000,,0x8E,0x00
24.432710000000000,,0x16,0x4F
24.435687000000001,,0x1B,0x02
24.438663999999999,,0x29,0x44
24.441641000000001,,0x81,0x43
24.444617999999998,,0x90,0x39
24.480827000000001,,0xB0,0x0B
24.483315999999999,,0x02,0x00
24.486293000000000,,0x20,0x01
24.489269000000000,,0x06,0x00
24.492246000000002,,0x16,0x4F
24.495222999999999,,0x1B,0x02
24.498200000000001,,0x29,0x44
24.501176999999998,,0x81,0x43
24.504152999999999,,0x08,0x39
24.540579999999999,,0xB0,0x0B
24.542850999999999,,0x02,0x00
24.545828000000000,,0x20,0x01
24.548805000000002,,0x8E,0x00
24.551781999999999,,0x16,0x4F
24.554759000000001,,0x1B,0x02
24.557735000000001,,0x29,0x44
24.560711999999999,,0x81,0x43
24.563689000000000,,0x90,0x39
24.599928999999999,,0xB0,0x0B
24.602387000000000,,0x02,0x00
24.605364000000002,,0x20,0x01
24.608340999999999,,0x06,0x00
24.611318000000001,,0x16,0x4F
24.614294000000001,,0x1B,0x02
24.617270999999999,,0x29,0x44
24.620248000000000,,0x81,0x43
24.623225000000001,,0x08,0x39
24.659658000000000,,0xB0,0x0B
24.661923999999999,,0x02,0x00
24.664899999999999,,0x20,0x01
24.667877000000001,,0x8E,0x00
24.670853999999999,,0x16,0x4F
24.673831000000000,,0x1B,0x02
24.676808000000001,,0x29,0x44
24.679784999999999,,0x81,0x43
24.682762000000000,,0x90,0x39
24.719010999999998,,0xB0,0x0B
24.721461999999999,,0x02,0x00
24.724439000000000,,0x20,0x01
24.727416000000002,,0x06,0x00
24.730391999999998,,0x16,0x4F
24.733369000000000,,0x1B,0x02
24.736346000000001,,0x29,0x44
24.739322999999999,,0x81,0x43
24.742300000000000,,0x08,0x39
24.778745000000001,,0xB0,0x0B
24.781001000000000,,0x02,0x00
24.783978000000001,,0x20,0x01
24.786954999999999,,0x8E,0x00
24.789932000000000,,0x16,0x4F
24.792909000000002,,0x1B,0x02
24.795885999999999,,0x29,0x44
24.798863000000001,,0x81,0x43
24.801839999999999,,0x90,0x39
24.838100000000001,,0xB0,0x0B
24.840541000000002,,0x02,0x00
24.843518000000000,,0x20,0x01
24.846495000000001,,0x06,0x00
24.849471999999999,,0x16,0x4F
24.852450000000001,,0x1B,0x02
24.855426999999999,,0x29,0x44
24.858404000000000,,0x81,0x43
24.861381000000002,,0x08,0x39
24.897455000000001,,0xB0,0x0B
24.900081000000000,,0x02,0x00
24.903058000000001,,0x20,0x01
24.906034999999999,,0x8E,0x00
24.909012000000001,,0x16,0x4F
24.911988999999998,,0x1B,0x02
24.914966000000000,,0x29,0x44
24.917943000000001,,0x81,0x43
24.920919000000001,,0x90,0x39
24.957189000000000,,0xB0,0x0B
24.959620000000001,,0x02,0x00
24.962596999999999,,0x20,0x01
24.965574000000000,,0x06,0x00
24.968551000000001,,0x16,0x4F
24.971527999999999,,0x1B,0x02
24.974505000000001,,0x29,0x44
24.977481999999998,,0x81,0x43
24.980459000000000,,0x08,0x39
25.016756999999998,,0xB0,0x0B
25.019162000000001,,0x02,0x00
25.022138999999999,,0x20,0x01
25.025116000000001,,0x8E,0x00
25.028092999999998,,0x16,0x4F
25.031070000000000,,0x1B,0x02
25.034047000000001,,0x29,0x44
25.037023999999999,,0x81,0x43
25.040001000000000,,0x90,0x39
25.076319999999999,,0xB0,0x0B
25.078702000000000,,0x02,0x00
25.081679000000001,,0x20,0x01
25.084655999999999,,0x06,0x00
25.087633000000000,,0x16,0x4F
25.090610000000002,,0x1B,0x02
25.093586999999999,,0x29,0x44
25.096564000000001,,0x81,0x43
25.099540999999999,,0x08,0x39
25.135894000000000,,0xB0,0x0B
25.138241000000001,,0x02,0x00
25.141217999999999,,0x20,0x01
25.144195000000000,,0x8E,0x00
25.147172000000001,,0x16,0x4F
25.150148999999999,,0x1B,0x02
25.153126000000000,,0x29,0x44
25.156103000000002,,0x81,0x43
25.159079999999999,,0x90,0x39
25.195485999999999,,0xB0,0x0B
25.197782000000000,,0x02,0x00
25.200759000000001,,0x20,0x01
25.203735999999999,,0x06,0x00
25.206713000000001,,0x16,0x4F
25.209689999999998,,0x1B,0x02
25.212667000000000,,0x29,0x44
25.215644000000001,,0x81,0x43
25.218620999999999,,0x08,0x39
25.254819000000001,,0xB0,0x0B
25.257321000000001,,0x02,0x00
25.260297999999999,,0x20,0x01
25.263275000000000,,0x8E,0x00
25.266252000000001,,0x16,0x4F
25.269228999999999,,0x1B,0x02
25.272206000000001,,0x2A,0x44
25.275182999999998,,0x81,0x43
25.278160000000000,,0x91,0x39
25.314392999999999,,0xB0,0x0B
25.316859999999998,,0x02,0x00
25.319837000000000,,0x20,0x01
25.322813000000000,,0x06,0x00
25.325790000000001,,0x16,0x4F
25.328766999999999,,0x1B,0x02
25.331744000000000,,0x2A,0x44
25.334720999999998,,0x81,0x43
25.337698000000000,,0x09,0x39
25.373949000000000,,0xB0,0x0B
25.376397000000001,,0x02,0x00
25.379373999999999,,0x20,0x01
25.382351000000000,,0x8E,0x00
25.385327000000000,,0x16,0x4F
25.388304000000002,,0x1B,0x02
25.391280999999999,,0x2A,0x44
25.394258000000001,,0x81,0x43
25.397234999999998,,0x91,0x39
25.433523999999998,,0xB0,0x0B
25.435935000000001,,0x02,0x00
25.438911999999998,,0x20,0x01
25.441889000000000,,0x06,0x00
25.444866000000001,,0x16,0x4F
25.447842000000001,,0x1B,0x02
25.450818999999999,,0x2A,0x44
25.453796000000001,,0x81,0x43
25.456772999999998,,0x09,0x39
25.493102000000000,,0xB0,0x0B
25.495471999999999,,0x02,0x00
25.498449000000001,,0x20,0x01
25.501425999999999,,0x8E,0x00
25.504403000000000,,0x16,0x4F
25.507379000000000,,0x1B,0x02
25.510356000000002,,0x2A,0x44
25.513332999999999,,0x81,0x43
25.516310000000001,,0x91,0x39
25.552659999999999,,0xB0,0x0B
25.555008999999998,,0x02,0x00
25.557986000000000,,0x20,0x01
25.560962000000000,,0x06,0x00
25.563939000000001,,0x16,0x4F
25.566915999999999,,0x1B,0x02
25.569893000000000,,0x2A,0x44
25.572870000000002,,0x81,0x43
25.575847000000000,,0x09,0x39
25.612234000000001,,0xB0,0x0B
25.614546000000001,,0x02,0x00
25.617522999999998,,0x20,0x01
25.620500000000000,,0x8E,0x00
25.623477000000001,,0x16,0x4F
25.626453000000001,,0x1B,0x02
25.629429999999999,,0x2A,0x44
25.632407000000001,,0x81,0x43
25.635383999999998,,0x91,0x39
25.671790000000001,,0xB0,0x0B
25.674084000000001,,0x02,0x00
25.677060999999998,,0x20,0x01
25.680038000000000,,0x06,0x00
25.683015000000001,,0x16,0x4F
25.685991999999999,,0x1B,0x02
25.688967999999999,,0x2A,0x44
25.691945000000000,,0x81,0x43
25.694921999999998,,0x09,0x39
25.730975000000001,,0xB0,0x0B
25.733622000000000,,0x02,0x00
25.736598999999998,,0x20,0x01
25.739576000000000,,0x8E,0x00
25.742553000000001,,0x16,0x4F
25.745529999999999,,0x1B,0x02
25.748507000000000,,0x2A,0x44
25.751483000000000,,0x81,0x43
25.754460000000002,,0x91,0x39
25.790550000000000,,0xB0,0x0B
25.793160000000000,,0x02,0x00
25.796137000000002,,0x20,0x01
25.799113999999999,,0x06,0x00
25.802090000000000,,0x16,0x4F
25.805067000000001,,0x1B,0x02
25.808043999999999,,0x2A,0x44
25.811021000000000,,0x81,0x43
25.813998000000002,,0x09,0x39
25.850107000000001,,0xB0,0x0B
25.852696999999999,,0x02,0x00
25.855674000000000,,0x20,0x01
25.858650999999998,,0x8E,0x00
25.861628000000000,,0x16,0x4F
25.864604000000000,,0x1B,0x02
25.867581000000001,,0x2A,0x44
25.870557999999999,,0x81,0x43
25.873533999999999,,0x91,0x39
25.909676999999999,,0xB0,0x0B
25.912231999999999,,0x02,0x00
25.915209000000001,,0x20,0x01
25.918185999999999,,0x06,0x00
25.921163000000000,,0x16,0x4F
25.924140000000001,,0x1B,0x02
25.927116000000002,,0x2A,0x44
25.930092999999999,,0x81,0x43
25.933070000000001,,0x09,0x39
25.969230000000000,,0xB0,0x0B
25.971768000000001,,0x02,0x00
25.974744999999999,,0x20,0x01
25.977720999999999,,0x8E,0x00
25.980698000000000,,0x16,0x4F
25.983675000000002,,0x1B,0x02
25.986651999999999,,0x2A,0x44
25.989629000000001,,0x81,0x43
25.992605000000001,,0x91,0x39
26.028801999999999,,0xB0,0x0B
26.031303999999999,,0x02,0x00
26.034281000000000,,0x20,0x01
26.037258000000001,,0x06,0x00
26.040234000000002,,0x16,0x4F
26.043210999999999,,0x1B,0x02
26.046188000000001,,0x2A,0x44
26.049164999999999,,0x81,0x43
26.052142000000000,,0x09,0x39
26.088374000000002,,0xB0,0x0B
26.090840000000000,,0x02,0x00
26.093816000000000,,0x20,0x01
26.096793000000002,,0x8E,0x00
26.099769999999999,,0x16,0x4F
26.102746000000000,,0x1B,0x02
26.105723000000001,,0x2A,0x44
26.108699999999999,,0x81,0x43
26.111675999999999,,0x91,0x39
26.147928000000000,,0xB0,0x0B
26.150373999999999,,0x02,0x00
26.153351000000001,,0x20,0x01
26.156327000000001,,0x06,0x00
26.159303999999999,,0x16,0x4F
26.162281000000000,,0x1B,0x02
26.165258000000001,,0x2A,0x44
26.168234999999999,,0x81,0x43
26.171211000000000,,0x09,0x39
26.207284000000001,,0xB0,0x0B
26.209910000000001,,0x02,0x00
26.212886999999998,,0x20,0x01
26.215864000000000,,0x8E,0x00
26.218841000000001,,0x16,0x4F
26.221817999999999,,0x1B,0x02
26.224793999999999,,0x2B,0x44
26.227771000000001,,0x81,0x43
26.230747999999998,,0x92,0x39
26.266842000000000,,0xB0,0x0B
26.269448000000001,,0x02,0x00
26.272424999999998,,0x20,0x01
26.275402000000000,,0x06,0x00
26.278379000000001,,0x16,0x4F
26.281355999999999,,0x1B,0x02
26.284333000000000,,0x2B,0x44
26.287309000000000,,0x81,0x43
26.290285999999998,,0x0A,0x39
26.326412999999999,,0xB0,0x0B
26.328986000000000,,0x02,0x00
26.331962999999998,,0x20,0x01
26.334940000000000,,0x8E,0x00
26.337917000000001,,0x16,0x4F
26.340893000000001,,0x1B,0x02
26.343869999999999,,0x2B,0x44
26.346847000000000,,0x81,0x43
26.349824000000002,,0x92,0x39
26.385985999999999,,0xB0,0x0B
26.388525999999999,,0x02,0x00
26.391501999999999,,0x20,0x01
26.394479000000000,,0x06,0x00
26.397455999999998,,0x16,0x4F
26.400433000000000,,0x1B,0x02
26.403410000000001,,0x2B,0x44
26.406386999999999,,0x81,0x43
26.409364000000000,,0x0A,0x39
26.445546000000000,,0xB0,0x0B
26.448063000000001,,0x02,0x00
26.451039999999999,,0x20,0x01
26.454017000000000,,0x8E,0x00
26.456994000000002,,0x16,0x4F
26.459969999999998,,0x1B,0x02
26.462947000000000,,0x2B,0x44
26.465924000000001,,0x81,0x43
26.468900999999999,,0x92,0x39
26.505126000000001,,0xB0,0x0B
26.507598999999999,,0x02,0x00
26.510576000000000,,0x20,0x01
26.513553000000002,,0x06,0x00
26.516528999999998,,0x16,0x4F
26.519506000000000,,0x1B,0x02
26.522483000000001,,0x2B,0x44
26.525459999999999,,0x81,0x43
26.528437000000000,,0x0A,0x39
26.564684000000000,,0xB0,0x0B
26.567136000000001,,0x02,0x00
26.570112999999999,,0x20,0x01
26.573090000000001,,0x8E,0x00
26.576066999999998,,0x16,0x4F
26.579044000000000,,0x1B,0x02
26.582021000000001,,0x2B,0x44
26.584997999999999,,0x81,0x43
26.587973999999999,,0x92,0x39
26.624257000000000,,0xB0,0x0B
26.626673000000000,,0x02,0x00
26.629650000000002,,0x20,0x01
26.632625999999998,,0x06,0x00
26.635603000000000,,0x16,0x4F
26.638580000000001,,0x1B,0x02
26.641556999999999,,0x2B,0x44
26.644534000000000,,0x81,0x43
26.647511000000002,,0x0A,0x39
26.683827999999998,,0xB0,0x0B
26.686209000000002,,0x02,0x00
26.689185999999999,,0x20,0x01
26.692162000000000,,0x8E,0x00
26.695139000000001,,0x16,0x4F
26.698115999999999,,0x1B,0x02
26.701093000000000,,0x2B,0x44
26.704070000000002,,0x81,0x43
26.707045999999998,,0x92,0x39
26.743383999999999,,0xB0,0x0B
26.745744999999999,,0x02,0x00
26.748722000000001,,0x20,0x01
26.751698000000001,,0x06,0x00
26.754674999999999,,0x16,0x4F
26.757652000000000,,0x1B,0x02
26.760629000000002,,0x2B,0x44
26.763605999999999,,0x81,0x43
26.766583000000001,,0x0A,0x39
26.802955000000001,,0xB0,0x0B
26.805281000000001,,0x02,0x00
26.808257999999999,,0x20,0x01
26.811235000000000,,0x8E,0x00
26.814212000000001,,0x16,0x4F
26.817188999999999,,0x1B,0x02
26.820166000000000,,0x2B,0x44
26.823143000000002,,0x81,0x43
26.826120000000000,,0x92,0x39
26.862517000000000,,0xB0,0x0B
26.864820000000002,,0x02,0x00
26.867796999999999,,0x20,0x01
26.870774000000001,,0x06,0x00
26.873750999999999,,0x16,0x4F
26.876728000000000,,0x1B,0x02
26.879705000000001,,0x2B,0x44
26.882681000000002,,0x81,0x43
26.885657999999999,,0x0A,0x39
26.922090000000001,,0xB0,0x0B
26.924357000000001,,0x02,0x00
26.927333999999998,,0x20,0x01
26.930309999999999,,0x8E,0x00
26.933287000000000,,0x16,0x4F
26.936264000000001,,0x1B,0x02
26.939240999999999,,0x2B,0x44
26.942218000000000,,0x81,0x43
26.945194999999998,,0x92,0x39
26.981272000000001,,0xB0,0x0B
26.983892999999998,,0x02,0x00
26.986868999999999,,0x20,0x01
26.989846000000000,,0x06,0x00
26.992823000000001,,0x16,0x4F
26.995799999999999,,0x1B,0x02
26.998775999999999,,0x2B,0x44
27.001753000000001,,0x81,0x43
27.004729000000001,,0x0A,0x39
27.040828000000001,,0xB0,0x0B
27.043427000000001,,0x02,0x00
27.046403999999999,,0x20,0x01
27.049381000000000,,0x8E,0x00
27.052358000000002,,0x16,0x4F
27.055334999999999,,0x1B,0x02
27.058312000000001,,0x2B,0x44
27.061288999999999,,0x81,0x43
27.064264999999999,,0x92,0x39
27.100401000000002,,0xB0,0x0B
27.102965000000001,,0x02,0x00
27.105941999999999,,0x20,0x01
27.108917999999999,,0x06,0x00
27.111895000000001,,0x16,0x4F
27.114871999999998,,0x1B,0x02
27.117849000000000,,0x2B,0x44
27.120826000000001,,0x81,0x43
27.123802999999999,,0x0A,0x39
27.159959000000001,,0xB0,0x0B
27.162502000000000,,0x02,0x00
27.165479000000001,,0x20,0x01
27.168455999999999,,0x8E,0x00
27.171431999999999,,0x16,0x4F
27.174409000000001,,0x1B,0x02
27.177385999999998,,0x2B,0x44
27.180363000000000,,0x81,0x43
27.183340000000001,,0x92,0x39
27.219712999999999,,0xB0,0x0B
27.222041000000001,,0x02,0x00
27.225017999999999,,0x20,0x01
27.227995000000000,,0x06,0x00
27.230972000000001,,0x16,0x4F
27.233948999999999,,0x1B,0x02
27.236924999999999,,0x2C,0x44
27.239902000000001,,0x81,0x43
27.242878999999999,,0x0B,0x39
27.279287000000000,,0xB0,0x0B
27.281580000000002,,0x02,0x00
27.284557000000000,,0x20,0x01
27.287534000000001,,0x8E,0x00
27.290510999999999,,0x16,0x4F
27.293488000000000,,0x1B,0x02
27.296465000000001,,0x2C,0x44
27.299441000000002,,0x81,0x43
27.302417999999999,,0x93,0x39
27.338844999999999,,0xB0,0x0B
27.341118000000002,,0x02,0x00
27.344094999999999,,0x20,0x01
27.347072000000001,,0x06,0x00
27.350048000000001,,0x16,0x4F
27.353024999999999,,0x1B,0x02
27.356002000000000,,0x2C,0x44
27.358979000000001,,0x81,0x43
27.361955999999999,,0x0B,0x39
27.398029999999999,,0xB0,0x0B
27.400656999999999,,0x02,0x00
27.403634000000000,,0x20,0x01
27.406611000000002,,0x8E,0x00
27.409587999999999,,0x16,0x4F
27.412565000000001,,0x1B,0x02
27.415541999999999,,0x2C,0x44
27.418519000000000,,0x81,0x43
27.421496000000001,,0x93,0x39
27.457590000000000,,0xB0,0x0B
27.460197000000001,,0x02,0x00
27.463173999999999,,0x20,0x01
27.466151000000000,,0x06,0x00
27.469128000000001,,0x16,0x4F
27.472104999999999,,0x1B,0x02
27.475080999999999,,0x2C,0x44
27.478058000000001,,0x81,0x43
27.481034999999999,,0x0B,0x39
27.517170000000000,,0xB0,0x0B
27.519736000000002,,0x02,0x00
27.522713000000000,,0x20,0x01
27.525690000000001,,0x8E,0x00
27.528666999999999,,0x16,0x4F
27.531644000000000,,0x1B,0x02
27.534620000000000,,0x2C,0x44
27.537597000000002,,0x81,0x43
27.540573999999999,,0x93,0x39
27.576744999999999,,0xB0,0x0B
27.579274000000002,,0x02,0x00
27.582250999999999,,0x20,0x01
27.585228000000001,,0x06,0x00
27.588204999999999,,0x16,0x4F
27.591182000000000,,0x1B,0x02
27.594159000000001,,0x2C,0x44
27.597135999999999,,0x81,0x43
27.600113000000000,,0x0B,0x39
27.636303999999999,,0xB0,0x0B
27.638812000000001,,0x02,0x00
27.641788999999999,,0x20,0x01
27.644766000000001,,0x8E,0x00
27.647742999999998,,0x16,0x4F
27.650720000000000,,0x1B,0x02
27.653696000000000,,0x2C,0x44
27.656673000000001,,0x81,0x43
27.659649999999999,,0x93,0x39
27.695878000000000,,0xB0,0x0B
27.698349000000000,,0x02,0x00
27.701326000000002,,0x20,0x01
27.704302999999999,,0x06,0x00
27.707280000000001,,0x16,0x4F
27.710256999999999,,0x1B,0x02
27.713234000000000,,0x2C,0x44
27.716210000000000,,0x81,0x43
27.719187000000002,,0x0B,0x39
27.755434000000001,,0xB0,0x0B
27.757885999999999,,0x02,0x00
27.760863000000001,,0x20,0x01
27.763839999999998,,0x8E,0x00
27.766817000000000,,0x16,0x4F
27.769794000000001,,0x1B,0x02
27.772770000000001,,0x2C,0x44
27.775746999999999,,0x81,0x43
27.778724000000000,,0x93,0x39
27.815007000000001,,0xB0,0x0B
27.817423000000002,,0x02,0x00
27.820399999999999,,0x20,0x01
27.823377000000001,,0x06,0x00
27.826353000000001,,0x16,0x4F
27.829329999999999,,0x1B,0x02
27.832307000000000,,0x2C,0x44
27.835284000000001,,0x81,0x43
27.838260999999999,,0x0B,0x39
27.874579000000001,,0xB0,0x0B
27.876960000000000,,0x02,0x00
27.879937000000002,,0x20,0x01
27.882912999999999,,0x8E,0x00
27.885890000000000,,0x16,0x4F
27.888867000000001,,0x1B,0x02
27.891843999999999,,0x2C,0x44
27.894821000000000,,0x81,0x43
27.897797000000001,,0x93,0x39
27.934135999999999,,0xB0,0x0B
27.936496000000002,,0x02,0x00
27.939473000000000,,0x20,0x01
27.942449000000000,,0x06,0x00
27.945426000000001,,0x16,0x4F
27.948402999999999,,0x1B,0x02
27.951378999999999,,0x2C,0x44
27.954356000000001,,0x81,0x43
27.957332999999998,,0x0B,0x39
27.993704000000001,,0xB0,0x0B
27.996030000000001,,0x02,0x00
27.999006999999999,,0x20,0x01
28.001984000000000,,0x8E,0x00
28.004961000000002,,0x16,0x4F
28.007936999999998,,0x1B,0x02
28.010914000000000,,0x2C,0x44
28.013891000000001,,0x81,0x43
28.016867999999999,,0x93,0x39
28.053263000000001,,0xB0,0x0B
28.055565999999999,,0x02,0x00
28.058543000000000,,0x20,0x01
28.061520000000002,,0x06,0x00
28.064496999999999,,0x16,0x4F
28.067473000000000,,0x1B,0x02
28.070450000000001,,0x2C,0x44
28.073426999999999,,0x81,0x43
28.076404000000000,,0x0B,0x39
28.112833999999999,,0xB0,0x0B
28.115100999999999,,0x02,0x00
28.118078000000001,,0x20,0x01
28.121054999999998,,0x8E,0x00
28.124030999999999,,0x16,0x4F
28.127008000000000,,0x1B,0x02
28.129985000000001,,0x2C,0x44
28.132961999999999,,0x81,0x43
28.135939000000000,,0x93,0x39
28.172028999999998,,0xB0,0x0B
28.174637000000001,,0x02,0x00
28.177613000000001,,0x20,0x01
28.180589999999999,,0x06,0x00
28.183567000000000,,0x16,0x4F
28.186544000000001,,0x1B,0x02
28.189520999999999,,0x2C,0x44
28.192498000000001,,0x81,0x43
28.195474999999998,,0x0B,0x39
28.231746000000001,,0xB0,0x0B
28.234172999999998,,0x02,0x00
28.237148999999999,,0x20,0x01
28.240126000000000,,0x8E,0x00
28.243103000000001,,0x16,0x4F
28.246079999999999,,0x1B,0x02
28.249056000000000,,0x2D,0x44
28.252033000000001,,0x81,0x43
28.255009999999999,,0x94,0x39
28.291315999999998,,0xB0,0x0B
28.293709000000000,,0x02,0x00
28.296686000000001,,0x20,0x01
28.299662000000001,,0x06,0x00
28.302638999999999,,0x16,0x4F
28.305616000000001,,0x1B,0x02
28.308592000000001,,0x2D,0x44
28.311568999999999,,0x81,0x43
28.314546000000000,,0x0C,0x39
28.350870000000000,,0xB0,0x0B
28.353242999999999,,0x02,0x00
28.356220000000000,,0x20,0x01
28.359197000000002,,0x8E,0x00
28.362172999999999,,0x16,0x4F
28.365150000000000,,0x1B,0x02
28.368127000000001,,0x2D,0x44
28.371103999999999,,0x81,0x43
28.374079999999999,,0x94,0x39
28.410443000000001,,0xB0,0x0B
28.412777999999999,,0x02,0x00
28.415755000000001,,0x20,0x01
28.418731999999999,,0x06,0x00
28.421707999999999,,0x16,0x4F
28.424685000000000,,0x1B,0x02
28.427662000000002,,0x2D,0x44
28.430637999999998,,0x81,0x43
28.433615000000000,,0x0C,0x39
28.470018000000000,,0xB0,0x0B
28.472313000000000,,0x02,0x00
28.475290000000001,,0x20,0x01
28.478266999999999,,0x8E,0x00
28.481242999999999,,0x16,0x4F
28.484220000000001,,0x1B,0x02
28.487196999999998,,0x2D,0x44
28.490174000000000,,0x81,0x43
28.493150000000000,,0x94,0x39
28.529572000000002,,0xB0,0x0B
28.531846999999999,,0x02,0x00
28.534824000000000,,0x20,0x01
28.537801000000002,,0x06,0x00
28.540778000000000,,0x16,0x4F
28.543754000000000,,0x1B,0x02
28.546731000000001,,0x2D,0x44
28.549707000000001,,0x81,0x43
28.552683999999999,,0x0C,0x39
28.588750000000001,,0xB0,0x0B
28.591381999999999,,0x02,0x00
28.594358000000000,,0x20,0x01
28.597335000000001,,0x8E,0x00
28.600311999999999,,0x16,0x4F
28.603287999999999,,0x1B,0x02
28.606265000000000,,0x2D,0x44
28.609241999999998,,0x81,0x43
28.612217999999999,,0x94,0x39
28.648302999999999,,0xB0,0x0B
28.650915000000001,,0x02,0x00
28.653891000000002,,0x20,0x01
28.656867999999999,,0x06,0x00
28.659845000000001,,0x16,0x4F
28.662821000000001,,0x1B,0x02
28.665797999999999,,0x2D,0x44
28.668775000000000,,0x81,0x43
28.671751000000000,,0x0C,0x39
28.707874000000000,,0xB0,0x0B
28.710449000000001,,0x02,0x00
28.713425999999998,,0x20,0x01
28.716403000000000,,0x8E,0x00
28.719379000000000,,0x16,0x4F
28.722356000000001,,0x1B,0x02
28.725332999999999,,0x2D,0x44
28.728310000000000,,0x81,0x43
28.731286000000001,,0x94,0x39
28.767444999999999,,0xB0,0x0B
28.769984000000001,,0x02,0x00
28.772960999999999,,0x20,0x01
28.775938000000000,,0x06,0x00
28.778915000000001,,0x16,0x4F
28.781891999999999,,0x1B,0x02
28.784867999999999,,0x2D,0x44
28.787845000000001,,0x81,0x43
28.790821999999999,,0x0C,0x39
28.827003999999999,,0xB0,0x0B
28.829519999999999,,0x02,0x00
28.832497000000000,,0x20,0x01
28.835474000000001,,0x8E,0x00
28.838450999999999,,0x16,0x4F
28.841428000000001,,0x1B,0x02
28.844404000000001,,0x2D,0x44
28.847380999999999,,0x81,0x43
28.850358000000000,,0x94,0x39
28.886579000000001,,0xB0,0x0B
28.889057000000001,,0x02,0x00
28.892033999999999,,0x20,0x01
28.895011000000000,,0x06,0x00
28.897987000000001,,0x16,0x4F
28.900963999999998,,0x1B,0x02
28.903941000000000,,0x2D,0x44
28.906918000000001,,0x81,0x43
28.909894999999999,,0x0C,0x39
28.946135999999999,,0xB0,0x0B
28.948592999999999,,0x02,0x00
28.951570000000000,,0x20,0x01
28.954546000000001,,0x8E,0x00
28.957522999999998,,0x16,0x4F
28.960500000000000,,0x1B,0x02
28.963476000000000,,0x2D,0x44
28.966453000000001,,0x81,0x43
28.969429999999999,,0x94,0x39
29.005703000000000,,0xB0,0x0B
29.008125000000000,,0x02,0x00
29.011102000000001,,0x20,0x01
29.014078000000001,,0x06,0x00
29.017054999999999,,0x16,0x4F
29.020032000000000,,0x1B,0x02
29.023008000000001,,0x2D,0x44
29.025984999999999,,0x81,0x43
29.028960999999999,,0x0C,0x39
29.065275000000000,,0xB0,0x0B
29.067658999999999,,0x02,0x00
29.070636000000000,,0x20,0x01
29.073612000000001,,0x8E,0x00
29.076588999999998,,0x16,0x4F
29.079566000000000,,0x1B,0x02
29.082542000000000,,0x2D,0x44
29.085519000000001,,0x81,0x43
29.088495999999999,,0x94,0x39
29.124828000000001,,0xB0,0x0B
29.127193999999999,,0x02,0x00
29.130170000000000,,0x20,0x01
29.133147000000001,,0x06,0x00
29.136123999999999,,0x16,0x4F
29.139099999999999,,0x1B,0x02
29.142077000000000,,0x2D,0x44
29.145053999999998,,0x81,0x43
29.148031000000000,,0x0C,0x39
29.184189000000000,,0xB0,0x0B
29.186730000000001,,0x02,0x00
29.189706999999999,,0x20,0x01
29.192684000000000,,0x8E,0x00
29.195660000000000,,0x16,0x4F
29.198637000000002,,0x1B,0x02
29.201613999999999,,0x2E,0x44
29.204591000000001,,0x81,0x43
29.207567999999998,,0x95,0x39
29.243746999999999,,0xB0,0x0B
29.246267000000000,,0x02,0x00
29.249243000000000,,0x20,0x01
29.252220000000001,,0x06,0x00
29.255196999999999,,0x16,0x4F
29.258174000000000,,0x1B,0x02
29.261151000000002,,0x2E,0x44
29.264127999999999,,0x81,0x43
29.267105000000001,,0x0D,0x39
29.303318999999998,,0xB0,0x0B
29.305803000000001,,0x02,0x00
29.308779999999999,,0x20,0x01
29.311755999999999,,0x8E,0x00
29.314733000000000,,0x16,0x4F
29.317710000000002,,0x1B,0x02
29.320685999999998,,0x2E,0x44
29.323663000000000,,0x81,0x43
29.326640000000001,,0x95,0x39
29.362888999999999,,0xB0,0x0B
29.365335999999999,,0x02,0x00
29.368312000000000,,0x20,0x01
29.371289000000001,,0x06,0x00
29.374265999999999,,0x16,0x4F
29.377241999999999,,0x1B,0x02
29.380219000000000,,0x2E,0x44
29.383196000000002,,0x81,0x43
29.386171999999998,,0x0D,0x39
29.422442000000000,,0xB0,0x0B
29.424869000000001,,0x02,0x00
29.427845999999999,,0x20,0x01
29.430821999999999,,0x8E,0x00
29.433799000000000,,0x16,0x4F
29.436775999999998,,0x1B,0x02
29.439753000000000,,0x2E,0x44
29.442729000000000,,0x81,0x43
29.445706000000001,,0x95,0x39
29.482018000000000,,0xB0,0x0B
29.484404000000001,,0x02,0x00
29.487380000000002,,0x20,0x01
29.490356999999999,,0x06,0x00
29.493334000000001,,0x16,0x4F
29.496310999999999,,0x1B,0x02
29.499286999999999,,0x2E,0x44
29.502264000000000,,0x81,0x43
29.505241000000002,,0x0D,0x39
29.541573000000000,,0xB0,0x0B
29.543939000000002,,0x02,0x00
29.546916000000000,,0x20,0x01
29.549892000000000,,0x8E,0x00
29.552869000000001,,0x16,0x4F
29.555845999999999,,0x1B,0x02
29.558823000000000,,0x2E,0x44
29.561800000000002,,0x81,0x43
29.564775999999998,,0x95,0x39
29.601147000000001,,0xB0,0x0B
29.603473999999999,,0x02,0x00
29.606451000000000,,0x20,0x01
29.609428000000001,,0x06,0x00
29.612404000000002,,0x16,0x4F
29.615380999999999,,0x1B,0x02
29.618358000000001,,0x2E,0x44
29.621334999999998,,0x81,0x43
29.624312000000000,,0x0D,0x39
29.660717999999999,,0xB0,0x0B
29.663010000000000,,0x02,0x00
29.665987000000001,,0x20,0x01
29.668963999999999,,0x8E,0x00
29.671941000000000,,0x16,0x4F
29.674918000000002,,0x1B,0x02
29.677893999999998,,0x2E,0x44
29.680871000000000,,0x81,0x43
29.683848000000001,,0x95,0x39
29.720275000000001,,0xB0,0x0B
29.722548000000000,,0x02,0x00
29.725524000000000,,0x20,0x01
29.728501000000001,,0x06,0x00
29.731477999999999,,0x16,0x4F
29.734455000000001,,0x1B,0x02
29.737431999999998,,0x2E,0x44
29.740409000000000,,0x81,0x43
29.743385000000000,,0x0D,0x39
29.779456000000000,,0xB0,0x0B
29.782083000000000,,0x02,0x00
29.785060000000001,,0x20,0x01
29.788036999999999,,0x8E,0x00
29.791013000000000,,0x16,0x4F
