Time [s],Packet ID,MOSI,MISO
7.690547000000000,0,0xB0,0x00
7.693130000000000,,0x02,0x00
7.696107000000000,,0x20,0x00
7.699084000000000,,0x06,0x00
7.702061000000000,,0x16,0x00
7.705038000000000,,0x1B,0x00
7.708015000000000,,0x19,0x00
7.710992000000000,,0x81,0x00
7.713969000000000,,0xF8,0x00
7.750144000000000,,0xB0,0x00
7.752670000000000,,0x02,0x00
7.755647000000000,,0x20,0x00
7.758624000000000,,0x8E,0x00
7.761601000000000,,0x16,0x00
7.764578000000000,,0x1B,0x00
7.767554000000000,,0x19,0x00
7.770531000000000,,0x81,0x00
7.773508000000000,,0x80,0x00
7.809726000000000,,0xB0,0x00
7.812210000000000,,0x02,0x00
7.815187000000000,,0x20,0x00
7.818164000000000,,0x06,0x00
7.821141000000000,,0x16,0x00
7.824118000000000,,0x1B,0x00
7.827095000000000,,0x19,0x00
7.830072000000000,,0x81,0x00
7.833049000000000,,0xF8,0x00
7.869323000000000,,0xB0,0x00
7.871750000000000,,0x02,0x00
7.874727000000000,,0x20,0x00
7.877704000000000,,0x8E,0x00
7.880681000000000,,0x16,0x00
7.883658000000000,,0x1B,0x0F
7.886635000000000,,0x19,0xFB
7.889612000000000,,0x81,0x19
7.892589000000000,,0x80,0x81
7.928922000000000,,0xB0,0x80
7.931290000000000,,0x02,0x00
7.934267000000000,,0x20,0x00
7.937244000000000,,0x06,0x00
7.940221000000000,,0x16,0x00
7.943198000000000,,0x1B,0x00
7.946174000000000,,0x19,0x00
7.949151000000000,,0x81,0x00
7.952128000000000,,0xF8,0x00
7.988223000000000,,0xB0,0x0B
7.990830000000000,,0x02,0x00
7.993808000000000,,0x20,0x00
7.996785000000000,,0x8E,0x00
7.999762000000000,,0x16,0x4F
8.002739000000000,,0x1B,0x00
8.005716000000000,,0x19,0x00
8.008692999999999,,0x81,0x00
8.011671000000000,,0x80,0xAF
8.049492000000001,,0xB0,0x0B
8.052357000000001,,0x02,0x00
8.055334000000000,,0x20,0x00
8.058311000000000,,0x06,0x00
8.061287999999999,,0x16,0x4F
8.064265000000001,,0x1B,0x02
8.067242000000000,,0x19,0x00
8.070219000000000,,0x81,0x00
8.073195999999999,,0xF8,0xB1
8.107272000000000,,0xB0,0x0B
8.109911000000000,,0x02,0x00
8.112888000000000,,0x20,0x00
8.115864999999999,,0x8E,0x00
8.118841000000000,,0x16,0x4F
8.121817999999999,,0x1B,0x02
8.124795000000001,,0x19,0x00
8.127772000000000,,0x81,0x00
8.130749000000000,,0x80,0xB1
8.167249999999999,,0xB0,0x0B
8.169449999999999,,0x02,0x00
8.172427000000001,,0x20,0x00
8.175404000000000,,0x06,0x00
8.178381000000000,,0x16,0x4F
8.181357999999999,,0x1B,0x02
8.184335000000001,,0x19,0x00
8.187312000000000,,0x81,0x00
8.190289000000000,,0xF8,0xB1
8.226661999999999,,0xB0,0x0B
8.228990000000000,,0x02,0x00
8.231966999999999,,0x20,0x00
8.234944000000000,,0x8E,0x00
8.237921000000000,,0x16,0x4F
8.240898000000000,,0x1B,0x02
8.243874999999999,,0x19,0x00
8.246852000000001,,0x81,0x00
8.249829000000000,,0x80,0xB1
8.286060000000001,,0xB0,0x0B
8.288529000000000,,0x02,0x00
8.291506000000000,,0x20,0x00
8.294484000000001,,0x06,0x00
8.297461000000000,,0x16,0x4F
8.300438000000000,,0x1B,0x02
8.303414999999999,,0x19,0x00
8.306392000000001,,0x81,0x00
8.309369000000000,,0xF8,0xB1
8.345810000000000,,0xB0,0x0B
8.348068000000000,,0x02,0x00
8.351044999999999,,0x20,0x00
8.354022000000001,,0x8E,0x00
8.356999000000000,,0x16,0x4F
8.359976000000000,,0x1B,0x02
8.362952999999999,,0x1A,0x00
8.365930000000001,,0x81,0x00
8.368907000000000,,0x81,0xB1
8.405206000000000,,0xB0,0x0B
8.407607000000000,,0x02,0x00
8.410584000000000,,0x20,0x00
8.413561000000000,,0x06,0x00
8.416537999999999,,0x16,0x4F
8.419515000000001,,0x1B,0x02
8.422491000000001,,0x1A,0x00
8.425468000000000,,0x81,0x00
8.428445000000000,,0xF9,0xB1
8.464617000000001,,0xB0,0x0B
8.467145000000000,,0x02,0x00
8.470122000000000,,0x20,0x00
8.473098999999999,,0x8E,0x00
8.476076000000001,,0x16,0x4F
8.479053000000000,,0x1B,0x02
8.482030000000000,,0x1A,0x00
8.485007000000000,,0x81,0x00
8.487984000000001,,0x81,0xB1
8.524597000000000,,0xB0,0x0B
8.526687000000001,,0x02,0x00
8.529664000000000,,0x20,0x00
8.532641000000000,,0x06,0x00
8.535617000000000,,0x16,0x4F
8.538594000000000,,0x1B,0x02
8.541570999999999,,0x1A,0x00
8.544548000000001,,0x81,0x00
8.547525000000000,,0xF9,0xB1
8.583955000000000,,0xB0,0x0B
8.586223000000000,,0x02,0x00
8.589200000000000,,0x20,0x00
8.592177000000000,,0x8E,0x00
8.595154000000001,,0x16,0x4F
8.598131000000000,,0x1B,0x02
8.601108000000000,,0x1A,0x00
8.604084000000000,,0x81,0x00
8.607061000000000,,0x81,0xB1
8.643375000000001,,0xB0,0x0B
8.645759999999999,,0x02,0x00
8.648737000000001,,0x20,0x00
8.651714000000000,,0x06,0x00
8.654691000000000,,0x16,0x4F
8.657667999999999,,0x1B,0x02
8.660645000000001,,0x1A,0x00
8.663622000000000,,0x81,0x00
8.666599000000000,,0xF9,0xB1
8.702772000000000,,0xB0,0x0B
8.705299999999999,,0x02,0x00
8.708277000000001,,0x20,0x00
8.711254000000000,,0x8E,0x00
8.714231000000000,,0x16,0x4F
8.717207999999999,,0x1B,0x02
8.720185000000001,,0x1A,0x00
8.723162000000000,,0x81,0x00
8.726139000000000,,0x81,0xB1
8.762755000000000,,0xB0,0x0B
8.764840000000000,,0x02,0x00
8.767817000000001,,0x20,0x00
8.770794000000000,,0x06,0x00
8.773771000000000,,0x16,0x4F
8.776749000000001,,0x1B,0x02
8.779724999999999,,0x1A,0x00
8.782702000000000,,0x81,0x00
8.785679000000000,,0xF9,0xB1
8.822132000000000,,0xB0,0x0B
8.824381000000001,,0x02,0x00
8.827358000000000,,0x20,0x00
8.830335000000000,,0x8E,0x00
8.833311999999999,,0x16,0x4F
8.836288000000000,,0x1B,0x02
8.839264999999999,,0x1A,0x04
8.842242000000001,,0x81,0x00
8.845219000000000,,0x81,0xB5
8.881527999999999,,0xB0,0x0B
8.883920000000000,,0x02,0x00
8.886896999999999,,0x20,0x00
8.889874000000001,,0x06,0x00
8.892851000000000,,0x16,0x4F
8.895828000000000,,0x1B,0x02
8.898804999999999,,0x1A,0x04
8.901782000000001,,0x81,0x00
8.904759000000000,,0xF9,0xB5
8.940941000000000,,0xB0,0x0B
8.943460000000000,,0x02,0x00
8.946437000000000,,0x20,0x00
8.949414000000001,,0x8E,0x00
8.952391000000000,,0x16,0x4F
8.955367000000001,,0x1B,0x02
8.958344000000000,,0x1A,0x04
8.961321000000000,,0x81,0x00
8.964297999999999,,0x81,0xB5
9.000907000000000,,0xB0,0x0B
9.003000000000000,,0x02,0x00
9.005977000000000,,0x20,0x00
9.008953999999999,,0x06,0x00
9.011931000000001,,0x16,0x4F
9.014908000000000,,0x1B,0x02
9.017885000000000,,0x1A,0x04
9.020861999999999,,0x81,0x00
9.023838000000000,,0xF9,0xB5
9.060280000000001,,0xB0,0x0B
9.062538000000000,,0x02,0x00
9.065515000000000,,0x20,0x00
9.068492000000001,,0x8E,0x00
9.071469000000000,,0x16,0x4F
9.074446000000000,,0x1B,0x02
9.077422000000000,,0x1A,0x04
9.080399999999999,,0x81,0x00
9.083375999999999,,0x81,0xB5
9.119692000000001,,0xB0,0x0B
9.122077000000001,,0x02,0x00
9.125055000000000,,0x20,0x00
9.128031999999999,,0x06,0x00
9.131009000000001,,0x16,0x4F
9.133986000000000,,0x1B,0x02
9.136963000000000,,0x1A,0x04
9.139941000000000,,0x81,0x00
9.142918000000000,,0xF9,0xB5
9.179092000000001,,0xB0,0x0B
9.181620000000001,,0x02,0x00
9.184597000000000,,0x20,0x00
9.187574000000000,,0x8E,0x00
9.190550999999999,,0x16,0x4F
9.193528000000001,,0x1B,0x02
9.196505000000000,,0x1A,0x04
9.199482000000000,,0x81,0x00
9.202458999999999,,0x81,0xB5
9.239070999999999,,0xB0,0x0B
9.241160000000001,,0x02,0x00
9.244137000000000,,0x20,0x00
9.247114000000000,,0x06,0x00
9.250090999999999,,0x16,0x4F
9.253068000000001,,0x1B,0x02
9.256045000000000,,0x1A,0x04
9.259022000000000,,0x81,0x00
9.261998999999999,,0xF9,0xB5
9.298432000000000,,0xB0,0x0B
9.300700000000001,,0x02,0x00
9.303677000000000,,0x20,0x00
9.306654000000000,,0x8E,0x00
9.309631000000000,,0x16,0x4F
9.312608000000001,,0x1B,0x02
9.315585000000000,,0x1A,0x04
9.318562000000000,,0x81,0x00
9.321539000000000,,0x81,0xB5
9.357616000000000,,0xB0,0x0B
9.360242000000000,,0x02,0x00
9.363219000000001,,0x20,0x00
9.366196000000000,,0x06,0x00
9.369173000000000,,0x16,0x4F
9.372150000000000,,0x1B,0x02
9.375128000000000,,0x1B,0x04
9.378105000000000,,0x81,0x00
9.381081999999999,,0xFA,0xB5
9.417597000000001,,0xB0,0x0B
9.419783000000001,,0x02,0x00
9.422760000000000,,0x20,0x00
9.425736000000001,,0x8E,0x00
9.428713000000000,,0x16,0x4F
9.431690000000000,,0x1B,0x02
9.434666999999999,,0x1B,0x04
9.437644000000001,,0x81,0x00
9.440621000000000,,0x82,0xB5
9.476993999999999,,0xB0,0x0B
9.479322000000000,,0x02,0x00
9.482298999999999,,0x20,0x00
9.485276000000001,,0x06,0x00
9.488253000000000,,0x16,0x4F
9.491230000000000,,0x1B,0x02
9.494206999999999,,0x1B,0x04
9.497184000000001,,0x81,0x00
9.500161000000000,,0xFA,0xB5
9.536405000000000,,0xB0,0x0B
9.538862000000000,,0x02,0x00
9.541839000000000,,0x20,0x00
9.544816000000001,,0x8E,0x00
9.547793000000000,,0x16,0x4F
9.550770000000000,,0x1B,0x02
9.553747000000000,,0x1B,0x04
9.556724000000001,,0x81,0x00
9.559701000000000,,0x82,0xB5
9.595802000000001,,0xB0,0x0B
9.598402000000000,,0x02,0x00
9.601379000000000,,0x20,0x00
9.604355999999999,,0x06,0x00
9.607333000000001,,0x16,0x4F
9.610310000000000,,0x1B,0x02
9.613287000000000,,0x1B,0x04
9.616263999999999,,0x81,0x00
9.619241000000001,,0xFA,0xB5
9.655787999999999,,0xB0,0x0B
9.657943000000000,,0x02,0x00
9.660920000000001,,0x20,0x00
9.663897000000000,,0x8E,0x00
9.666874000000000,,0x16,0x4F
9.669851000000000,,0x1B,0x02
9.672828000000001,,0x1B,0x04
9.675805000000000,,0x81,0x00
9.678782999999999,,0x82,0xB5
9.715202000000000,,0xB0,0x0B
9.717484000000001,,0x02,0x00
9.720461000000000,,0x20,0x00
9.723438000000000,,0x06,0x00
9.726414999999999,,0x16,0x4F
9.729392000000001,,0x1B,0x02
9.732369000000000,,0x1B,0x04
9.735346000000000,,0x81,0x00
9.738322999999999,,0xFA,0xB5
9.774599000000000,,0xB0,0x0B
9.777025000000000,,0x02,0x00
9.780002000000000,,0x20,0x00
9.782978999999999,,0x8E,0x00
9.785956000000001,,0x16,0x4F
9.788933000000000,,0x1B,0x00
9.791910000000000,,0x1B,0x04
9.794886999999999,,0x81,0x00
9.797864000000001,,0x82,0xB3
9.834013000000001,,0xB0,0x0B
9.836565999999999,,0x02,0x00
9.839543000000001,,0x20,0x00
9.842520000000000,,0x06,0x00
9.845497000000000,,0x16,0x4F
9.848474000000000,,0x1B,0x00
9.851451000000001,,0x1B,0x04
9.854429000000000,,0x81,0x00
9.857405999999999,,0xFA,0xB3
9.893981999999999,,0xB0,0x0B
9.896110000000000,,0x02,0x00
9.899088000000001,,0x20,0x00
9.902065000000000,,0x8E,0x00
9.905042000000000,,0x16,0x4F
9.908018999999999,,0x1B,0x00
9.910996000000001,,0x1B,0x04
9.913974000000000,,0x81,0x00
9.916950999999999,,0x82,0xB3
9.953400000000000,,0xB0,0x0B
9.955653999999999,,0x02,0x00
9.958631000000000,,0x20,0x00
9.961608000000000,,0x06,0x00
9.964585000000000,,0x16,0x4F
9.967563000000000,,0x1B,0x00
9.970540000000000,,0x1B,0x04
9.973516999999999,,0x81,0x00
9.976494000000001,,0xFA,0xB3
10.012815000000000,,0xB0,0x0B
10.015197000000001,,0x02,0x00
10.018174000000000,,0x20,0x00
10.021151000000000,,0x8E,0x00
10.024127999999999,,0x16,0x4F
10.027105000000001,,0x1B,0x00
10.030082000000000,,0x1B,0x04
10.033059000000000,,0x81,0x00
10.036035999999999,,0x82,0xB3
10.072215000000000,,0xB0,0x0B
10.074738000000000,,0x02,0x00
10.077715000000000,,0x20,0x00
10.080692000000001,,0x06,0x00
10.083669000000000,,0x16,0x4F
10.086646000000000,,0x1B,0x00
10.089623000000000,,0x1B,0x04
10.092601000000000,,0x81,0x00
10.095578000000000,,0xFA,0xB3
10.132198000000001,,0xB0,0x0B
10.134278999999999,,0x02,0x00
10.137256000000001,,0x20,0x00
10.140233000000000,,0x8E,0x00
10.143210000000000,,0x16,0x4F
10.146186999999999,,0x1B,0x00
10.149164000000001,,0x1B,0x04
10.152141000000000,,0x81,0x00
10.155118000000000,,0x82,0xB3
10.191556000000000,,0xB0,0x0B
10.193819000000000,,0x02,0x00
10.196796000000001,,0x20,0x00
10.199773000000000,,0x06,0x00
10.202750000000000,,0x16,0x4F
10.205727000000000,,0x1B,0x00
10.208703999999999,,0x1B,0x04
10.211682000000000,,0x81,0x00
10.214658999999999,,0xFA,0xB3
10.250973000000000,,0xB0,0x0B
10.253360000000001,,0x02,0x00
10.256337000000000,,0x20,0x00
10.259314000000000,,0x8E,0x00
10.262290999999999,,0x16,0x4F
10.265268000000001,,0x1B,0x00
10.268245000000000,,0x1B,0x04
10.271223000000001,,0x81,0x00
10.274200000000000,,0x82,0xB3
10.310397999999999,,0xB0,0x0B
10.312901000000000,,0x02,0x00
10.315878000000000,,0x20,0x00
10.318854999999999,,0x06,0x00
10.321832000000001,,0x16,0x4F
10.324809000000000,,0x1B,0x00
10.327786000000000,,0x1B,0x04
10.330762999999999,,0x81,0x00
10.333740000000001,,0xFA,0xB3
10.370124000000001,,0xB0,0x0B
10.372441999999999,,0x02,0x00
10.375419000000001,,0x20,0x00
10.378396000000000,,0x8E,0x00
10.381373000000000,,0x16,0x4F
10.384350000000000,,0x1B,0x00
10.387327000000001,,0x1C,0x04
10.390304000000000,,0x81,0x00
10.393281000000000,,0x83,0xB3
10.429537000000000,,0xB0,0x0B
10.431981000000000,,0x02,0x00
10.434958000000000,,0x20,0x00
10.437935000000000,,0x06,0x00
10.440912000000001,,0x16,0x4F
10.443889000000000,,0x1B,0x00
10.446866000000000,,0x1C,0x04
10.449843000000000,,0x81,0x00
10.452819999999999,,0xFB,0xB3
10.488930999999999,,0xB0,0x0B
10.491520000000000,,0x02,0x00
10.494497000000001,,0x20,0x00
10.497474000000000,,0x8E,0x00
10.500450000000001,,0x16,0x4F
10.503428000000000,,0x1B,0x00
10.506404000000000,,0x1C,0x04
10.509382000000000,,0x81,0x00
10.512359000000000,,0x83,0xB3
10.548914999999999,,0xB0,0x0B
10.551060000000000,,0x02,0x00
10.554036999999999,,0x20,0x00
10.557014000000001,,0x06,0x00
10.559991000000000,,0x16,0x4F
10.562969000000001,,0x1B,0x00
10.565944999999999,,0x1C,0x04
10.568922000000001,,0x81,0x00
10.571899999999999,,0xFB,0xB3
10.608335000000000,,0xB0,0x0B
10.610601000000001,,0x02,0x00
10.613578000000000,,0x20,0x00
10.616554000000001,,0x8E,0x00
10.619531000000000,,0x16,0x4F
10.622508000000000,,0x1B,0x00
10.625484999999999,,0x1C,0x04
10.628462000000001,,0x81,0x00
10.631439000000000,,0x83,0xB3
10.667733999999999,,0xB0,0x0B
10.670140000000000,,0x02,0x00
10.673117000000000,,0x20,0x00
10.676094000000001,,0x06,0x00
10.679071000000000,,0x16,0x4F
10.682048000000000,,0x1B,0x00
10.685025000000000,,0x1C,0x04
10.688001999999999,,0x81,0x00
10.690979000000000,,0xFB,0xB3
10.727149000000001,,0xB0,0x0B
10.729680000000000,,0x02,0x00
10.732657000000000,,0x20,0x00
10.735633999999999,,0x8E,0x00
10.738612000000000,,0x16,0x4F
10.741588999999999,,0x1B,0x00
10.744566000000001,,0x1C,0x04
10.747543000000000,,0x81,0x00
10.750520000000000,,0x83,0xB3
10.787112000000000,,0xB0,0x0B
10.789223000000000,,0x02,0x00
10.792199999999999,,0x20,0x00
10.795177000000001,,0x06,0x00
10.798154000000000,,0x16,0x4F
10.801131000000000,,0x1B,0x00
10.804107999999999,,0x1C,0x04
10.807085000000001,,0x81,0x00
10.810062000000000,,0xFB,0xB3
10.846525000000000,,0xB0,0x0B
10.848762000000001,,0x02,0x00
10.851739000000000,,0x20,0x00
10.854716000000000,,0x8E,0x00
10.857692999999999,,0x16,0x4F
10.860670000000001,,0x1B,0x00
10.863647000000000,,0x1C,0x04
10.866624000000000,,0x81,0x00
10.869600999999999,,0x83,0xB3
10.905938000000001,,0xB0,0x0B
10.908301000000000,,0x02,0x00
10.911277999999999,,0x20,0x00
10.914255000000001,,0x06,0x00
10.917232000000000,,0x16,0x4F
10.920209000000000,,0x1B,0x00
10.923185999999999,,0x1C,0x04
10.926164000000000,,0x81,0x00
10.929141000000000,,0xFB,0xB3
10.965335000000000,,0xB0,0x0B
10.967843000000000,,0x02,0x00
10.970820000000000,,0x20,0x00
10.973796999999999,,0x8E,0x00
10.976774000000001,,0x16,0x4F
10.979751000000000,,0x1B,0x00
10.982728000000000,,0x1C,0x04
10.985704999999999,,0x81,0x00
10.988682000000001,,0x83,0xB3
11.024749999999999,,0xB0,0x0B
11.027385000000001,,0x02,0x00
11.030362000000000,,0x20,0x00
11.033339000000000,,0x06,0x00
11.036315999999999,,0x16,0x4F
11.039292000000000,,0x1B,0x00
11.042268999999999,,0x1C,0x04
11.045246000000001,,0x81,0x00
11.048223000000000,,0xFB,0xB3
11.084711000000000,,0xB0,0x0B
11.086923000000001,,0x02,0x00
11.089900000000000,,0x20,0x00
11.092877000000000,,0x8E,0x00
11.095853999999999,,0x16,0x4F
11.098830000000000,,0x1B,0x00
11.101807000000001,,0x1C,0x04
11.104784000000000,,0x81,0x00
11.107761000000000,,0x83,0xB3
11.144121999999999,,0xB0,0x0B
11.146462000000000,,0x02,0x00
11.149438999999999,,0x20,0x00
11.152416000000001,,0x06,0x00
11.155393000000000,,0x16,0x4F
11.158370000000000,,0x1B,0x00
11.161346999999999,,0x1C,0x04
11.164323000000000,,0x81,0x00
11.167299999999999,,0xFB,0xB3
11.203533999999999,,0xB0,0x0B
11.206000000000000,,0x02,0x00
11.208977000000001,,0x20,0x00
11.211954000000000,,0x8E,0x00
11.214931000000000,,0x16,0x4F
11.217908000000000,,0x1B,0x00
11.220885000000001,,0x1C,0x04
11.223862000000000,,0x81,0x00
11.226839000000000,,0x83,0xB3
11.262931999999999,,0xB0,0x0B
11.265539000000000,,0x02,0x00
11.268516000000000,,0x20,0x00
11.271493000000000,,0x06,0x00
11.274470000000001,,0x16,0x4F
11.277447000000000,,0x1B,0x00
11.280424000000000,,0x1C,0x04
11.283401000000000,,0x81,0x00
11.286379000000000,,0xFB,0xB3
11.322678000000000,,0xB0,0x0B
11.325082000000000,,0x02,0x00
11.328059000000000,,0x20,0x00
11.331035999999999,,0x8E,0x00
11.334013000000001,,0x16,0x4F
11.336990000000000,,0x1B,0x00
11.339967000000000,,0x1D,0x04
11.342943000000000,,0x81,0x00
11.345921000000001,,0x84,0xB3
11.382075000000000,,0xB0,0x0B
11.384622000000000,,0x02,0x00
11.387599000000000,,0x20,0x00
11.390575999999999,,0x06,0x00
11.393553000000001,,0x16,0x4F
11.396530000000000,,0x1B,0x00
11.399507000000000,,0x1D,0x04
11.402483999999999,,0x81,0x00
11.405461000000001,,0xFC,0xB3
11.442057999999999,,0xB0,0x0B
11.444163000000000,,0x02,0x00
11.447139999999999,,0x20,0x00
11.450117000000001,,0x8E,0x00
11.453094000000000,,0x16,0x4F
11.456071000000000,,0x1B,0x00
11.459047999999999,,0x1D,0x04
11.462025000000001,,0x81,0x00
11.465002000000000,,0x84,0xB3
11.501431999999999,,0xB0,0x0B
11.503701000000000,,0x02,0x00
11.506678000000001,,0x20,0x00
11.509655000000000,,0x06,0x00
11.512632000000000,,0x16,0x4F
11.515609000000000,,0x1B,0x00
11.518586000000001,,0x1D,0x04
11.521563000000000,,0x81,0x00
11.524540000000000,,0xFC,0xB3
11.560828000000001,,0xB0,0x0B
11.563238999999999,,0x02,0x00
11.566216000000001,,0x20,0x00
11.569193000000000,,0x8E,0x00
11.572170000000000,,0x16,0x4F
11.575146999999999,,0x1B,0x00
11.578124000000001,,0x1D,0x04
11.581099999999999,,0x81,0x00
11.584077000000001,,0x84,0xB3
11.620251000000000,,0xB0,0x0B
11.622779000000000,,0x02,0x00
11.625756000000001,,0x20,0x00
11.628733000000000,,0x06,0x00
11.631710000000000,,0x16,0x4F
11.634687000000000,,0x1B,0x00
11.637663999999999,,0x1D,0x04
11.640641000000000,,0x81,0x00
11.643618000000000,,0xFC,0xB3
11.680213000000000,,0xB0,0x0B
11.682318000000000,,0x02,0x00
11.685295000000000,,0x20,0x00
11.688272000000000,,0x8E,0x00
11.691248999999999,,0x16,0x4F
11.694226000000000,,0x1B,0x00
11.697203000000000,,0x1D,0x04
11.700180000000000,,0x81,0x00
11.703156999999999,,0x84,0xB3
11.739587999999999,,0xB0,0x0B
11.741857000000000,,0x02,0x00
11.744834000000001,,0x20,0x00
11.747811000000000,,0x06,0x00
11.750788000000000,,0x16,0x4F
11.753765000000000,,0x1B,0x00
11.756741999999999,,0x1D,0x04
11.759719000000000,,0x81,0x00
11.762695000000001,,0xFC,0xB3
11.799001000000001,,0xB0,0x0B
11.801394999999999,,0x02,0x00
11.804372000000001,,0x20,0x00
11.807349000000000,,0x8E,0x00
11.810326000000000,,0x16,0x4F
11.813302999999999,,0x1B,0x00
11.816280000000001,,0x1D,0x04
11.819255999999999,,0x81,0x00
11.822233000000001,,0x84,0xB3
11.858394000000001,,0xB0,0x0B
11.860934000000000,,0x02,0x00
11.863911000000000,,0x20,0x00
11.866887999999999,,0x06,0x00
11.869865000000001,,0x16,0x4F
11.872842000000000,,0x1B,0x00
11.875819000000000,,0x1D,0x04
11.878795999999999,,0x81,0x00
11.881773000000001,,0xFC,0xB3
11.918376000000000,,0xB0,0x0B
11.920477000000000,,0x02,0x00
11.923454000000000,,0x20,0x00
11.926430999999999,,0x8E,0x00
11.929408000000000,,0x16,0x4F
11.932385000000000,,0x1B,0x00
11.935362000000000,,0x1D,0x04
11.938338999999999,,0x81,0x00
11.941316000000000,,0x84,0xB3
11.977736999999999,,0xB0,0x0B
11.980017999999999,,0x02,0x00
11.982995000000001,,0x20,0x00
11.985972000000000,,0x06,0x00
11.988949000000000,,0x16,0x4F
11.991925999999999,,0x1B,0x00
11.994903000000001,,0x1D,0x04
11.997880000000000,,0x81,0x00
12.000857000000000,,0xFC,0xB3
12.037148000000000,,0xB0,0x0B
12.039555999999999,,0x02,0x00
12.042533000000001,,0x20,0x00
12.045510999999999,,0x8E,0x00
12.048488000000001,,0x16,0x4F
12.051465000000000,,0x1B,0x00
12.054442000000000,,0x1D,0x04
12.057418999999999,,0x81,0x00
12.060396000000001,,0x84,0xB3
12.096565000000000,,0xB0,0x0B
12.099098000000000,,0x02,0x00
12.102074999999999,,0x20,0x00
12.105052000000001,,0x06,0x00
12.108029000000000,,0x16,0x4F
12.111006000000000,,0x1B,0x00
12.113982999999999,,0x1D,0x04
12.116961000000000,,0x81,0x00
12.119937999999999,,0xFC,0xB3
12.156532000000000,,0xB0,0x0B
12.158638000000000,,0x02,0x00
