Time [s],Packet ID,MOSI,MISO
0.056706200000000,0,0xB0,0x0B
0.059084800000000,,0x00,0x01
0.062061000000000,,0x20,0x06
0.065037200000000,,0x06,0x00
0.068013400000000,,0x00,0x0F
0.070989600000000,,0x10,0x22
0.073966000000000,,0x03,0x04
0.076942200000000,,0x80,0x00
0.079918400000000,,0xBE,0x9C
0.116059200000000,,0xB0,0x0B
0.118610200000000,,0x00,0x01
0.121586600000000,,0x20,0x06
0.124563200000000,,0x8E,0x00
0.127539400000000,,0x00,0x0F
0.130515600000000,,0x10,0x22
0.133492000000000,,0x03,0x04
0.136468400000000,,0x80,0x00
0.139444800000000,,0x46,0x9C
0.175979800000000,,0xB0,0x0B
0.178135600000000,,0x00,0x01
0.181112000000000,,0x20,0x06
0.184088200000000,,0x06,0x00
0.187064600000000,,0x00,0x0F
0.190040800000000,,0x10,0x22
0.193017000000000,,0x03,0x04
0.195993400000000,,0x80,0x00
0.198969800000000,,0xBE,0x9C
0.235332800000000,,0xB0,0x0B
0.237663200000000,,0x00,0x01
0.240639800000000,,0x20,0x06
0.243616000000000,,0x8E,0x00
0.246592400000000,,0x00,0x0F
0.249568800000000,,0x10,0x22
0.252545200000000,,0x03,0x04
0.255521600000000,,0x80,0x00
0.258498000000000,,0x46,0x9C
0.294705000000000,,0xB0,0x0B
0.297191600000000,,0x00,0x01
0.300167800000000,,0x20,0x06
0.303144400000000,,0x06,0x00
0.306120800000000,,0x00,0x0F
0.309097200000000,,0x10,0x22
0.312073400000000,,0x03,0x04
0.315049800000000,,0x80,0x00
0.318026200000000,,0xBE,0x9C
0.354623800000000,,0xB0,0x0B
0.356720800000000,,0x00,0x01
0.359697000000000,,0x20,0x06
0.362673200000000,,0x8E,0x00
0.365649400000000,,0x00,0x0F
0.368625800000000,,0x10,0x22
0.371602000000000,,0x03,0x04
0.374578600000000,,0x80,0x00
0.377555000000000,,0x46,0x9C
0.413942800000000,,0xB0,0x0B
0.416249400000000,,0x00,0x01
0.419225800000000,,0x20,0x06
0.422202400000000,,0x06,0x00
0.425178800000000,,0x00,0x0F
0.428155400000000,,0x10,0x22
0.431131800000000,,0x03,0x04
0.434108400000000,,0x80,0x00
0.437085000000000,,0xBE,0x9C
0.473190000000000,,0xB0,0x0B
0.475780600000000,,0x00,0x01
0.478757000000000,,0x20,0x06
0.481733600000000,,0x8E,0x00
0.484710000000000,,0x00,0x0F
0.487686600000000,,0x10,0x22
0.490663200000000,,0x04,0x04
0.493639600000000,,0x80,0x00
0.496616200000000,,0x47,0x9C
0.533097600000000,,0xB0,0x0B
0.535309400000000,,0x00,0x01
0.538285800000000,,0x20,0x06
0.541262200000000,,0x06,0x00
0.544238800000000,,0x00,0x0F
0.547215200000000,,0x10,0x22
0.550191800000000,,0x04,0x04
0.553168200000000,,0x80,0x00
0.556144600000000,,0xBF,0x9C
0.592468800000000,,0xB0,0x0B
0.594837200000000,,0x00,0x01
0.597813400000000,,0x20,0x06
0.600789800000000,,0x8E,0x00
0.603766000000000,,0x00,0x0F
0.606742200000000,,0x10,0x22
0.609718400000000,,0x04,0x04
0.612694800000000,,0x80,0x00
0.615671000000000,,0x47,0x9C
0.651842000000000,,0xB0,0x0B
0.654363800000000,,0x00,0x01
0.657340200000000,,0x20,0x06
0.660316600000000,,0x06,0x00
0.663293200000000,,0x00,0x0F
0.666269600000000,,0x10,0x22
0.669246200000000,,0x04,0x04
0.672222600000000,,0x80,0x00
0.675199000000000,,0xBF,0x9C
0.711744000000000,,0xB0,0x0B
0.713892000000000,,0x00,0x01
0.716868400000000,,0x20,0x06
0.719844800000000,,0x8E,0x00
0.722821400000000,,0x00,0x0F
0.725797800000000,,0x10,0x22
0.728774200000000,,0x04,0x04
0.731750600000000,,0x80,0x00
0.734727000000000,,0x47,0x9C
0.771123800000000,,0xB0,0x0B
0.773420200000000,,0x00,0x01
0.776396800000000,,0x20,0x06
0.779373200000000,,0x06,0x00
0.782349400000000,,0x00,0x0F
0.785326000000000,,0x10,0x22
0.788302400000000,,0x04,0x04
0.791279000000000,,0x80,0x00
0.794255400000000,,0xBF,0x9C
0.830480800000000,,0xB0,0x0B
0.832950200000000,,0x00,0x01
0.835926800000000,,0x20,0x07
0.838903200000000,,0x8E,0x00
0.841879600000000,,0x00,0x0F
0.844856200000000,,0x10,0x22
0.847832800000000,,0x04,0x04
0.850809200000000,,0x80,0x00
0.853785600000000,,0x47,0x9D
0.889852800000000,,0xB0,0x0B
0.892479800000000,,0x00,0x01
0.895456200000000,,0x20,0x07
0.898432800000000,,0x06,0x00
0.901409200000000,,0x00,0x0F
0.904385600000000,,0x10,0x22
0.907362200000000,,0x04,0x04
0.910338600000000,,0x80,0x00
0.913315200000000,,0xBF,0x9D
0.949775200000000,,0xB0,0x0B
0.952008800000000,,0x00,0x01
0.954985200000000,,0x20,0x07
0.957961600000000,,0x8E,0x00
0.960938000000000,,0x00,0x0F
0.963914400000000,,0x10,0x22
0.966890800000000,,0x04,0x04
0.969867200000000,,0x80,0x00
0.972843600000000,,0x47,0x9D
1.009132200000000,,0xB0,0x0B
1.011536200000000,,0x00,0x01
1.014512600000000,,0x20,0x07
1.017489200000000,,0x06,0x00
1.020465600000000,,0x00,0x0F
1.023441800000000,,0x10,0x22
1.026418000000000,,0x04,0x04
1.029394600000000,,0x80,0x00
1.032371000000000,,0xBF,0x9D
1.068504600000000,,0xB0,0x0B
1.071063800000000,,0x00,0x01
1.074040000000000,,0x20,0x07
1.077016200000000,,0x8E,0x00
1.079992800000000,,0x00,0x0F
1.082969000000000,,0x10,0x22
1.085945200000000,,0x04,0x04
1.088921600000000,,0x80,0x00
1.091897800000000,,0x47,0x9D
1.128406600000000,,0xB0,0x0B
1.130591400000000,,0x00,0x01
1.133568000000000,,0x20,0x07
1.136544400000000,,0x06,0x00
1.139521000000000,,0x00,0x0F
1.142497400000000,,0x10,0x22
1.145474000000000,,0x04,0x04
1.148450400000000,,0x80,0x00
1.151427000000000,,0xBF,0x9D
1.187777600000000,,0xB0,0x0B
1.190122200000000,,0x00,0x01
1.193098800000000,,0x20,0x07
1.196075400000000,,0x8E,0x00
1.199051800000000,,0x00,0x0F
1.202028400000000,,0x10,0x22
1.205005000000000,,0x04,0x04
1.207981600000000,,0x80,0x00
1.210958000000000,,0x47,0x9D
1.247152000000000,,0xB0,0x0B
1.249653400000000,,0x00,0x01
1.252630000000000,,0x20,0x07
1.255606600000000,,0x06,0x00
1.258583200000000,,0x00,0x0F
1.261560000000000,,0x10,0x22
1.264536600000000,,0x04,0x04
1.267513400000000,,0x80,0x00
1.270490200000000,,0xBF,0x9D
1.307063600000000,,0xB0,0x0B
1.309186200000000,,0x00,0x01
1.312162800000000,,0x20,0x07
1.315139400000000,,0x8E,0x00
1.318116000000000,,0x00,0x0F
1.321092400000000,,0x10,0x22
1.324069000000000,,0x04,0x04
1.327045400000000,,0x80,0x00
1.330021800000000,,0x47,0x9D
1.366439400000000,,0xB0,0x0B
1.368717000000000,,0x00,0x01
1.371693600000000,,0x20,0x07
1.374670000000000,,0x06,0x00
1.377646600000000,,0x00,0x0F
1.380623200000000,,0x10,0x22
1.383599600000000,,0x04,0x04
1.386576400000000,,0x80,0x00
1.389552800000000,,0xBF,0x9D
1.425795000000000,,0xB0,0x0B
1.428246800000000,,0x00,0x01
1.431223000000000,,0x20,0x07
1.434199400000000,,0x8E,0x00
1.437176000000000,,0x00,0x0F
1.440152400000000,,0x10,0x22
1.443128800000000,,0x04,0x04
1.446105400000000,,0x80,0x00
1.449082000000000,,0x47,0x9D
1.485591400000000,,0xB0,0x0B
1.487775800000000,,0x00,0x01
1.490752400000000,,0x20,0x07
1.493729000000000,,0x06,0x00
1.496705600000000,,0x00,0x0F
1.499682000000000,,0x10,0x22
1.502658400000000,,0x05,0x04
1.505635000000000,,0x80,0x00
1.508611600000000,,0xC0,0x9D
1.544963800000000,,0xB0,0x0B
1.547304800000000,,0x00,0x01
1.550281200000000,,0x20,0x07
1.553257800000000,,0x8E,0x00
1.556234000000000,,0x00,0x0F
1.559210400000000,,0x10,0x20
1.562186800000000,,0x05,0x04
1.565163200000000,,0x80,0x00
1.568139600000000,,0x48,0x9B
1.604318200000000,,0xB0,0x0B
1.606832800000000,,0x00,0x01
1.609809200000000,,0x20,0x07
1.612785600000000,,0x06,0x00
1.615762000000000,,0x00,0x0F
1.618738400000000,,0x10,0x20
1.621714600000000,,0x05,0x04
1.624691200000000,,0x80,0x00
1.627667800000000,,0xC0,0x9B
1.664241600000000,,0xB0,0x0B
1.666364000000000,,0x00,0x01
1.669340400000000,,0x20,0x07
1.672316600000000,,0x8E,0x00
1.675292800000000,,0x00,0x0F
1.678269000000000,,0x10,0x20
1.681245200000000,,0x05,0x04
1.684221400000000,,0x80,0x00
1.687197800000000,,0x48,0x9B
1.723595400000000,,0xB0,0x0B
1.725889800000000,,0x00,0x01
1.728866000000000,,0x20,0x07
1.731842200000000,,0x06,0x00
1.734818600000000,,0x00,0x0F
1.737794800000000,,0x10,0x20
1.740771000000000,,0x05,0x04
1.743747400000000,,0x80,0x00
1.746723800000000,,0xC0,0x9B
1.782970600000000,,0xB0,0x0B
1.785416200000000,,0x00,0x01
1.788392600000000,,0x20,0x07
1.791368800000000,,0x8E,0x00
1.794345200000000,,0x00,0x0F
1.797321800000000,,0x10,0x20
1.800298200000000,,0x05,0x04
1.803274600000000,,0x80,0x00
1.806251000000000,,0x48,0x9B
1.842340600000000,,0xB0,0x0B
1.844944000000000,,0x00,0x01
1.847920400000000,,0x20,0x07
1.850896800000000,,0x06,0x00
1.853873200000000,,0x00,0x0F
1.856849600000000,,0x10,0x20
1.859826000000000,,0x05,0x04
1.862802400000000,,0x80,0x00
1.865779000000000,,0xC0,0x9B
1.902243800000000,,0xB0,0x0B
1.904473000000000,,0x00,0x01
1.907449400000000,,0x20,0x07
1.910425800000000,,0x8E,0x00
1.913402200000000,,0x00,0x0F
1.916378600000000,,0x10,0x20
1.919355000000000,,0x05,0x04
1.922331400000000,,0x80,0x00
1.925308000000000,,0x48,0x9B
1.961614200000000,,0xB0,0x0B
1.964002000000000,,0x00,0x01
1.966978600000000,,0x20,0x07
1.969955000000000,,0x06,0x00
1.972931400000000,,0x00,0x0F
1.975908000000000,,0x10,0x20
1.978884400000000,,0x05,0x04
1.981860800000000,,0x80,0x00
1.984837200000000,,0xC0,0x9B
2.020971600000000,,0xB0,0x0B
2.023531600000000,,0x00,0x01
2.026508200000000,,0x20,0x07
2.029484600000000,,0x8E,0x00
2.032461000000000,,0x00,0x0F
2.035437600000000,,0x10,0x20
2.038414200000000,,0x05,0x04
2.041390800000000,,0x80,0x00
2.044367400000000,,0x48,0x9B
2.080896800000000,,0xB0,0x0B
2.083062200000000,,0x00,0x01
2.086038800000000,,0x20,0x07
2.089015400000000,,0x06,0x00
2.091991800000000,,0x00,0x0F
2.094968200000000,,0x10,0x20
2.097944600000000,,0x05,0x04
2.100921000000000,,0x80,0x00
2.103897400000000,,0xC0,0x9B
2.140267600000000,,0xB0,0x0B
2.142591600000000,,0x00,0x01
2.145568000000000,,0x20,0x07
2.148544800000000,,0x8E,0x00
2.151521200000000,,0x00,0x0F
2.154497600000000,,0x10,0x20
2.157474200000000,,0x05,0x04
2.160450600000000,,0x80,0x00
2.163427200000000,,0x48,0x9B
2.199625000000000,,0xB0,0x0B
2.202122400000000,,0x00,0x01
2.205098800000000,,0x20,0x07
2.208075400000000,,0x06,0x00
2.211051800000000,,0x00,0x0F
2.214028200000000,,0x10,0x20
2.217004600000000,,0x05,0x04
2.219981200000000,,0x80,0x00
2.222957600000000,,0xC0,0x9B
2.259546800000000,,0xB0,0x0B
2.261651800000000,,0x00,0x01
2.264628400000000,,0x20,0x07
2.267605000000000,,0x8E,0x00
2.270581400000000,,0x00,0x0F
2.273558000000000,,0x10,0x20
2.276534600000000,,0x05,0x04
2.279511200000000,,0x80,0x00
2.282487600000000,,0x48,0x9B
2.318869800000000,,0xB0,0x0B
2.321182400000000,,0x00,0x01
2.324159000000000,,0x20,0x07
2.327135600000000,,0x06,0x00
2.330112200000000,,0x00,0x0F
2.333088600000000,,0x10,0x20
2.336065200000000,,0x05,0x04
2.339041800000000,,0x80,0x00
2.342018400000000,,0xC0,0x9B
2.378243400000000,,0xB0,0x0B
2.380713600000000,,0x00,0x01
2.383690000000000,,0x20,0x07
2.386666600000000,,0x8E,0x00
2.389643000000000,,0x00,0x0F
2.392619600000000,,0x10,0x20
2.395596200000000,,0x05,0x04
2.398572600000000,,0x80,0x00
2.401549000000000,,0x48,0x9B
2.437630400000000,,0xB0,0x0B
2.440244200000000,,0x00,0x01
2.443220600000000,,0x20,0x07
2.446197000000000,,0x06,0x00
2.449173600000000,,0x00,0x0F
2.452150200000000,,0x10,0x20
2.455127000000000,,0x05,0x04
2.458103600000000,,0x80,0x00
2.461080200000000,,0xC0,0x9B
2.497398200000000,,0xB0,0x0B
2.499776200000000,,0x00,0x01
2.502752800000000,,0x20,0x07
2.505729600000000,,0x8E,0x00
2.508706200000000,,0x00,0x0F
2.511682800000000,,0x10,0x20
2.514659400000000,,0x06,0x04
2.517636000000000,,0x80,0x00
2.520612600000000,,0x49,0x9B
2.556773200000000,,0xB0,0x0B
2.559307800000000,,0x00,0x01
2.562284400000000,,0x20,0x07
2.565261000000000,,0x06,0x00
2.568237600000000,,0x00,0x0F
2.571214200000000,,0x10,0x20
2.574191000000000,,0x06,0x04
2.577167600000000,,0x80,0x00
2.580144400000000,,0xC1,0x9B
2.616682600000000,,0xB0,0x0B
2.618840200000000,,0x00,0x01
2.621816800000000,,0x20,0x07
2.624793400000000,,0x8E,0x00
2.627769800000000,,0x00,0x0F
2.630746400000000,,0x10,0x20
2.633723000000000,,0x06,0x04
2.636699600000000,,0x80,0x00
2.639676200000000,,0x49,0x9B
2.676057600000000,,0xB0,0x0B
2.678371200000000,,0x00,0x01
2.681347600000000,,0x20,0x07
2.684324200000000,,0x06,0x00
2.687301000000000,,0x00,0x0F
2.690277400000000,,0x10,0x20
2.693254000000000,,0x06,0x04
2.696230600000000,,0x80,0x00
2.699207200000000,,0xC1,0x9B
2.735437000000000,,0xB0,0x0B
2.737902400000000,,0x00,0x01
2.740879200000000,,0x20,0x07
2.743855800000000,,0x8E,0x00
2.746832400000000,,0x00,0x0F
2.749809000000000,,0x10,0x20
2.752785400000000,,0x06,0x04
2.755762000000000,,0x80,0x00
2.758738600000000,,0x49,0x9B
2.794794800000000,,0xB0,0x0B
2.797433200000000,,0x00,0x01
2.800409800000000,,0x20,0x07
2.803386400000000,,0x06,0x00
2.806363200000000,,0x00,0x0F
2.809339800000000,,0x10,0x20
2.812316400000000,,0x06,0x04
2.815293000000000,,0x80,0x00
2.818269600000000,,0xC1,0x9B
2.854722800000000,,0xB0,0x0B
2.856965600000000,,0x00,0x01
2.859942200000000,,0x20,0x07
2.862918600000000,,0x8E,0x00
2.865895200000000,,0x00,0x0F
2.868871800000000,,0x10,0x20
2.871848400000000,,0x06,0x04
2.874825000000000,,0x80,0x00
2.877801600000000,,0x49,0x9B
2.914082800000000,,0xB0,0x0B
2.916496200000000,,0x00,0x01
2.919472600000000,,0x20,0x07
2.922449000000000,,0x06,0x00
2.925425400000000,,0x00,0x0F
2.928402000000000,,0x10,0x20
2.931378400000000,,0x06,0x04
2.934355000000000,,0x80,0x00
2.937331600000000,,0xC1,0x9B
2.973453800000000,,0xB0,0x0B
2.976025600000000,,0x00,0x01
2.979002000000000,,0x20,0x07
2.981978400000000,,0x8E,0x00
2.984954800000000,,0x00,0x0F
2.987931200000000,,0x10,0x20
2.990907600000000,,0x06,0x04
2.993884000000000,,0x80,0x00
2.996860400000000,,0x49,0x9B
3.033376000000000,,0xB0,0x0B
3.035553800000000,,0x00,0x01
3.038530400000000,,0x20,0x07
3.041507000000000,,0x06,0x00
3.044483400000000,,0x00,0x0F
3.047460000000000,,0x10,0x20
3.050436400000000,,0x06,0x04
3.053412800000000,,0x80,0x00
3.056389200000000,,0xC1,0x9B
3.092733800000000,,0xB0,0x0B
3.095082800000000,,0x00,0x01
3.098059200000000,,0x20,0x07
3.101035800000000,,0x8E,0x00
3.104012200000000,,0x00,0x0F
3.106988800000000,,0x10,0x20
3.109965200000000,,0x06,0x04
3.112941600000000,,0x80,0x00
3.115918400000000,,0x49,0x9B
3.152108200000000,,0xB0,0x0B
3.154613400000000,,0x00,0x01
3.157589800000000,,0x20,0x07
3.160566200000000,,0x06,0x00
3.163542800000000,,0x00,0x0F
3.166519200000000,,0x10,0x20
3.169495600000000,,0x06,0x04
3.172472200000000,,0x80,0x00
3.175448600000000,,0xC1,0x9B
3.212014400000000,,0xB0,0x0B
3.214143000000000,,0x00,0x01
3.217119400000000,,0x20,0x07
3.220096000000000,,0x8E,0x00
3.223072600000000,,0x00,0x0F
3.226049200000000,,0x10,0x20
3.229025600000000,,0x06,0x04
3.232002200000000,,0x80,0x00
3.234978800000000,,0x49,0x9B
3.271387200000000,,0xB0,0x0B
3.273673800000000,,0x00,0x01
3.276650400000000,,0x20,0x07
3.279627000000000,,0x06,0x00
3.282603600000000,,0x00,0x0F
3.285580200000000,,0x10,0x20
3.288556800000000,,0x06,0x04
3.291533200000000,,0x80,0x00
3.294509800000000,,0xC1,0x9B
3.330760600000000,,0xB0,0x0B
3.333203800000000,,0x00,0x01
3.336180400000000,,0x20,0x07
3.339157000000000,,0x8E,0x00
3.342133200000000,,0x00,0x0F
3.345109600000000,,0x10,0x20
3.348086000000000,,0x06,0x04
3.351062400000000,,0x80,0x00
3.354038600000000,,0x49,0x9B
3.390118600000000,,0xB0,0x0B
3.392733600000000,,0x00,0x01
3.395710200000000,,0x20,0x07
3.398686800000000,,0x06,0x00
3.401663400000000,,0x00,0x0F
3.404639800000000,,0x10,0x20
3.407616400000000,,0x06,0x04
3.410593000000000,,0x80,0x00
3.413569400000000,,0xC1,0x9B
3.449922000000000,,0xB0,0x0B
3.452263600000000,,0x00,0x01
3.455240000000000,,0x20,0x07
3.458216600000000,,0x8E,0x00
3.461192800000000,,0x00,0x0F
3.464169200000000,,0x10,0x20
3.467145600000000,,0x07,0x04
3.470122000000000,,0x80,0x00
3.473098400000000,,0x4A,0x9B
3.509278000000000,,0xB0,0x0B
3.511792400000000,,0x00,0x01
3.514768800000000,,0x20,0x07
3.517745400000000,,0x06,0x00
3.520721800000000,,0x00,0x0F
3.523698200000000,,0x10,0x20
3.526674800000000,,0x07,0x04
3.529651200000000,,0x80,0x00
3.532627600000000,,0xC2,0x9B
3.569200200000000,,0xB0,0x0B
3.571322600000000,,0x00,0x01
3.574299000000000,,0x20,0x07
3.577275600000000,,0x8E,0x00
3.580252000000000,,0x00,0x0F
3.583228400000000,,0x10,0x20
3.586205000000000,,0x07,0x04
3.589181600000000,,0x80,0x00
3.592158000000000,,0x4A,0x9B
3.628573200000000,,0xB0,0x0B
3.630852400000000,,0x00,0x01
3.633828800000000,,0x20,0x07
3.636805600000000,,0x06,0x00
3.639782200000000,,0x00,0x0F
3.642758600000000,,0x10,0x20
3.645735200000000,,0x07,0x04
3.648712000000000,,0x80,0x00
3.651688600000000,,0xC2,0x9B
3.687932600000000,,0xB0,0x0B
3.690384400000000,,0x00,0x01
3.693360800000000,,0x20,0x07
3.696337200000000,,0x8E,0x00
3.699313800000000,,0x00,0x0F
3.702290200000000,,0x10,0x20
3.705266800000000,,0x07,0x04
3.708243200000000,,0x80,0x00
3.711219800000000,,0x4A,0x9B
3.747310400000000,,0xB0,0x0B
3.749913600000000,,0x00,0x01
3.752890000000000,,0x20,0x07
3.755866400000000,,0x06,0x00
3.758842800000000,,0x00,0x0F
3.761819200000000,,0x10,0x20
3.764795400000000,,0x07,0x04
3.767771800000000,,0x80,0x00
3.770748200000000,,0xC2,0x9B
3.807213600000000,,0xB0,0x0B
3.809441200000000,,0x00,0x01
3.812417600000000,,0x20,0x07
3.815394000000000,,0x8E,0x00
3.818370600000000,,0x00,0x0F
3.821347000000000,,0x10,0x20
3.824323600000000,,0x07,0x04
3.827300000000000,,0x80,0x00
3.830276400000000,,0x4A,0x9B
3.866588000000000,,0xB0,0x0B
3.868970800000000,,0x00,0x01
3.871947200000000,,0x20,0x07
3.874923800000000,,0x06,0x00
3.877900200000000,,0x00,0x0F
3.880876600000000,,0x10,0x20
3.883853200000000,,0x07,0x04
3.886829600000000,,0x80,0x00
3.889806200000000,,0xC2,0x9B
3.925960800000000,,0xB0,0x0B
3.928500400000000,,0x00,0x01
3.931477200000000,,0x20,0x07
3.934453600000000,,0x8E,0x00
3.937430200000000,,0x00,0x0F
3.940406800000000,,0x10,0x20
3.943383400000000,,0x07,0x04
3.946359800000000,,0x80,0x00
3.949336400000000,,0x4A,0x9B
3.985870600000000,,0xB0,0x0B
3.988030200000000,,0x00,0x01
3.991006600000000,,0x20,0x07
3.993983200000000,,0x06,0x00
3.996959600000000,,0x00,0x0F
3.999936200000000,,0x10,0x20
4.002912600000000,,0x07,0x04
4.005888800000000,,0x80,0x00
4.008865200000000,,0xC2,0x9B
4.045243800000000,,0xB0,0x0B
4.047558800000000,,0x00,0x01
4.050535400000000,,0x20,0x07
4.053511800000000,,0x8E,0x00
4.056488400000000,,0x00,0x0F
4.059465000000000,,0x10,0x20
4.062441400000000,,0x07,0x04
4.065417600000000,,0x80,0x00
4.068394200000000,,0x4A,0x9B
4.104601600000000,,0xB0,0x0B
4.107088800000000,,0x00,0x01
4.110065400000000,,0x20,0x07
4.113041800000000,,0x06,0x00
4.116018400000000,,0x00,0x0F
4.118995000000000,,0x10,0x20
4.121971600000000,,0x07,0x04
4.124948000000000,,0x80,0x00
4.127924600000000,,0xC2,0x9B
4.164524600000000,,0xB0,0x0B
4.166621800000000,,0x00,0x01
4.169598400000000,,0x20,0x07
4.172575000000000,,0x8E,0x00
4.175551600000000,,0x00,0x0F
4.178528400000000,,0x10,0x20
4.181505000000000,,0x07,0x04
4.184481600000000,,0x80,0x00
4.187458200000000,,0x4A,0x9B
4.223862400000000,,0xB0,0x0B
4.226153000000000,,0x00,0x01
4.229129400000000,,0x20,0x07
4.232106000000000,,0x06,0x00
4.235082600000000,,0x00,0x0F
4.238059200000000,,0x10,0x20
4.241036000000000,,0x07,0x04
4.244012600000000,,0x80,0x00
4.246989400000000,,0xC2,0x9B
4.283222800000000,,0xB0,0x0B
4.285685200000000,,0x00,0x01
4.288661800000000,,0x20,0x07
4.291638600000000,,0x8E,0x00
4.294615200000000,,0x00,0x0F
4.297591800000000,,0x10,0x20
4.300568400000000,,0x07,0x04
4.303545200000000,,0x80,0x00
4.306521800000000,,0x4A,0x9B
4.342600200000000,,0xB0,0x0B
4.345218600000000,,0x00,0x01
4.348195400000000,,0x20,0x07
4.351172000000000,,0x06,0x00
4.354148600000000,,0x00,0x0F
4.357125400000000,,0x10,0x20
4.360102200000000,,0x07,0x04
4.363079000000000,,0x80,0x00
4.366055600000000,,0xC2,0x9B
4.402510800000000,,0xB0,0x0B
4.404752200000000,,0x00,0x01
4.407728800000000,,0x20,0x07
4.410705600000000,,0x8E,0x00
4.413682200000000,,0x00,0x0F
4.416658800000000,,0x10,0x20
4.419635400000000,,0x07,0x04
4.422611800000000,,0x80,0x00
4.425588400000000,,0x4A,0x9B
4.461759800000000,,0xB0,0x0B
4.464285000000000,,0x00,0x01
4.467261800000000,,0x20,0x07
4.470238600000000,,0x06,0x00
4.473215200000000,,0x00,0x0F
4.476191800000000,,0x10,0x20
4.479168400000000,,0x08,0x04
4.482145200000000,,0x80,0x00
4.485121600000000,,0xC3,0x9B
4.521687400000000,,0xB0,0x0B
4.523818600000000,,0x00,0x01
4.526795200000000,,0x20,0x07
4.529771800000000,,0x8E,0x00
4.532748400000000,,0x00,0x0F
4.535725000000000,,0x10,0x20
4.538701800000000,,0x08,0x04
4.541678400000000,,0x80,0x00
4.544654800000000,,0x4B,0x9B
4.581046600000000,,0xB0,0x0B
4.583350800000000,,0x00,0x01
4.586327400000000,,0x20,0x07
4.589304200000000,,0x06,0x00
4.592281000000000,,0x00,0x0F
4.595257400000000,,0x10,0x20
4.598234200000000,,0x08,0x04
4.601210800000000,,0x80,0x00
4.604187400000000,,0xC3,0x9B
4.640419200000000,,0xB0,0x0B
4.642884000000000,,0x00,0x01
4.645860600000000,,0x20,0x07
4.648837400000000,,0x8E,0x00
4.651814000000000,,0x00,0x0F
4.654790600000000,,0x10,0x20
4.657767200000000,,0x08,0x04
4.660744000000000,,0x80,0x00
4.663720400000000,,0x4B,0x9B
4.699779400000000,,0xB0,0x0B
4.702416400000000,,0x00,0x01
4.705392800000000,,0x20,0x07
4.708369400000000,,0x06,0x00
4.711345800000000,,0x00,0x0F
4.714322400000000,,0x10,0x20
4.717298800000000,,0x08,0x04
4.720275200000000,,0x80,0x00
4.723251600000000,,0xC3,0x9B
4.759709800000000,,0xB0,0x0B
4.761945600000000,,0x00,0x01
4.764922000000000,,0x20,0x07
4.767898600000000,,0x8E,0x00
4.770875400000000,,0x00,0x0F
4.773852000000000,,0x10,0x20
4.776828600000000,,0x08,0x04
4.779805200000000,,0x80,0x00
4.782781800000000,,0x4B,0x9B
4.819082600000000,,0xB0,0x0B
4.821476800000000,,0x00,0x01
4.824453200000000,,0x20,0x07
4.827430000000000,,0x06,0x00
4.830406600000000,,0x00,0x0F
4.833383200000000,,0x10,0x20
4.836360000000000,,0x08,0x04
4.839336600000000,,0x80,0x00
4.842313400000000,,0xC3,0x9B
4.878442200000000,,0xB0,0x0B
4.881008200000000,,0x00,0x01
4.883984800000000,,0x20,0x07
4.886961400000000,,0x8E,0x00
4.889937800000000,,0x00,0x0F
4.892914200000000,,0x10,0x20
4.895890400000000,,0x08,0x04
4.898867000000000,,0x80,0x00
4.901843600000000,,0x4B,0x9B
4.938366200000000,,0xB0,0x0B
4.940538000000000,,0x00,0x01
4.943514400000000,,0x20,0x07
4.946491000000000,,0x06,0x00
4.949467600000000,,0x00,0x0F
4.952444200000000,,0x10,0x20
4.955420600000000,,0x08,0x04
4.958397200000000,,0x80,0x00
4.961373400000000,,0xC3,0x9B
4.997721800000000,,0xB0,0x0B
5.000067400000000,,0x00,0x01
5.003044200000000,,0x20,0x07
5.006020600000000,,0x8E,0x00
5.008997400000000,,0x00,0x0F
5.011974000000000,,0x10,0x20
5.014950400000000,,0x08,0x04
5.017927000000000,,0x80,0x00
5.020903600000000,,0x4B,0x9B
5.057097400000000,,0xB0,0x0B
5.059598400000000,,0x00,0x01
5.062575000000000,,0x20,0x07
5.065551400000000,,0x06,0x00
5.068528000000000,,0x00,0x0F
5.071504600000000,,0x10,0x20
5.074481400000000,,0x08,0x04
5.077458000000000,,0x80,0x00
5.080434600000000,,0xC3,0x9B
5.117019800000000,,0xB0,0x0B
5.119130200000000,,0x00,0x01
5.122106600000000,,0x20,0x07
5.125083000000000,,0x8E,0x00
5.128059400000000,,0x00,0x0F
5.131035800000000,,0x10,0x20
5.134012200000000,,0x08,0x04
5.136988800000000,,0x80,0x00
5.139965200000000,,0x4B,0x9B
5.176375000000000,,0xB0,0x0B
5.178659800000000,,0x00,0x01
5.181636200000000,,0x20,0x07
5.184612600000000,,0x06,0x00
5.187589000000000,,0x00,0x0F
5.190565600000000,,0x10,0x20
5.193542000000000,,0x08,0x04
5.196518400000000,,0x80,0x00
5.199495200000000,,0xC3,0x9B
5.235748000000000,,0xB0,0x0B
5.238190400000000,,0x00,0x01
5.241166800000000,,0x20,0x07
5.244143400000000,,0x8E,0x00
5.247120000000000,,0x00,0x0F
5.250096600000000,,0x10,0x20
5.253073200000000,,0x08,0x04
5.256049800000000,,0x80,0x00
5.259026600000000,,0x4B,0x9B
5.295106400000000,,0xB0,0x0B
5.297722400000000,,0x00,0x01
5.300699000000000,,0x20,0x07
5.303675600000000,,0x06,0x00
5.306652000000000,,0x00,0x0F
5.309628600000000,,0x10,0x20
5.312605000000000,,0x08,0x04
5.315581600000000,,0x80,0x00
5.318558000000000,,0xC3,0x9B
5.355032800000000,,0xB0,0x0B
5.357253800000000,,0x00,0x01
5.360230600000000,,0x20,0x07
5.363207000000000,,0x8E,0x00
5.366183600000000,,0x00,0x0F
5.369160200000000,,0x10,0x20
5.372136800000000,,0x08,0x04
5.375113400000000,,0x80,0x00
5.378089800000000,,0x4B,0x9B
5.414419800000000,,0xB0,0x0B
5.416784800000000,,0x00,0x01
5.419761200000000,,0x20,0x07
5.422737800000000,,0x06,0x00
5.425714200000000,,0x00,0x0F
5.428689800000000,,0x10,0x20
5.431666200000000,,0x08,0x04
5.434642800000000,,0x80,0x00
5.437619400000000,,0xC3,0x9B
5.474120200000000,,0xB0,0x0B
5.476313600000000,,0x00,0x01
5.479290400000000,,0x20,0x07
5.482267000000000,,0x8E,0x00
5.485243600000000,,0x00,0x0F
5.488220200000000,,0x10,0x20
5.491196800000000,,0x09,0x04
5.494173600000000,,0x80,0x00
5.497150200000000,,0x4C,0x9B
5.533497400000000,,0xB0,0x0B
5.535845800000000,,0x00,0x01
5.538822400000000,,0x20,0x07
5.541799000000000,,0x06,0x00
5.544775400000000,,0x00,0x0F
5.547752000000000,,0x10,0x20
5.550728600000000,,0x09,0x04
5.553705000000000,,0x80,0x00
5.556681800000000,,0xC4,0x9B
5.592851800000000,,0xB0,0x0B
5.595375200000000,,0x00,0x01
5.598351600000000,,0x20,0x07
5.601328000000000,,0x8E,0x00
5.604304200000000,,0x00,0x0F
5.607280400000000,,0x10,0x20
5.610256800000000,,0x09,0x04
5.613233000000000,,0x80,0x00
5.616209400000000,,0x4C,0x9B
5.652772200000000,,0xB0,0x0B
5.654903000000000,,0x00,0x01
5.657879400000000,,0x20,0x07
5.660856000000000,,0x06,0x00
5.663832400000000,,0x00,0x0F
5.666808800000000,,0x10,0x20
5.669785200000000,,0x09,0x04
5.672761600000000,,0x80,0x00
5.675738000000000,,0xC4,0x9B
5.712151400000000,,0xB0,0x0B
5.714432400000000,,0x00,0x01
5.717409000000000,,0x20,0x07
5.720385600000000,,0x8E,0x00
5.723362200000000,,0x00,0x0F
5.726338600000000,,0x10,0x20
5.729315000000000,,0x09,0x04
5.732291600000000,,0x80,0x00
5.735268000000000,,0x4C,0x9B
5.771509800000000,,0xB0,0x0B
5.773962800000000,,0x00,0x01
5.776939400000000,,0x20,0x07
5.779915800000000,,0x06,0x00
5.782892200000000,,0x00,0x0F
5.785868600000000,,0x10,0x20
5.788845200000000,,0x09,0x04
5.791821800000000,,0x80,0x00
5.794798200000000,,0xC4,0x9B
5.830879800000000,,0xB0,0x0B
5.833492600000000,,0x00,0x01
5.836469200000000,,0x20,0x07
5.839445800000000,,0x8E,0x00
5.842422200000000,,0x00,0x0F
5.845398600000000,,0x10,0x20
5.848375200000000,,0x09,0x04
5.851351600000000,,0x80,0x00
5.854328200000000,,0x4C,0x9B
5.890785800000000,,0xB0,0x0B
5.893022400000000,,0x00,0x01
5.895998800000000,,0x20,0x07
5.898975400000000,,0x06,0x00
5.901951800000000,,0x00,0x0F
5.904928200000000,,0x10,0x20
5.907904600000000,,0x09,0x04
5.910881200000000,,0x80,0x00
5.913857800000000,,0xC4,0x9B
5.950158600000000,,0xB0,0x0B
5.952552000000000,,0x00,0x01
5.955528400000000,,0x20,0x07
5.958505000000000,,0x8E,0x00
5.961481400000000,,0x00,0x0F
5.964458000000000,,0x10,0x20
5.967434600000000,,0x09,0x04
5.970411000000000,,0x80,0x00
5.973387400000000,,0x4C,0x9B
6.009532400000000,,0xB0,0x0B
6.012081400000000,,0x00,0x01
6.015057800000000,,0x20,0x07
6.018034000000000,,0x06,0x00
6.021010400000000,,0x00,0x0F
6.023987000000000,,0x10,0x20
6.026963600000000,,0x09,0x04
6.029940200000000,,0x80,0x00
6.032916800000000,,0xC4,0x9B
6.069440200000000,,0xB0,0x0B
6.071612200000000,,0x00,0x01
6.074588600000000,,0x20,0x07
6.077565200000000,,0x8E,0x00
6.080541800000000,,0x00,0x0F
6.083518200000000,,0x10,0x20
6.086494800000000,,0x09,0x04
6.089471200000000,,0x80,0x00
6.092447800000000,,0x4C,0x9B
6.128813400000000,,0xB0,0x0B
6.131141800000000,,0x00,0x01
6.134118400000000,,0x20,0x07
6.137095000000000,,0x06,0x00
6.140071400000000,,0x00,0x0F
6.143048200000000,,0x10,0x20
6.146024600000000,,0x09,0x04
6.149001200000000,,0x80,0x00
6.151978000000000,,0xC4,0x9B
6.188173400000000,,0xB0,0x0B
6.190674600000000,,0x00,0x01
6.193651200000000,,0x20,0x07
6.196627800000000,,0x8E,0x00
6.199604400000000,,0x00,0x0F
6.202581000000000,,0x10,0x20
6.205557600000000,,0x09,0x04
6.208534200000000,,0x80,0x00
6.211510600000000,,0x4C,0x9B
6.248099400000000,,0xB0,0x0B
6.250206000000000,,0x00,0x01
6.253182800000000,,0x20,0x07
6.256159400000000,,0x06,0x00
6.259136000000000,,0x00,0x0F
6.262112800000000,,0x10,0x20
6.265089400000000,,0x09,0x04
6.268066000000000,,0x80,0x00
6.271042800000000,,0xC4,0x9B
6.307477000000000,,0xB0,0x0B
6.309739200000000,,0x00,0x01
6.312715800000000,,0x20,0x07
6.315692400000000,,0x8E,0x00
6.318669000000000,,0x00,0x0F
6.321645400000000,,0x10,0x20
6.324622200000000,,0x09,0x04
6.327598600000000,,0x80,0x00
6.330575400000000,,0x4C,0x9B
6.366839800000000,,0xB0,0x0B
6.369271600000000,,0x00,0x01
6.372248600000000,,0x20,0x07
6.375225200000000,,0x06,0x00
6.378201800000000,,0x00,0x0F
6.381178400000000,,0x10,0x20
6.384155000000000,,0x09,0x04
6.387131800000000,,0x80,0x00
6.390108400000000,,0xC4,0x9B
6.426645600000000,,0xB0,0x0B
6.428805600000000,,0x00,0x01
6.431782400000000,,0x20,0x07
6.434759200000000,,0x8E,0x00
6.437735800000000,,0x00,0x0F
6.440712600000000,,0x10,0x20
6.443689200000000,,0x0A,0x04
6.446665800000000,,0x80,0x00
6.449642600000000,,0x4D,0x9B
6.486004600000000,,0xB0,0x0B
6.488337600000000,,0x00,0x01
6.491314000000000,,0x20,0x07
6.494290600000000,,0x06,0x00
6.497267000000000,,0x00,0x0F
6.500243600000000,,0x10,0x20
6.503220000000000,,0x0A,0x04
6.506196600000000,,0x80,0x00
6.509173000000000,,0xC5,0x9B
6.545379800000000,,0xB0,0x0B
6.547867400000000,,0x00,0x01
6.550844000000000,,0x20,0x07
6.553820400000000,,0x8E,0x00
6.556796800000000,,0x00,0x0F
6.559773400000000,,0x10,0x20
6.562749800000000,,0x0A,0x04
6.565726200000000,,0x80,0x00
6.568702600000000,,0x4D,0x9B
6.605302200000000,,0xB0,0x0B
6.607399400000000,,0x00,0x01
6.610375800000000,,0x20,0x07
6.613352400000000,,0x06,0x00
6.616328800000000,,0x00,0x0F
6.619305200000000,,0x10,0x20
6.622281800000000,,0x0A,0x04
6.625258200000000,,0x80,0x00
6.628234600000000,,0xC5,0x9B
6.664621400000000,,0xB0,0x0B
6.666928200000000,,0x00,0x01
6.669904600000000,,0x20,0x07
6.672881200000000,,0x8E,0x00
6.675857400000000,,0x00,0x0F
6.678833800000000,,0x10,0x20
6.681810000000000,,0x0A,0x04
6.684786400000000,,0x80,0x00
6.687762800000000,,0x4D,0x9B
6.723998200000000,,0xB0,0x0B
6.726455600000000,,0x00,0x01
6.729432000000000,,0x20,0x07
6.732408600000000,,0x06,0x00
6.735384800000000,,0x00,0x0F
6.738361200000000,,0x10,0x20
6.741338000000000,,0x0A,0x04
6.744314400000000,,0x80,0x00
6.747290800000000,,0xC5,0x9B
6.783354800000000,,0xB0,0x0B
6.785983800000000,,0x00,0x01
6.788960400000000,,0x20,0x07
6.791936800000000,,0x8E,0x00
6.794913000000000,,0x00,0x0F
6.797889600000000,,0x10,0x20
6.800866000000000,,0x0A,0x04
6.803842400000000,,0x80,0x00
6.806818800000000,,0x4D,0x9B
6.843277200000000,,0xB0,0x0B
6.845512000000000,,0x00,0x01
6.848488400000000,,0x20,0x07
6.851464800000000,,0x06,0x00
6.854441000000000,,0x00,0x0F
6.857417400000000,,0x10,0x20
6.860393800000000,,0x0A,0x04
6.863370200000000,,0x80,0x00
6.866346600000000,,0xC5,0x9B
6.902646800000000,,0xB0,0x0B
6.905039600000000,,0x00,0x01
6.908016000000000,,0x20,0x07
6.910992400000000,,0x8E,0x00
6.913968600000000,,0x00,0x0F
6.916945000000000,,0x10,0x20
6.919921400000000,,0x0A,0x04
6.922897800000000,,0x80,0x00
6.925874000000000,,0x4D,0x9B
6.962001600000000,,0xB0,0x0B
6.964568600000000,,0x00,0x01
6.967545000000000,,0x20,0x07
6.970521400000000,,0x06,0x00
6.973497800000000,,0x00,0x0F
6.976474200000000,,0x10,0x20
6.979450600000000,,0x0A,0x04
6.982427000000000,,0x80,0x00
6.985403400000000,,0xC5,0x9B
7.021923800000000,,0xB0,0x0B
7.024096600000000,,0x00,0x01
7.027072800000000,,0x20,0x07
7.030049400000000,,0x8E,0x00
7.033025600000000,,0x00,0x0F
7.036001800000000,,0x10,0x20
7.038978000000000,,0x0A,0x04
7.041954200000000,,0x80,0x00
7.044930400000000,,0x4D,0x9B
7.081275000000000,,0xB0,0x0B
7.083622400000000,,0x00,0x01
7.086598800000000,,0x20,0x07
7.089575200000000,,0x06,0x00
7.092551800000000,,0x00,0x0F
7.095528000000000,,0x10,0x20
7.098504400000000,,0x0A,0x04
7.101480800000000,,0x80,0x00
7.104457000000000,,0xC5,0x9B
7.140645400000000,,0xB0,0x0B
7.143149200000000,,0x00,0x01
7.146125400000000,,0x20,0x07
7.149101800000000,,0x8E,0x00
7.152078000000000,,0x00,0x0F
7.155054200000000,,0x10,0x20
7.158030400000000,,0x0A,0x04
7.161006800000000,,0x80,0x00
7.163983200000000,,0x4D,0x9B
7.200563000000000,,0xB0,0x0B
7.202677400000000,,0x00,0x01
7.205653800000000,,0x20,0x07
7.208630400000000,,0x06,0x00
7.211606800000000,,0x00,0x0F
7.214583200000000,,0x10,0x20
7.217559600000000,,0x0A,0x04
7.220536000000000,,0x80,0x00
7.223512400000000,,0xC5,0x9B
7.259917000000000,,0xB0,0x0B
7.262205600000000,,0x00,0x01
7.265182000000000,,0x20,0x07
7.268158400000000,,0x8E,0x00
7.271135000000000,,0x00,0x0F
7.274111400000000,,0x10,0x20
7.277087800000000,,0x0A,0x04
7.280064200000000,,0x80,0x00
7.283040600000000,,0x4D,0x9B
7.319287600000000,,0xB0,0x0B
7.321732400000000,,0x00,0x01
7.324708600000000,,0x20,0x07
7.327685000000000,,0x06,0x00
7.330661200000000,,0x00,0x0F
7.333637600000000,,0x10,0x20
7.336613800000000,,0x0A,0x04
7.339590400000000,,0x80,0x00
7.342566800000000,,0xC5,0x9B
7.378641600000000,,0xB0,0x0B
7.381260600000000,,0x00,0x01
7.384237200000000,,0x20,0x07
7.387213800000000,,0x8E,0x00
7.390190400000000,,0x00,0x0F
7.393167000000000,,0x10,0x20
7.396143400000000,,0x0A,0x04
7.399119800000000,,0x80,0x00
7.402096000000000,,0x4D,0x9B
7.438435200000000,,0xB0,0x0B
7.440789600000000,,0x00,0x01
7.443766000000000,,0x20,0x07
7.446742600000000,,0x06,0x00
7.449719000000000,,0x00,0x0F
7.452695600000000,,0x10,0x20
7.455672000000000,,0x0B,0x04
7.458648600000000,,0x80,0x00
7.461625000000000,,0xC6,0x9B
7.497807000000000,,0xB0,0x0B
7.500318000000000,,0x00,0x01
7.503294200000000,,0x20,0x07
7.506270600000000,,0x8E,0x00
7.509247200000000,,0x00,0x0F
7.512223600000000,,0x10,0x20
7.515199800000000,,0x0B,0x04
7.518176400000000,,0x80,0x00
7.521153000000000,,0x4E,0x9B
7.557713200000000,,0xB0,0x0B
7.559846600000000,,0x00,0x01
7.562823000000000,,0x20,0x07
7.565799400000000,,0x06,0x00
7.568776000000000,,0x00,0x0F
7.571752400000000,,0x10,0x24
7.574728800000000,,0x0B,0x04
7.577705200000000,,0x80,0x00
7.580681600000000,,0xC6,0x9F
7.617081400000000,,0xB0,0x0B
7.619375000000000,,0x00,0x01
7.622351400000000,,0x20,0x07
7.625327600000000,,0x8E,0x00
7.628304200000000,,0x00,0x0F
7.631280600000000,,0x10,0x24
7.634257000000000,,0x0B,0x04
7.637233200000000,,0x80,0x00
7.640209800000000,,0x4E,0x9F
7.676438400000000,,0xB0,0x0B
7.678902800000000,,0x00,0x01
7.681879200000000,,0x20,0x07
7.684855800000000,,0x06,0x00
7.687832200000000,,0x00,0x0F
7.690808800000000,,0x10,0x24
7.693785200000000,,0x0B,0x04
7.696761600000000,,0x80,0x00
7.699738200000000,,0xC6,0x9F
7.735816000000000,,0xB0,0x0B
7.738432400000000,,0x00,0x01
7.741408800000000,,0x20,0x07
7.744385400000000,,0x8E,0x00
7.747362000000000,,0x00,0x0F
7.750338600000000,,0x10,0x24
7.753315200000000,,0x0B,0x04
7.756291800000000,,0x80,0x00
7.759268400000000,,0x4E,0x9F
7.795736000000000,,0xB0,0x0B
7.797963000000000,,0x00,0x01
7.800939600000000,,0x20,0x07
7.803916000000000,,0x06,0x00
7.806892400000000,,0x00,0x0F
7.809869000000000,,0x10,0x24
7.812845400000000,,0x0B,0x04
7.815821800000000,,0x80,0x00
7.818798400000000,,0xC6,0x9F
7.855090600000000,,0xB0,0x0B
7.857491800000000,,0x00,0x01
7.860468200000000,,0x20,0x07
7.863444800000000,,0x8E,0x00
7.866421200000000,,0x00,0x0F
7.869397600000000,,0x10,0x24
7.872373800000000,,0x0B,0x04
7.875350200000000,,0x80,0x00
7.878326400000000,,0x4E,0x9F
7.914460600000000,,0xB0,0x0B
7.917018200000000,,0x00,0x01
7.919994400000000,,0x20,0x07
7.922970600000000,,0x06,0x00
7.925946600000000,,0x00,0x0F
7.928922800000000,,0x10,0x24
7.931898800000000,,0x0B,0x04
7.934875000000000,,0x80,0x00
7.937851400000000,,0xC6,0x9F
7.974361200000000,,0xB0,0x0B
7.976543000000000,,0x00,0x01
7.979519600000000,,0x20,0x07
7.982495800000000,,0x8E,0x00
7.985472000000000,,0x00,0x0F
7.988448200000000,,0x10,0x24
7.991424600000000,,0x0B,0x04
7.994401000000000,,0x80,0x00
7.997377200000000,,0x4E,0x9F
8.033732600000000,,0xB0,0x0B
8.036071600000000,,0x00,0x01
8.039048200000000,,0x20,0x07
8.042024600000000,,0x06,0x00
8.045001200000000,,0x00,0x0F
8.047977599999999,,0x10,0x24
8.050954200000000,,0x0B,0x04
8.053930599999999,,0x80,0x00
8.056907199999999,,0xC6,0x9F
8.093105599999999,,0xB0,0x0B
8.095600200000000,,0x00,0x01
8.098576800000000,,0x20,0x08
8.101553200000000,,0x8E,0x00
8.104529599999999,,0x00,0x0F
8.107506200000000,,0x10,0x24
8.110482599999999,,0x0B,0x04
8.113459199999999,,0x80,0x00
8.116435600000001,,0x4E,0xA0
8.153013200000000,,0xB0,0x0B
8.155131600000001,,0x00,0x01
8.158108000000000,,0x20,0x08
8.161084400000000,,0x06,0x00
8.164060800000000,,0x00,0x0F
8.167037199999999,,0x10,0x24
8.170013400000000,,0x0B,0x04
8.172989599999999,,0x80,0x00
8.175966000000001,,0xC6,0xA0
8.212383000000001,,0xB0,0x0B
8.214656400000001,,0x00,0x01
8.217632800000001,,0x20,0x08
8.220609200000000,,0x8E,0x00
8.223585399999999,,0x00,0x0F
8.226561600000000,,0x10,0x24
8.229537799999999,,0x0B,0x04
8.232514200000001,,0x80,0x00
8.235490400000000,,0x4E,0xA0
8.271735400000001,,0xB0,0x0B
8.274180400000001,,0x00,0x01
8.277156600000000,,0x20,0x08
8.280132800000001,,0x06,0x00
8.283109200000000,,0x00,0x0F
8.286085399999999,,0x10,0x24
8.289061800000001,,0x0B,0x04
8.292038000000000,,0x80,0x00
8.295014399999999,,0xC6,0xA0
8.331103799999999,,0xB0,0x0B
8.333706400000001,,0x00,0x01
8.336682800000000,,0x20,0x08
8.339658999999999,,0x8E,0x00
8.342635400000001,,0x00,0x0F
8.345611800000000,,0x10,0x24
8.348587800000001,,0x0B,0x04
8.351564000000000,,0x80,0x00
8.354540399999999,,0x4E,0xA0
8.391037200000000,,0xB0,0x0B
8.393230600000001,,0x00,0x01
8.396206800000000,,0x20,0x08
8.399183000000001,,0x06,0x00
8.402159400000000,,0x00,0x0F
8.405135599999999,,0x10,0x24
8.408111999999999,,0x0B,0x04
8.411088200000000,,0x80,0x00
8.414064400000001,,0xC6,0xA0
8.450249200000000,,0xB0,0x0B
8.452755600000000,,0x00,0x01
8.455731999999999,,0x20,0x08
8.458708600000000,,0x8E,0x00
8.461684999999999,,0x00,0x0F
8.464661400000001,,0x10,0x24
8.467637800000000,,0x0C,0x04
8.470614200000000,,0x80,0x00
8.473590400000001,,0x4F,0xA0
8.510168400000000,,0xB0,0x0B
8.512282799999999,,0x00,0x01
8.515259199999999,,0x20,0x08
8.518235600000001,,0x06,0x00
8.521212000000000,,0x00,0x0F
8.524188400000000,,0x10,0x24
8.527164600000001,,0x0C,0x04
8.530141000000000,,0x80,0x00
8.533117400000000,,0xC7,0xA0
8.569522200000000,,0xB0,0x0B
8.571810200000000,,0x00,0x01
8.574786599999999,,0x20,0x08
8.577762800000000,,0x8E,0x00
8.580739200000000,,0x00,0x0F
8.583715600000000,,0x10,0x24
8.586691999999999,,0x0C,0x04
8.589668400000001,,0x80,0x00
8.592644600000000,,0x4F,0xA0
8.628893400000001,,0xB0,0x0B
8.631337200000001,,0x00,0x01
8.634313600000000,,0x20,0x08
8.637289800000000,,0x06,0x00
8.640266199999999,,0x00,0x0F
8.643242600000001,,0x10,0x24
8.646218800000000,,0x0C,0x04
8.649195199999999,,0x80,0x00
8.652171600000001,,0xC7,0xA0
8.688273600000000,,0xB0,0x0B
8.690865600000000,,0x00,0x01
8.693842200000001,,0x20,0x08
8.696818600000000,,0x8E,0x00
8.699795000000000,,0x00,0x0F
8.702771400000000,,0x10,0x24
8.705747799999999,,0x0C,0x04
8.708724200000001,,0x80,0x00
8.711700400000000,,0x4F,0xA0
8.748177399999999,,0xB0,0x0B
8.750393799999999,,0x00,0x01
8.753370200000001,,0x20,0x08
8.756346600000001,,0x06,0x00
8.759323000000000,,0x00,0x0F
8.762299400000000,,0x10,0x24
8.765276000000000,,0x0C,0x04
8.768252400000000,,0x80,0x00
8.771229000000000,,0xC7,0xA0
8.807551600000000,,0xB0,0x0B
8.809924600000000,,0x00,0x01
8.812901000000000,,0x20,0x08
8.815877600000000,,0x8E,0x00
8.818854200000001,,0x00,0x0F
8.821830800000001,,0x10,0x24
8.824807399999999,,0x0C,0x04
8.827783999999999,,0x80,0x00
8.830760400000001,,0x4F,0xA0
8.866909600000000,,0xB0,0x0B
8.869455600000000,,0x00,0x01
8.872432200000000,,0x20,0x08
8.875408999999999,,0x06,0x00
8.878385600000000,,0x00,0x0F
8.881362400000000,,0x10,0x24
8.884339199999999,,0x0C,0x04
8.887315800000000,,0x80,0x00
8.890292600000000,,0xC7,0xA0
8.926835400000000,,0xB0,0x0B
8.928989600000000,,0x00,0x01
8.931966200000000,,0x20,0x08
8.934943000000001,,0x8E,0x00
8.937919600000001,,0x00,0x0F
8.940896199999999,,0x10,0x24
8.943873000000000,,0x0C,0x04
8.946849600000000,,0x80,0x00
8.949826399999999,,0x4F,0xA0
8.986209400000000,,0xB0,0x0B
8.988521000000000,,0x00,0x01
8.991497400000000,,0x20,0x08
8.994473800000000,,0x06,0x00
8.997450199999999,,0x00,0x0F
9.000426800000000,,0x10,0x24
9.003403000000000,,0x0C,0x04
9.006379400000000,,0x80,0x00
9.009356000000000,,0xC7,0xA0
9.045566000000001,,0xB0,0x0B
9.048049199999999,,0x00,0x01
9.051025599999999,,0x20,0x08
9.054002199999999,,0x8E,0x00
9.056978600000001,,0x00,0x0F
9.059955199999999,,0x10,0x24
9.062931799999999,,0x0C,0x04
9.065908400000000,,0x80,0x00
9.068885000000000,,0x4F,0xA0
9.104939200000000,,0xB0,0x0B
9.107578200000001,,0x00,0x01
9.110554799999999,,0x20,0x08
9.113531000000000,,0x06,0x00
9.116507400000000,,0x00,0x0F
9.119483799999999,,0x10,0x20
9.122460200000001,,0x0C,0x04
9.125436400000000,,0x80,0x00
9.128412800000000,,0xC7,0x9C
9.164843800000000,,0xB0,0x0B
9.167107400000001,,0x00,0x01
9.170083800000000,,0x20,0x08
9.173060400000001,,0x8E,0x00
9.176036800000000,,0x00,0x0F
9.179013200000000,,0x10,0x20
9.181989600000000,,0x0C,0x04
9.184965999999999,,0x80,0x00
9.187942200000000,,0x4F,0x9C
9.224215800000000,,0xB0,0x0B
9.226635999999999,,0x00,0x01
9.229612200000000,,0x20,0x08
9.232588600000000,,0x06,0x00
9.235564999999999,,0x00,0x0F
9.238541400000001,,0x10,0x20
9.241517999999999,,0x0C,0x04
9.244494400000001,,0x80,0x00
9.247471000000001,,0xC7,0x9C
9.283588600000000,,0xB0,0x0B
9.286164599999999,,0x00,0x01
9.289141000000001,,0x20,0x08
9.292117400000000,,0x8E,0x00
9.295094000000001,,0x00,0x0F
9.298070400000000,,0x10,0x20
9.301046800000000,,0x0C,0x04
9.304023200000000,,0x80,0x00
9.306999599999999,,0x4F,0x9C
9.343495000000001,,0xB0,0x0B
9.345694200000001,,0x00,0x01
9.348670800000001,,0x20,0x08
9.351647200000000,,0x06,0x00
9.354623800000001,,0x00,0x0F
9.357600200000000,,0x10,0x20
9.360576800000000,,0x0C,0x04
9.363553200000000,,0x80,0x00
9.366529600000000,,0xC7,0x9C
9.402730999999999,,0xB0,0x0B
9.405222600000000,,0x00,0x01
9.408199000000000,,0x20,0x08
9.411175399999999,,0x8E,0x00
9.414151600000000,,0x00,0x0F
9.417128000000000,,0x10,0x20
9.420104400000000,,0x0D,0x04
9.423080799999999,,0x80,0x00
9.426057200000001,,0x50,0x9C
9.462638000000000,,0xB0,0x0B
9.464752400000000,,0x00,0x01
9.467728800000000,,0x20,0x08
9.470705400000000,,0x06,0x00
9.473681800000000,,0x00,0x0F
9.476658199999999,,0x10,0x20
9.479634400000000,,0x0D,0x04
9.482611000000000,,0x80,0x00
9.485587400000000,,0xC8,0x9C
9.522009199999999,,0xB0,0x0B
9.524280200000000,,0x00,0x01
9.527256599999999,,0x20,0x08
9.530233000000001,,0x8E,0x00
9.533209400000000,,0x00,0x0F
9.536186000000001,,0x10,0x20
9.539162400000000,,0x0D,0x04
9.542138800000000,,0x80,0x00
9.545115200000000,,0x50,0x9C
9.581383000000001,,0xB0,0x0B
9.583808800000000,,0x00,0x01
9.586785000000001,,0x20,0x08
9.589761400000000,,0x06,0x00
9.592737800000000,,0x00,0x0F
9.595713999999999,,0x10,0x20
9.598690400000001,,0x0D,0x04
9.601666800000000,,0x80,0x00
9.604643200000000,,0xC8,0x9C
9.640737000000000,,0xB0,0x0B
9.643335799999999,,0x00,0x01
9.646312000000000,,0x20,0x08
9.649288400000000,,0x8E,0x00
9.652265000000000,,0x00,0x0F
9.655241400000000,,0x10,0x20
9.658217799999999,,0x0D,0x04
9.661194399999999,,0x80,0x00
9.664171000000000,,0x50,0x9C
9.700667599999999,,0xB0,0x0B
9.702864399999999,,0x00,0x01
9.705840800000001,,0x20,0x08
9.708817200000000,,0x06,0x00
9.711793600000000,,0x00,0x0F
9.714770000000000,,0x10,0x20
9.717746200000001,,0x0D,0x04
9.720722600000000,,0x80,0x00
9.723698799999999,,0xC8,0x9C
9.760020000000001,,0xB0,0x0B
9.762392800000001,,0x00,0x01
9.765369000000000,,0x20,0x08
9.768345200000001,,0x8E,0x00
9.771321800000001,,0x00,0x0F
9.774298200000000,,0x10,0x20
9.777274400000000,,0x0D,0x04
9.780250799999999,,0x80,0x00
9.783227399999999,,0x50,0x9C
9.819395000000000,,0xB0,0x0B
9.821922799999999,,0x00,0x01
9.824899200000001,,0x20,0x08
9.827875799999999,,0x06,0x00
9.830852399999999,,0x00,0x0F
9.833829000000000,,0x10,0x20
9.836805399999999,,0x0D,0x04
9.839782000000000,,0x80,0x00
9.842758600000000,,0xC8,0x9C
9.879319199999999,,0xB0,0x0B
9.881453199999999,,0x00,0x01
9.884429799999999,,0x20,0x08
9.887406199999999,,0x8E,0x00
9.890382600000001,,0x00,0x0F
9.893359200000001,,0x10,0x20
9.896335799999999,,0x0D,0x04
9.899312399999999,,0x80,0x00
9.902289200000000,,0x50,0x9C
9.938676800000000,,0xB0,0x0B
9.940983400000000,,0x00,0x01
9.943960199999999,,0x20,0x08
9.946936600000001,,0x06,0x00
9.949913000000000,,0x00,0x0F
9.952889400000000,,0x10,0x20
9.955865800000000,,0x0D,0x04
9.958842000000001,,0x80,0x00
9.961818400000000,,0xC8,0x9C
9.998048199999999,,0xB0,0x0B
10.000513000000000,,0x00,0x01
10.003489600000000,,0x20,0x08
10.006466200000000,,0x8E,0x00
10.009442800000000,,0x00,0x0F
10.012419400000001,,0x10,0x20
10.015396000000001,,0x0D,0x04
10.018372400000001,,0x80,0x00
10.021349000000001,,0x50,0x9C
10.057408000000001,,0xB0,0x0B
10.060045000000001,,0x00,0x01
10.063021600000001,,0x20,0x08
10.065998199999999,,0x06,0x00
10.068974799999999,,0x00,0x0F
10.071951400000000,,0x10,0x20
10.074928200000000,,0x0D,0x04
10.077904999999999,,0x80,0x00
10.080882000000001,,0xC8,0x9C
10.117334200000000,,0xB0,0x0B
10.119578000000001,,0x00,0x01
10.122554600000001,,0x20,0x08
10.125531199999999,,0x8E,0x00
10.128507800000000,,0x00,0x0F
10.131484400000000,,0x10,0x20
10.134461200000001,,0x0D,0x04
10.137437800000001,,0x80,0x00
10.140414399999999,,0x50,0x9C
10.176711800000000,,0xB0,0x0B
10.179110800000000,,0x00,0x01
10.182087400000000,,0x20,0x08
10.185064000000001,,0x06,0x00
10.188040400000000,,0x00,0x0F
10.191017000000000,,0x10,0x20
10.193993600000001,,0x0D,0x04
10.196970200000001,,0x80,0x00
10.199946600000001,,0xC8,0x9C
10.236070600000000,,0xB0,0x0B
10.238642000000000,,0x00,0x01
10.241618600000001,,0x20,0x08
10.244595199999999,,0x8E,0x00
10.247571799999999,,0x00,0x0F
10.250548200000001,,0x10,0x20
10.253524799999999,,0x0D,0x04
10.256501200000001,,0x80,0x00
10.259477800000001,,0x50,0x9C
10.295994600000000,,0xB0,0x0B
10.298173000000000,,0x00,0x01
10.301149600000000,,0x20,0x08
10.304126000000000,,0x06,0x00
10.307102600000000,,0x00,0x0F
10.310079200000001,,0x10,0x20
10.313055800000001,,0x0D,0x04
10.316032399999999,,0x80,0x00
10.319008999999999,,0xC8,0x9C
10.355351000000001,,0xB0,0x0B
10.357704000000000,,0x00,0x01
10.360680600000000,,0x20,0x08
10.363657200000000,,0x8E,0x00
10.366633600000000,,0x00,0x0F
10.369610399999999,,0x10,0x20
10.372586999999999,,0x0D,0x04
10.375563600000000,,0x80,0x00
10.378539999999999,,0x50,0x9C
10.414592200000000,,0xB0,0x0B
10.417234400000000,,0x00,0x01
10.420211200000001,,0x20,0x08
10.423187799999999,,0x06,0x00
10.426164399999999,,0x00,0x0F
10.429140800000001,,0x10,0x20
10.432117399999999,,0x0E,0x04
10.435093800000001,,0x80,0x00
10.438070400000001,,0xC9,0x9C
10.474517000000001,,0xB0,0x0B
10.476766400000001,,0x00,0x01
10.479742999999999,,0x20,0x08
10.482719599999999,,0x8E,0x00
10.485696400000000,,0x00,0x0F
10.488672800000000,,0x10,0x20
10.491649199999999,,0x0E,0x04
10.494625800000000,,0x80,0x00
10.497602400000000,,0x51,0x9C
10.533877600000000,,0xB0,0x0B
10.536298600000000,,0x00,0x01
10.539275200000001,,0x20,0x08
10.542251800000001,,0x06,0x00
10.545228600000000,,0x00,0x0F
10.548205200000000,,0x10,0x20
10.551181800000000,,0x0E,0x04
10.554158400000000,,0x80,0x00
10.557134800000000,,0xC9,0x9C
10.593254200000001,,0xB0,0x0B
10.595830599999999,,0x00,0x01
10.598807200000000,,0x20,0x08
10.601784000000000,,0x8E,0x00
10.604760600000001,,0x00,0x0F
10.607737000000000,,0x10,0x20
10.610713600000000,,0x0E,0x04
10.613690399999999,,0x80,0x00
10.616667000000000,,0x51,0x9C
10.653162000000000,,0xB0,0x0B
10.655360800000000,,0x00,0x01
10.658337200000000,,0x20,0x08
10.661313600000000,,0x06,0x00
10.664289800000001,,0x00,0x0F
10.667266200000000,,0x10,0x20
10.670242800000000,,0x0E,0x04
10.673219200000000,,0x80,0x00
10.676195800000000,,0xC9,0x9C
10.712539599999999,,0xB0,0x0B
10.714888400000000,,0x00,0x01
10.717864799999999,,0x20,0x08
10.720841399999999,,0x8E,0x00
10.723817800000001,,0x00,0x0F
10.726794399999999,,0x10,0x20
10.729770600000000,,0x0E,0x04
10.732747200000000,,0x80,0x00
10.735723600000000,,0x51,0x9C
10.771912199999999,,0xB0,0x0B
10.774415200000000,,0x00,0x01
10.777391400000001,,0x20,0x08
10.780367800000000,,0x06,0x00
10.783344200000000,,0x00,0x0F
10.786320600000000,,0x10,0x20
10.789296800000001,,0x0E,0x04
10.792273399999999,,0x80,0x00
10.795249800000001,,0xC9,0x9C
10.831819599999999,,0xB0,0x0B
10.833946200000000,,0x00,0x01
10.836922800000000,,0x20,0x08
10.839899200000000,,0x8E,0x00
10.842875800000000,,0x00,0x0F
10.845852199999999,,0x10,0x20
10.848828599999999,,0x0E,0x04
10.851805000000001,,0x80,0x00
10.854781400000000,,0x51,0x9C
10.891192800000001,,0xB0,0x0B
10.893476000000000,,0x00,0x01
10.896452399999999,,0x20,0x08
10.899428800000001,,0x06,0x00
10.902405399999999,,0x00,0x0F
10.905381800000001,,0x10,0x20
10.908358000000000,,0x0E,0x04
10.911334600000000,,0x80,0x00
10.914310800000001,,0xC9,0x9C
10.950549600000000,,0xB0,0x0B
10.953004800000000,,0x00,0x01
10.955981200000000,,0x20,0x08
10.958957600000000,,0x8E,0x00
10.961933999999999,,0x00,0x0F
10.964910400000001,,0x10,0x20
10.967886999999999,,0x0E,0x04
10.970863599999999,,0x80,0x00
10.973839999999999,,0x51,0x9C
11.009921600000000,,0xB0,0x0B
11.012534600000000,,0x00,0x01
11.015511200000001,,0x20,0x08
11.018487600000000,,0x06,0x00
11.021464399999999,,0x00,0x0F
11.024440999999999,,0x10,0x20
11.027417399999999,,0x0E,0x04
11.030393999999999,,0x80,0x00
11.033370800000000,,0xC9,0x9C
11.069846999999999,,0xB0,0x0B
11.072066200000000,,0x00,0x01
11.075042800000000,,0x20,0x08
11.078019200000000,,0x8E,0x00
11.080995800000000,,0x00,0x0F
11.083972400000000,,0x10,0x20
11.086949000000001,,0x0E,0x04
11.089925600000001,,0x80,0x00
11.092902199999999,,0x51,0x9C
11.129204000000000,,0xB0,0x0B
11.131596800000001,,0x00,0x01
11.134573200000000,,0x20,0x08
11.137549600000000,,0x06,0x00
11.140525999999999,,0x00,0x0F
11.143502399999999,,0x10,0x20
11.146478800000001,,0x0E,0x04
11.149455200000000,,0x80,0x00
11.152431600000000,,0xC9,0x9C
11.188572199999999,,0xB0,0x0B
11.191124400000000,,0x00,0x01
11.194101000000000,,0x20,0x08
11.197077600000000,,0x8E,0x00
11.200054000000000,,0x00,0x0F
11.203030600000000,,0x10,0x20
11.206007000000000,,0x0E,0x04
11.208983399999999,,0x80,0x00
11.211959999999999,,0x51,0x9C
11.248478800000001,,0xB0,0x0B
11.250652600000000,,0x00,0x01
11.253629000000000,,0x20,0x08
11.256605400000000,,0x06,0x00
11.259581600000001,,0x00,0x0F
11.262558000000000,,0x10,0x20
11.265534199999999,,0x0E,0x04
11.268510600000001,,0x80,0x00
11.271487000000000,,0xC9,0x9C
11.307850200000001,,0xB0,0x0B
11.310181000000000,,0x00,0x01
11.313157600000000,,0x20,0x08
11.316134200000000,,0x8E,0x00
11.319110600000000,,0x00,0x0F
11.322087200000000,,0x10,0x20
11.325063800000001,,0x0E,0x04
11.328040200000000,,0x80,0x00
11.331016800000000,,0x51,0x9C
11.367236999999999,,0xB0,0x0B
11.369711000000001,,0x00,0x01
11.372687600000001,,0x20,0x08
11.375664000000000,,0x06,0x00
11.378640600000001,,0x00,0x0F
11.381617200000001,,0x10,0x20
11.384593600000001,,0x0E,0x04
11.387570200000001,,0x80,0x00
11.390546600000000,,0xC9,0x9C
11.427000800000000,,0xB0,0x0B
11.429240399999999,,0x00,0x01
11.432216800000001,,0x20,0x08
11.435193399999999,,0x8E,0x00
11.438169800000001,,0x00,0x0F
11.441146200000000,,0x10,0x20
11.444122600000000,,0x0F,0x04
11.447099000000000,,0x80,0x00
11.450075600000000,,0x52,0x9C
11.486374400000001,,0xB0,0x0B
11.488770400000000,,0x00,0x01
11.491747000000000,,0x20,0x08
11.494723600000000,,0x06,0x00
11.497700200000001,,0x00,0x0F
11.500676600000000,,0x10,0x20
11.503653200000000,,0x0F,0x04
11.506629600000000,,0x80,0x00
11.509606200000000,,0xCA,0x9C
11.545733400000000,,0xB0,0x0B
11.548299800000001,,0x00,0x01
11.551276400000001,,0x20,0x08
11.554252999999999,,0x8E,0x00
11.557229599999999,,0x00,0x0F
11.560206200000000,,0x10,0x20
11.563182800000000,,0x0F,0x04
11.566159200000000,,0x80,0x00
11.569135599999999,,0x52,0x9C
11.605657600000001,,0xB0,0x0B
11.607829400000000,,0x00,0x01
11.610805800000000,,0x20,0x08
11.613782000000000,,0x06,0x00
11.616758200000000,,0x00,0x0F
11.619734400000000,,0x10,0x20
11.622710800000000,,0x0F,0x04
11.625686999999999,,0x80,0x00
11.628663400000001,,0xCA,0x9C
11.665034800000001,,0xB0,0x0B
11.667357400000000,,0x00,0x01
11.670333800000000,,0x20,0x08
11.673310400000000,,0x8E,0x00
11.676286800000000,,0x00,0x0F
11.679263400000000,,0x10,0x20
11.682240000000000,,0x0F,0x04
11.685216400000000,,0x80,0x00
11.688192600000001,,0x52,0x9C
11.724390600000000,,0xB0,0x0B
11.726886600000000,,0x00,0x01
11.729863000000000,,0x20,0x08
11.732839600000000,,0x06,0x00
11.735816000000000,,0x00,0x0F
11.738792600000000,,0x10,0x20
11.741769000000000,,0x0F,0x04
11.744745600000000,,0x80,0x00
11.747722000000000,,0xCA,0x9C
11.784313600000001,,0xB0,0x0B
11.786414600000001,,0x00,0x07
11.789391000000000,,0x20,0x00
11.792367600000000,,0x8E,0x28
11.795344000000000,,0x00,0x0F
11.798320400000000,,0x10,0x20
11.801296799999999,,0x0F,0x04
11.804273200000001,,0x80,0x00
11.807249600000000,,0x52,0xC2
11.843300200000000,,0xB0,0x0B
11.845943000000000,,0x00,0x07
11.848919400000000,,0x20,0x00
11.851895799999999,,0x06,0x28
11.854872400000000,,0x00,0x0F
11.857848799999999,,0x10,0x20
11.860825200000001,,0x0F,0x04
11.863801600000000,,0x80,0x00
11.866778200000001,,0xCA,0xC2
11.903317400000001,,0xB0,0x0B
11.905472400000001,,0x00,0x07
11.908448999999999,,0x20,0x00
11.911425400000001,,0x8E,0x28
11.914402000000001,,0x00,0x0F
11.917378400000000,,0x10,0x20
11.920354800000000,,0x0F,0x04
11.923331200000000,,0x80,0x00
11.926307599999999,,0x52,0xC2
11.962378200000000,,0xB0,0x0B
11.965001400000000,,0x00,0x07
11.967977800000000,,0x20,0x00
11.970954200000000,,0x06,0x28
11.973930599999999,,0x00,0x0F
11.976907000000001,,0x10,0x20
11.979883200000000,,0x0F,0x04
11.982859400000001,,0x80,0x00
11.985835800000000,,0xCA,0xC2
12.021996400000001,,0xB0,0x0B
12.024528399999999,,0x00,0x07
12.027504800000001,,0x20,0x00
12.030481200000001,,0x8E,0x28
12.033457400000000,,0x00,0x0F
12.036433799999999,,0x10,0x20
12.039410000000000,,0x0F,0x04
12.042386400000000,,0x80,0x00
12.045362799999999,,0x52,0xC2
12.081630000000001,,0xB0,0x0B
12.084055599999999,,0x00,0x07
12.087032000000001,,0x20,0x00
12.090008400000000,,0x06,0x28
12.092984800000000,,0x00,0x0F
12.095961200000000,,0x10,0x20
12.098937599999999,,0x0F,0x04
12.101914000000001,,0x80,0x00
12.104890599999999,,0xCA,0xC2
12.141251199999999,,0xB0,0x0B
12.143584600000001,,0x00,0x07
12.146561000000000,,0x20,0x00
12.149537400000000,,0x8E,0x28
12.152513799999999,,0x00,0x0F
12.155490400000000,,0x10,0x20
12.158466799999999,,0x0F,0x04
12.161443200000001,,0x80,0x00
12.164419600000000,,0x52,0xC2
12.200889399999999,,0xB0,0x0B
12.203112600000001,,0x00,0x07
12.206089000000000,,0x20,0x00
12.209065600000001,,0x06,0x28
12.212042000000000,,0x00,0x0F
12.215018600000001,,0x10,0x20
12.217995200000001,,0x0F,0x04
12.220971600000000,,0x80,0x00
12.223948000000000,,0xCA,0xC2
12.260529200000001,,0xB0,0x0B
12.262643799999999,,0x00,0x07
12.265620400000000,,0x20,0x00
12.268597000000000,,0x8E,0x28
12.271573800000001,,0x00,0x0F
12.274550400000001,,0x10,0x20
12.277526800000000,,0x0F,0x04
12.280503400000001,,0x80,0x00
12.283480000000001,,0x52,0xC2
12.319577199999999,,0xB0,0x0B
12.322175200000000,,0x00,0x07
12.325151800000000,,0x20,0x00
12.328128200000000,,0x06,0x28
12.331104800000000,,0x00,0x0F
12.334081400000001,,0x10,0x20
12.337058000000001,,0x0F,0x04
12.340034599999999,,0x80,0x00
12.343011199999999,,0xCA,0xC2
12.379327399999999,,0xB0,0x0B
12.381707199999999,,0x00,0x07
12.384683600000001,,0x20,0x00
12.387660000000000,,0x8E,0x28
12.390636600000001,,0x00,0x0F
12.393613000000000,,0x10,0x20
12.396589400000000,,0x10,0x04
12.399565800000000,,0x80,0x00
12.402542400000000,,0x53,0xC2
12.438851800000000,,0xB0,0x0B
12.441236600000000,,0x00,0x07
12.444213200000000,,0x20,0x00
12.447189600000000,,0x06,0x28
12.450165800000001,,0x00,0x0F
12.453142200000000,,0x10,0x20
12.456118600000000,,0x10,0x04
12.459095000000000,,0x80,0x00
12.462071399999999,,0xCB,0xC2
12.498393800000001,,0xB0,0x0B
12.500764999999999,,0x00,0x07
12.503741399999999,,0x20,0x00
12.506717800000001,,0x8E,0x28
12.509694400000001,,0x00,0x0F
12.512670800000000,,0x10,0x20
12.515647400000001,,0x10,0x04
12.518623800000000,,0x80,0x00
12.521600200000000,,0x53,0xC2
12.557935400000000,,0xB0,0x0B
12.560292799999999,,0x00,0x07
12.563269000000000,,0x20,0x00
12.566245400000000,,0x06,0x28
12.569221600000001,,0x00,0x0F
12.572198000000000,,0x10,0x20
12.575174199999999,,0x10,0x04
12.578150400000000,,0x80,0x00
12.581126599999999,,0xCB,0xC2
12.617457200000000,,0xB0,0x0B
12.619819000000000,,0x00,0x07
12.622795600000000,,0x20,0x00
12.625772000000000,,0x8E,0x28
12.628748200000000,,0x00,0x0F
12.631724400000000,,0x10,0x20
12.634700799999999,,0x10,0x04
12.637677200000001,,0x80,0x00
12.640653400000000,,0x53,0xC2
12.677175999999999,,0xB0,0x0B
12.679347800000000,,0x00,0x07
12.682324400000001,,0x20,0x00
12.685300800000000,,0x06,0x28
12.688277200000000,,0x00,0x0F
12.691253800000000,,0x10,0x20
12.694230200000000,,0x10,0x04
12.697206800000000,,0x80,0x00
12.700183200000000,,0xCB,0xC2
12.736750600000001,,0xB0,0x0B
12.738877000000000,,0x00,0x07
12.741853400000000,,0x20,0x00
12.744830000000000,,0x8E,0x28
12.747806400000000,,0x00,0x0F
12.750782800000000,,0x10,0x20
12.753759400000000,,0x10,0x04
12.756735800000000,,0x80,0x00
12.759712199999999,,0x53,0xC2
12.795762399999999,,0xB0,0x0B
12.798405799999999,,0x00,0x07
12.801382200000001,,0x20,0x00
12.804358799999999,,0x06,0x28
12.807335399999999,,0x00,0x0F
12.810312000000000,,0x10,0x20
12.813288600000000,,0x10,0x04
12.816265400000001,,0x80,0x00
12.819241600000000,,0xCB,0xC2
12.855352999999999,,0xB0,0x0B
12.857936000000000,,0x00,0x07
12.860912400000000,,0x20,0x00
12.863889000000000,,0x8E,0x28
12.866865600000001,,0x00,0x0F
12.869841800000000,,0x10,0x20
12.872818199999999,,0x10,0x04
12.875794800000000,,0x80,0x00
12.878771199999999,,0x53,0xC2
12.914925000000000,,0xB0,0x0B
12.917464600000001,,0x00,0x07
12.920441000000000,,0x20,0x00
12.923417400000000,,0x06,0x28
12.926393800000000,,0x00,0x0F
12.929370400000000,,0x10,0x20
12.932347000000000,,0x10,0x04
12.935323400000000,,0x80,0x00
12.938300000000000,,0xCB,0xC2
12.974518399999999,,0xB0,0x0B
12.976993800000001,,0x00,0x07
12.979970200000000,,0x20,0x00
12.982946399999999,,0x8E,0x28
12.985922800000001,,0x00,0x0F
12.988899200000001,,0x10,0x20
12.991875600000000,,0x10,0x04
12.994852200000000,,0x80,0x00
12.997828600000000,,0x53,0xC2
13.034092599999999,,0xB0,0x0B
13.036521400000000,,0x00,0x07
13.039497799999999,,0x20,0x00
13.042474199999999,,0x06,0x28
13.045450799999999,,0x00,0x0F
13.048427200000001,,0x10,0x20
13.051403600000000,,0x10,0x04
13.054380000000000,,0x80,0x00
13.057356400000000,,0xCB,0xC2
13.093681000000000,,0xB0,0x0B
13.096049400000000,,0x00,0x07
13.099025599999999,,0x20,0x00
13.102001800000000,,0x8E,0x28
13.104978400000000,,0x00,0x0F
13.107954800000000,,0x10,0x20
13.110931200000000,,0x10,0x04
13.113907800000000,,0x80,0x00
13.116884000000001,,0x53,0xC2
13.153271200000001,,0xB0,0x0B
13.155577800000000,,0x00,0x07
13.158554199999999,,0x20,0x00
13.161530400000000,,0x06,0x28
13.164506800000000,,0x00,0x0F
13.167483000000001,,0x10,0x20
13.170459400000000,,0x10,0x04
13.173435800000000,,0x80,0x00
13.176412200000000,,0xCB,0xC2
13.212846200000000,,0xB0,0x0B
13.215105800000000,,0x00,0x07
13.218082200000000,,0x20,0x00
13.221058599999999,,0x8E,0x28
13.224035000000001,,0x00,0x0F
13.227011600000001,,0x10,0x20
13.229988000000001,,0x10,0x04
13.232964400000000,,0x80,0x00
13.235940800000000,,0x53,0xC2
13.272434600000000,,0xB0,0x0B
13.274635000000000,,0x00,0x07
13.277611600000000,,0x20,0x00
13.280588200000000,,0x06,0x28
13.283564800000001,,0x00,0x0F
13.286541600000000,,0x10,0x20
13.289517999999999,,0x10,0x04
13.292494599999999,,0x80,0x00
13.295471200000000,,0xCB,0xC2
13.332009800000000,,0xB0,0x0B
13.334165600000000,,0x00,0x07
13.337142200000001,,0x20,0x00
13.340118600000000,,0x8E,0x28
13.343095200000000,,0x00,0x0F
13.346071600000000,,0x10,0x20
13.349048000000000,,0x10,0x04
13.352024600000000,,0x80,0x00
13.355001000000000,,0x53,0xC2
13.391495800000000,,0xB0,0x0B
13.393696200000001,,0x00,0x07
13.396672799999999,,0x20,0x00
13.399649200000001,,0x06,0x28
13.402625799999999,,0x00,0x0F
13.405602399999999,,0x10,0x20
13.408578800000001,,0x11,0x04
13.411555200000000,,0x80,0x00
13.414531800000001,,0xCC,0xC2
13.450991399999999,,0xB0,0x0B
13.453224799999999,,0x00,0x07
13.456201200000001,,0x20,0x00
13.459177800000001,,0x8E,0x28
13.462154200000001,,0x00,0x0F
13.465130800000001,,0x10,0x20
13.468107200000000,,0x11,0x04
13.471083800000001,,0x80,0x00
13.474060400000001,,0x54,0xC2
13.510470200000000,,0xB0,0x0B
13.512755400000000,,0x00,0x07
13.515732000000000,,0x20,0x00
13.518708400000000,,0x06,0x28
13.521684799999999,,0x00,0x0F
13.524661399999999,,0x10,0x20
13.527638000000000,,0x11,0x04
13.530614399999999,,0x80,0x00
13.533591200000000,,0xCC,0xC2
13.569967999999999,,0xB0,0x0B
13.572286999999999,,0x00,0x07
13.575263800000000,,0x20,0x00
13.578240400000000,,0x8E,0x28
13.581216800000000,,0x00,0x0F
13.584193400000000,,0x10,0x20
13.587170000000000,,0x11,0x04
13.590146200000000,,0x80,0x00
13.593122400000000,,0x54,0xC2
13.629448600000000,,0xB0,0x0B
13.631817399999999,,0x00,0x07
13.634793999999999,,0x20,0x00
13.637770600000000,,0x06,0x28
13.640747200000000,,0x00,0x0F
13.643723600000000,,0x10,0x20
13.646700200000000,,0x11,0x04
13.649676800000000,,0x80,0x00
13.652653200000000,,0xCC,0xC2
13.689041400000001,,0xB0,0x0B
13.691350000000000,,0x00,0x07
13.694326600000000,,0x20,0x00
13.697303200000000,,0x8E,0x28
13.700279800000001,,0x00,0x0F
13.703256200000000,,0x10,0x20
13.706232600000000,,0x11,0x04
13.709209000000000,,0x80,0x00
13.712185600000000,,0x54,0xC2
13.748681200000000,,0xB0,0x0B
13.750881600000000,,0x00,0x07
13.753858200000000,,0x20,0x00
13.756834800000000,,0x06,0x28
13.759811400000000,,0x00,0x0F
13.762788000000000,,0x10,0x20
13.765764799999999,,0x11,0x04
13.768741600000000,,0x80,0x00
13.771718399999999,,0xCC,0xC2
13.808306000000000,,0xB0,0x0B
13.810416800000000,,0x00,0x07
13.813393599999999,,0x20,0x00
13.816370200000000,,0x8E,0x28
13.819347000000000,,0x00,0x0F
13.822323600000001,,0x10,0x20
13.825300400000000,,0x11,0x04
13.828277000000000,,0x80,0x00
13.831253800000001,,0x54,0xC2
13.867372200000000,,0xB0,0x0B
13.869949999999999,,0x00,0x07
13.872926600000000,,0x20,0x00
13.875903200000000,,0x06,0x28
13.878879599999999,,0x00,0x0F
13.881856200000000,,0x10,0x20
13.884832599999999,,0x11,0x04
13.887809200000000,,0x80,0x00
13.890785599999999,,0xCC,0xC2
13.926995800000000,,0xB0,0x0B
13.929480999999999,,0x00,0x07
13.932457599999999,,0x20,0x00
13.935434000000001,,0x8E,0x28
13.938410599999999,,0x00,0x0F
13.941387000000001,,0x10,0x20
13.944363600000001,,0x11,0x04
13.947340000000001,,0x80,0x00
13.950316400000000,,0x54,0xC2
13.986636000000001,,0xB0,0x0B
13.989010400000000,,0x00,0x07
13.991987000000000,,0x20,0x00
13.994963600000000,,0x06,0x28
13.997940200000000,,0x00,0x0F
14.000916600000000,,0x10,0x20
14.003893200000000,,0x11,0x04
14.006869399999999,,0x80,0x00
14.009846000000000,,0xCC,0xC2
14.046274400000000,,0xB0,0x0B
14.048540600000001,,0x00,0x07
14.051517000000000,,0x20,0x00
14.054493799999999,,0x8E,0x28
14.057470400000000,,0x00,0x0F
14.060446799999999,,0x10,0x20
14.063423400000000,,0x11,0x04
14.066400000000000,,0x80,0x00
14.069376399999999,,0x54,0xC2
14.105897799999999,,0xB0,0x0B
14.108071799999999,,0x00,0x07
14.111048400000000,,0x20,0x00
14.114025000000000,,0x06,0x28
14.117001399999999,,0x00,0x0F
14.119978000000000,,0x10,0x20
14.122954399999999,,0x11,0x04
14.125931200000000,,0x80,0x00
14.128907600000000,,0xCC,0xC2
14.164961000000000,,0xB0,0x0B
14.167602799999999,,0x00,0x07
14.170579399999999,,0x20,0x00
14.173556000000000,,0x8E,0x28
14.176532600000000,,0x00,0x0F
14.179508999999999,,0x10,0x20
14.182485600000000,,0x11,0x04
14.185461999999999,,0x80,0x00
14.188438600000000,,0x54,0xC2
14.224582800000000,,0xB0,0x0B
14.227132800000000,,0x00,0x07
14.230109199999999,,0x20,0x00
14.233085600000001,,0x06,0x28
14.236062199999999,,0x00,0x0F
14.239038600000001,,0x10,0x20
14.242015000000000,,0x11,0x04
14.244991600000001,,0x80,0x00
14.247968000000000,,0xCC,0xC2
14.284218600000001,,0xB0,0x0B
14.286662800000000,,0x00,0x07
14.289639400000000,,0x20,0x00
14.292615800000000,,0x8E,0x28
14.295592400000000,,0x00,0x0F
14.298569000000001,,0x10,0x20
14.301545400000000,,0x11,0x04
14.304522199999999,,0x80,0x00
14.307498600000001,,0x54,0xC2
14.343871399999999,,0xB0,0x0B
14.346193800000000,,0x00,0x07
14.349170400000000,,0x20,0x00
14.352147000000000,,0x06,0x28
14.355123400000000,,0x00,0x0F
14.358100000000000,,0x10,0x20
14.361076400000000,,0x11,0x04
14.364053000000000,,0x80,0x00
14.367029600000000,,0xCC,0xC2
14.403155399999999,,0xB0,0x0B
14.405723600000000,,0x00,0x07
14.408700200000000,,0x20,0x00
14.411676600000000,,0x8E,0x28
14.414653200000000,,0x00,0x0F
14.417629600000000,,0x10,0x20
14.420605999999999,,0x12,0x04
14.423582600000000,,0x80,0x00
14.426558999999999,,0x55,0xC2
14.462698000000000,,0xB0,0x0B
14.465252000000000,,0x00,0x07
14.468228399999999,,0x20,0x00
14.471204800000001,,0x06,0x28
14.474181200000000,,0x00,0x0F
14.477157800000001,,0x10,0x20
14.480134200000000,,0x12,0x04
14.483110399999999,,0x80,0x00
14.486086800000001,,0xCD,0xC2
14.522223600000000,,0xB0,0x0B
14.524780000000000,,0x00,0x07
14.527756399999999,,0x20,0x00
14.530732799999999,,0x8E,0x28
14.533709200000001,,0x00,0x0F
14.536685600000000,,0x10,0x20
14.539662000000000,,0x12,0x04
14.542638400000000,,0x80,0x00
14.545614799999999,,0x55,0xC2
14.581769200000000,,0xB0,0x0B
14.584308800000001,,0x00,0x07
14.587285200000000,,0x20,0x00
14.590261800000000,,0x06,0x28
14.593238200000000,,0x00,0x0F
14.596214600000000,,0x10,0x20
14.599190999999999,,0x12,0x04
14.602167400000001,,0x80,0x00
14.605143800000000,,0xCD,0xC2
14.641318999999999,,0xB0,0x0B
14.643837000000000,,0x00,0x07
14.646813999999999,,0x20,0x00
14.649790200000000,,0x8E,0x28
14.652766400000001,,0x00,0x0F
14.655742800000001,,0x10,0x20
14.658719200000000,,0x12,0x04
14.661695600000000,,0x80,0x00
14.664672200000000,,0x55,0xC2
14.700863000000000,,0xB0,0x0B
14.703365200000000,,0x00,0x07
14.706341600000000,,0x20,0x00
14.709318000000000,,0x06,0x28
14.712294399999999,,0x00,0x0F
14.715271000000000,,0x10,0x20
14.718247600000000,,0x12,0x04
14.721224200000000,,0x80,0x00
14.724200800000000,,0xCD,0xC2
14.760455000000000,,0xB0,0x0B
14.762895200000001,,0x00,0x07
14.765871799999999,,0x20,0x00
14.768848200000001,,0x8E,0x28
14.771824600000000,,0x00,0x0F
14.774801200000001,,0x10,0x20
14.777777800000001,,0x12,0x04
14.780754200000001,,0x80,0x00
14.783730800000001,,0x55,0xC2
14.820033199999999,,0xB0,0x0B
14.822426800000001,,0x00,0x07
14.825403400000001,,0x20,0x00
14.828379999999999,,0x06,0x28
14.831356599999999,,0x00,0x0F
14.834333200000000,,0x10,0x20
14.837309800000000,,0x12,0x04
14.840286200000000,,0x80,0x00
14.843262800000000,,0xCD,0xC2
14.879626000000000,,0xB0,0x0B
14.881957600000000,,0x00,0x07
14.884934200000000,,0x20,0x00
14.887910600000000,,0x8E,0x28
14.890886999999999,,0x00,0x0F
14.893863200000000,,0x10,0x20
14.896839800000000,,0x12,0x04
14.899816400000001,,0x80,0x00
14.902793000000001,,0x55,0xC2
14.939217599999999,,0xB0,0x0B
14.941487400000000,,0x00,0x07
14.944464000000000,,0x20,0x00
14.947440400000000,,0x06,0x28
14.950417000000000,,0x00,0x0F
14.953393600000000,,0x10,0x20
14.956370200000000,,0x12,0x04
14.959346600000000,,0x80,0x00
14.962323200000000,,0xCD,0xC2
14.998792399999999,,0xB0,0x0B
15.001017400000000,,0x00,0x07
15.003993800000000,,0x20,0x00
15.006970200000000,,0x8E,0x28
15.009946599999999,,0x00,0x0F
15.012923000000001,,0x10,0x20
15.015899599999999,,0x12,0x04
15.018876000000001,,0x80,0x00
15.021852400000000,,0x55,0xC2
15.058381600000001,,0xB0,0x0B
15.060548199999999,,0x00,0x07
15.063524800000000,,0x20,0x00
15.066501400000000,,0x06,0x28
15.069478000000000,,0x00,0x0F
15.072454600000000,,0x10,0x20
15.075431399999999,,0x12,0x04
15.078408000000000,,0x80,0x00
15.081384399999999,,0xCD,0xC2
15.117955800000001,,0xB0,0x0B
15.120078400000001,,0x00,0x07
15.123054800000000,,0x20,0x00
15.126031400000000,,0x8E,0x28
15.129007800000000,,0x00,0x0F
15.131984400000000,,0x10,0x20
15.134961000000001,,0x12,0x04
15.137937600000001,,0x80,0x00
15.140914000000000,,0x55,0xC2
15.176970400000000,,0xB0,0x0B
15.179608000000000,,0x00,0x07
15.182584200000001,,0x20,0x00
15.185560799999999,,0x06,0x28
15.188537200000001,,0x00,0x0F
15.191513400000000,,0x10,0x20
15.194490000000000,,0x12,0x04
15.197466400000000,,0x80,0x00
15.200443000000000,,0xCD,0xC2
15.236557599999999,,0xB0,0x0B
15.239136600000000,,0x00,0x07
15.242113200000000,,0x20,0x00
15.245089800000001,,0x8E,0x28
15.248066400000001,,0x00,0x0F
15.251042800000000,,0x10,0x20
15.254019400000001,,0x12,0x04
15.256995999999999,,0x80,0x00
15.259972400000001,,0x55,0xC2
15.296132600000000,,0xB0,0x0B
15.298666000000001,,0x00,0x07
15.301642400000000,,0x20,0x00
15.304619000000001,,0x06,0x28
15.307595400000000,,0x00,0x0F
15.310572000000001,,0x10,0x20
15.313548600000001,,0x12,0x04
15.316525199999999,,0x80,0x00
15.319501799999999,,0xCD,0xC2
15.355843800000001,,0xB0,0x0B
15.358196200000000,,0x00,0x07
15.361172800000000,,0x20,0x00
15.364149400000001,,0x8E,0x28
15.367125800000000,,0x00,0x0F
15.370102200000000,,0x10,0x20
15.373078599999999,,0x13,0x04
15.376054999999999,,0x80,0x00
15.379031599999999,,0x56,0xC2
15.415320200000000,,0xB0,0x0B
15.417726000000000,,0x00,0x07
15.420702600000000,,0x20,0x00
15.423679200000000,,0x06,0x28
15.426655800000001,,0x00,0x0F
15.429632399999999,,0x10,0x20
15.432608999999999,,0x13,0x04
15.435585600000000,,0x80,0x00
15.438562200000000,,0xCE,0xC2
15.474819000000000,,0xB0,0x0B
15.477257399999999,,0x00,0x07
15.480233999999999,,0x20,0x00
15.483210800000000,,0x8E,0x28
15.486187400000000,,0x00,0x0F
15.489164000000001,,0x10,0x20
15.492140400000000,,0x13,0x04
15.495117000000000,,0x80,0x00
15.498093600000001,,0x56,0xC2
15.534319399999999,,0xB0,0x0B
15.536789400000000,,0x00,0x07
15.539766000000000,,0x20,0x00
15.542742400000000,,0x06,0x28
15.545718800000000,,0x00,0x0F
15.548695400000000,,0x10,0x20
15.551672000000000,,0x13,0x04
15.554648800000001,,0x80,0x00
15.557625200000000,,0xCE,0xC2
15.593798800000000,,0xB0,0x0B
15.596319200000000,,0x00,0x07
15.599295600000000,,0x20,0x00
15.602271999999999,,0x8E,0x28
15.605248400000001,,0x00,0x0F
15.608224800000000,,0x10,0x20
15.611200999999999,,0x13,0x04
15.614177400000001,,0x80,0x00
15.617153999999999,,0x56,0xC2
15.655359600000001,,0xB0,0x0B
15.657832400000000,,0x00,0x07
15.660808800000000,,0x20,0x00
15.663785400000000,,0x06,0x28
15.666762200000001,,0x00,0x0F
15.669738600000001,,0x10,0x20
15.672715200000001,,0x13,0x04
15.675691799999999,,0x80,0x00
15.678668399999999,,0xCE,0xC2
15.712777600000001,,0xB0,0x0B
15.715378400000001,,0x00,0x07
15.718355000000001,,0x20,0x00
15.721331599999999,,0x8E,0x28
15.724308199999999,,0x00,0x0F
15.727284800000000,,0x10,0x20
15.730261199999999,,0x13,0x04
15.733237799999999,,0x80,0x00
15.736214199999999,,0x56,0xC2
15.772418399999999,,0xB0,0x0B
15.774909600000001,,0x00,0x07
15.777886199999999,,0x20,0x00
15.780862600000001,,0x06,0x28
15.783839000000000,,0x00,0x0F
15.786815600000001,,0x10,0x20
15.789792000000000,,0x13,0x04
15.792768799999999,,0x80,0x00
15.795745399999999,,0xCE,0xC2
15.832057799999999,,0xB0,0x0B
15.834442400000000,,0x00,0x07
15.837419199999999,,0x20,0x00
15.840395800000000,,0x8E,0x28
15.843372400000000,,0x00,0x0F
15.846348799999999,,0x10,0x20
15.849325400000000,,0x13,0x04
15.852302000000000,,0x80,0x00
15.855278800000001,,0x56,0xC2
15.891684200000000,,0xB0,0x0B
15.893974800000001,,0x00,0x07
15.896951400000001,,0x20,0x00
15.899927999999999,,0x06,0x28
15.902904599999999,,0x00,0x0F
15.905881000000001,,0x10,0x20
15.908857400000000,,0x13,0x04
15.911834000000001,,0x80,0x00
15.914810599999999,,0xCE,0xC2
15.951325199999999,,0xB0,0x0B
15.953506600000001,,0x00,0x07
15.956483400000000,,0x20,0x00
15.959460000000000,,0x8E,0x28
15.962436600000000,,0x00,0x0F
15.965413000000000,,0x10,0x20
15.968389600000000,,0x13,0x04
15.971366200000000,,0x80,0x00
15.974342999999999,,0x56,0xC2
16.010949000000000,,0xB0,0x0B
16.013038000000002,,0x00,0x07
16.016014400000000,,0x20,0x00
16.018990800000001,,0x06,0x28
16.021967199999999,,0x00,0x0F
16.024943799999999,,0x10,0x20
16.027920399999999,,0x13,0x04
16.030896800000001,,0x80,0x00
16.033873600000000,,0xCE,0xC2
16.069974200000001,,0xB0,0x0B
16.072568799999999,,0x00,0x07
16.075545600000002,,0x20,0x00
16.078522400000001,,0x8E,0x28
16.081499000000001,,0x00,0x0F
16.084475600000001,,0x10,0x20
16.087452200000001,,0x13,0x04
16.090428800000002,,0x80,0x00
16.093405400000002,,0x56,0xC2
16.129616800000001,,0xB0,0x0B
16.132100000000001,,0x00,0x07
16.135076600000001,,0x20,0x00
16.138053200000002,,0x06,0x28
16.141029799999998,,0x00,0x0F
16.144006399999999,,0x10,0x20
16.146982800000000,,0x13,0x04
16.149959200000001,,0x80,0x00
16.152935800000002,,0xCE,0xC2
16.189239799999999,,0xB0,0x0B
16.191631200000000,,0x00,0x07
16.194607800000000,,0x20,0x00
16.197584200000001,,0x8E,0x28
16.200560599999999,,0x00,0x0F
16.203537200000000,,0x10,0x20
16.206513999999999,,0x13,0x04
16.209490400000000,,0x80,0x00
16.212467000000000,,0x56,0xC2
16.248879200000001,,0xB0,0x0B
16.251162399999998,,0x00,0x07
16.254138999999999,,0x20,0x00
16.257115599999999,,0x06,0x28
16.260092000000000,,0x00,0x0F
16.263068600000000,,0x10,0x20
16.266044999999998,,0x13,0x04
16.269021599999999,,0x80,0x00
16.271998199999999,,0xCE,0xC2
16.308504800000001,,0xB0,0x0B
16.310693600000000,,0x00,0x07
16.313670200000001,,0x20,0x00
16.316647000000000,,0x8E,0x28
16.319623600000000,,0x00,0x0F
16.322600200000000,,0x10,0x20
16.325576600000002,,0x13,0x04
16.328552999999999,,0x80,0x00
16.331529400000001,,0x56,0xC2
16.368037999999999,,0xB0,0x0B
16.370223800000002,,0x00,0x07
16.373200199999999,,0x20,0x00
16.376176800000000,,0x06,0x28
16.379153400000000,,0x00,0x0F
16.382129800000001,,0x10,0x20
16.385106000000000,,0x14,0x04
16.388082600000001,,0x80,0x00
16.391058800000000,,0xCF,0xC2
16.427580800000001,,0xB0,0x0B
16.429754200000001,,0x00,0x07
16.432730800000002,,0x20,0x00
16.435707200000000,,0x8E,0x28
16.438683800000000,,0x00,0x0F
16.441660400000000,,0x10,0x20
16.444636800000001,,0x14,0x04
16.447613400000002,,0x80,0x00
16.450589799999999,,0x57,0xC2
16.487107399999999,,0xB0,0x0B
16.489285400000000,,0x00,0x07
16.492262000000000,,0x20,0x00
16.495238600000000,,0x06,0x28
16.498215200000001,,0x00,0x0F
16.501191800000001,,0x10,0x20
16.504168199999999,,0x14,0x04
16.507144799999999,,0x80,0x00
16.510121200000000,,0xCF,0xC2
16.546651000000001,,0xB0,0x0B
16.548816599999999,,0x00,0x07
16.551793199999999,,0x20,0x00
16.554769799999999,,0x8E,0x28
16.557746399999999,,0x00,0x0F
16.560722800000001,,0x10,0x20
16.563699400000001,,0x14,0x04
16.566676000000001,,0x80,0x00
16.569652600000001,,0x57,0xC2
16.606179200000000,,0xB0,0x0B
16.608347800000001,,0x00,0x07
16.611324600000000,,0x20,0x00
16.614301200000000,,0x06,0x28
16.617277800000000,,0x00,0x0F
16.620254200000002,,0x10,0x20
16.623230800000002,,0x14,0x04
16.626207399999998,,0x80,0x00
16.629183800000000,,0xCF,0xC2
16.665540400000001,,0xB0,0x0B
16.667878800000000,,0x00,0x07
16.670855400000001,,0x20,0x00
16.673831799999999,,0x8E,0x28
16.676808200000000,,0x00,0x0F
16.679784800000000,,0x10,0x20
16.682761200000002,,0x14,0x04
16.685737799999998,,0x80,0x00
16.688714399999999,,0x57,0xC2
16.725134799999999,,0xB0,0x0B
16.727410599999999,,0x00,0x07
16.730387199999999,,0x20,0x00
16.733363799999999,,0x06,0x28
16.736340200000001,,0x00,0x0F
16.739316800000001,,0x10,0x20
16.742293400000001,,0x14,0x04
16.745270200000000,,0x80,0x00
16.748246800000000,,0xCF,0xC2
16.784713400000001,,0xB0,0x0B
16.786944200000001,,0x00,0x07
16.789921000000000,,0x20,0x00
16.792897799999999,,0x8E,0x28
16.795874399999999,,0x00,0x0F
16.798851200000001,,0x10,0x20
16.801827800000002,,0x14,0x04
16.804804600000001,,0x80,0x00
16.807781200000001,,0x57,0xC2
16.844306799999998,,0xB0,0x0B
16.846477400000001,,0x00,0x07
16.849454000000001,,0x20,0x00
16.852430600000002,,0x06,0x28
16.855407199999998,,0x00,0x0F
16.858383799999999,,0x10,0x20
16.861360399999999,,0x14,0x04
16.864336999999999,,0x80,0x00
16.867313599999999,,0xCF,0xC2
16.903883600000000,,0xB0,0x0B
16.906010200000001,,0x00,0x07
16.908986800000001,,0x20,0x00
16.911963199999999,,0x8E,0x28
16.914939799999999,,0x00,0x0F
16.917916399999999,,0x10,0x20
16.920893000000000,,0x14,0x04
16.923869600000000,,0x80,0x00
16.926846200000000,,0x57,0xC2
16.962901200000001,,0xB0,0x0B
16.965542200000002,,0x00,0x07
16.968518799999998,,0x20,0x00
16.971495399999998,,0x06,0x28
16.974471999999999,,0x00,0x0F
16.977448400000000,,0x10,0x20
16.980425000000000,,0x14,0x04
16.983401600000001,,0x80,0x00
16.986378200000001,,0xCF,0xC2
17.022495200000002,,0xB0,0x0B
17.025073599999999,,0x00,0x07
17.028050199999999,,0x20,0x00
17.031026799999999,,0x8E,0x28
17.034003200000001,,0x00,0x0F
17.036980000000000,,0x10,0x20
17.039956600000000,,0x14,0x04
17.042933000000001,,0x80,0x00
17.045909600000002,,0x57,0xC2
17.082071599999999,,0xB0,0x0B
17.084605799999999,,0x00,0x07
17.087582399999999,,0x20,0x00
17.090558999999999,,0x06,0x28
17.093535800000002,,0x00,0x0F
17.096512400000002,,0x10,0x20
17.099488999999998,,0x14,0x04
17.102465599999999,,0x80,0x00
17.105442199999999,,0xCF,0xC2
17.141664800000001,,0xB0,0x0B
17.144139200000001,,0x00,0x07
17.147115599999999,,0x20,0x00
17.150092200000000,,0x8E,0x28
17.153068800000000,,0x00,0x0F
17.156045599999999,,0x10,0x20
17.159022199999999,,0x14,0x04
17.161998799999999,,0x80,0x00
17.164975599999998,,0x57,0xC2
17.201243000000002,,0xB0,0x0B
17.203672999999998,,0x00,0x07
17.206649800000001,,0x20,0x00
17.209626600000000,,0x06,0x28
17.212603200000000,,0x00,0x0F
17.215579999999999,,0x10,0x20
17.218556800000002,,0x14,0x04
17.221533600000001,,0x80,0x00
17.224510400000000,,0xCF,0xC2
17.260838600000000,,0xB0,0x0B
17.263207399999999,,0x00,0x07
17.266184200000001,,0x20,0x00
17.269160800000002,,0x8E,0x28
17.272137399999998,,0x00,0x0F
17.275114200000001,,0x10,0x20
17.278090800000001,,0x14,0x04
17.281067400000001,,0x80,0x00
17.284044000000002,,0x57,0xC2
17.320447200000000,,0xB0,0x0B
17.322742000000002,,0x00,0x07
17.325718400000000,,0x20,0x00
17.328695000000000,,0x06,0x28
17.331671799999999,,0x00,0x0F
17.334648600000001,,0x10,0x20
17.337625599999999,,0x14,0x04
17.340602400000002,,0x80,0x00
17.343579200000001,,0xCF,0xC2
17.379682200000001,,0xB0,0x0B
17.382275799999999,,0x00,0x07
17.385252399999999,,0x20,0x00
17.388229200000001,,0x8E,0x28
17.391206000000000,,0x00,0x0F
17.394182600000001,,0x10,0x20
17.397159400000000,,0x15,0x04
17.400135800000001,,0x80,0x00
17.403112400000001,,0x58,0xC2
17.439180799999999,,0xB0,0x0B
17.441807799999999,,0x00,0x07
17.444784400000000,,0x20,0x00
17.447761000000000,,0x06,0x28
17.450737600000000,,0x00,0x0F
17.453714399999999,,0x10,0x20
17.456690999999999,,0x15,0x04
17.459667600000000,,0x80,0x00
17.462644200000000,,0xD0,0xC2
17.499233000000000,,0xB0,0x0B
17.501343599999998,,0x00,0x07
17.504320199999999,,0x20,0x00
17.507296799999999,,0x8E,0x28
17.510273399999999,,0x00,0x0F
17.513249999999999,,0x10,0x20
17.516226600000000,,0x15,0x04
17.519203200000000,,0x80,0x00
17.522179800000000,,0x58,0xC2
17.558731999999999,,0xB0,0x0B
17.560876199999999,,0x00,0x07
17.563852600000001,,0x20,0x00
17.566829200000001,,0x06,0x28
17.569806000000000,,0x00,0x0F
17.572782600000000,,0x10,0x20
17.575759200000000,,0x15,0x04
17.578735800000000,,0x80,0x00
17.581712400000001,,0xD0,0xC2
17.618234800000000,,0xB0,0x0B
17.620408800000000,,0x00,0x07
17.623384999999999,,0x20,0x00
17.626361599999999,,0x8E,0x28
17.629338000000001,,0x00,0x0F
17.632314600000001,,0x10,0x20
17.635290800000000,,0x15,0x04
17.638267400000000,,0x80,0x00
17.641243800000002,,0x58,0xC2
17.677461800000000,,0xB0,0x0B
17.679939000000001,,0x00,0x07
17.682915800000000,,0x20,0x00
17.685892400000000,,0x06,0x28
17.688869199999999,,0x00,0x0F
17.691846000000002,,0x10,0x20
17.694822599999998,,0x15,0x04
17.697799199999999,,0x80,0x00
17.700775799999999,,0xD0,0xC2
17.737104599999999,,0xB0,0x0B
17.739471600000002,,0x00,0x07
17.742448000000000,,0x20,0x00
17.745424400000001,,0x8E,0x28
17.748401000000001,,0x00,0x0F
17.751377600000001,,0x10,0x20
17.754354200000002,,0x15,0x04
17.757330600000000,,0x80,0x00
17.760307200000000,,0x58,0xC2
17.796727000000001,,0xB0,0x0B
17.799003200000001,,0x00,0x07
17.801979800000002,,0x20,0x00
17.804956399999998,,0x06,0x28
17.807933200000001,,0x00,0x0F
17.810909800000001,,0x10,0x20
17.813886400000001,,0x15,0x04
17.816862799999999,,0x80,0x00
17.819839399999999,,0xD0,0xC2
17.856364599999999,,0xB0,0x0B
17.858534400000000,,0x00,0x07
17.861511000000000,,0x20,0x00
17.864487600000000,,0x8E,0x28
17.867463999999998,,0x00,0x0F
17.870440599999998,,0x10,0x20
17.873417199999999,,0x15,0x04
17.876393799999999,,0x80,0x00
17.879370399999999,,0x58,0xC2
17.916004000000001,,0xB0,0x0B
17.918066199999998,,0x00,0x07
17.921042799999999,,0x20,0x00
17.924019600000001,,0x06,0x28
17.926995999999999,,0x00,0x0F
17.929972599999999,,0x10,0x20
17.932949199999999,,0x15,0x04
17.935925800000000,,0x80,0x00
17.938902400000000,,0xD0,0xC2
17.975013600000000,,0xB0,0x0B
17.977597599999999,,0x00,0x07
17.980574200000000,,0x20,0x00
17.983550800000000,,0x8E,0x28
17.986527400000000,,0x00,0x0F
17.989504000000000,,0x10,0x20
17.992480400000002,,0x15,0x04
17.995456999999998,,0x80,0x00
17.998433599999998,,0x58,0xC2
18.034653800000001,,0xB0,0x0B
18.037130200000000,,0x00,0x07
18.040106600000001,,0x20,0x00
18.043083200000002,,0x06,0x28
18.046060000000001,,0x00,0x0F
18.049036600000001,,0x10,0x20
18.052013200000001,,0x15,0x04
18.054989800000001,,0x80,0x00
18.057966199999999,,0xD0,0xC2
18.094275400000001,,0xB0,0x0B
18.096660400000001,,0x00,0x07
18.099637000000001,,0x20,0x00
18.102613600000002,,0x8E,0x28
18.105590200000002,,0x00,0x0F
18.108567000000001,,0x10,0x20
18.111543600000001,,0x15,0x04
18.114520200000001,,0x80,0x00
18.117496800000001,,0x58,0xC2
18.153915999999999,,0xB0,0x0B
18.156192200000000,,0x00,0x07
18.159168800000000,,0x20,0x00
18.162145400000000,,0x06,0x28
18.165122000000000,,0x00,0x0F
18.168098400000002,,0x10,0x20
18.171074999999998,,0x15,0x04
18.174051400000000,,0x80,0x00
18.177028000000000,,0xD0,0xC2
18.213555599999999,,0xB0,0x0B
18.215723199999999,,0x00,0x07
18.218699600000001,,0x20,0x00
18.221676200000001,,0x8E,0x28
18.224652800000001,,0x00,0x0F
18.227629199999999,,0x10,0x20
18.230605799999999,,0x15,0x04
18.233582200000001,,0x80,0x00
18.236558599999999,,0x58,0xC2
18.273180400000001,,0xB0,0x0B
18.275254600000000,,0x00,0x07
18.278231200000000,,0x20,0x00
18.281207599999998,,0x06,0x28
18.284184199999999,,0x00,0x0F
18.287160799999999,,0x10,0x20
18.290137600000001,,0x15,0x04
18.293113999999999,,0x80,0x00
18.296090599999999,,0xD0,0xC2
18.332321799999999,,0xB0,0x0B
18.334787599999999,,0x00,0x07
18.337764199999999,,0x20,0x00
18.340740600000000,,0x8E,0x28
18.343717000000002,,0x00,0x0F
18.346693399999999,,0x10,0x20
18.349670000000000,,0x16,0x04
18.352646400000001,,0x80,0x00
18.355622799999999,,0x59,0xC2
18.391848199999998,,0xB0,0x0B
18.394316799999999,,0x00,0x07
18.397293200000000,,0x20,0x00
18.400269800000000,,0x06,0x28
18.403246200000002,,0x00,0x0F
18.406222799999998,,0x10,0x20
18.409199200000000,,0x16,0x04
18.412175800000000,,0x80,0x00
18.415152200000001,,0xD1,0xC2
18.451389800000001,,0xB0,0x0B
18.453847000000000,,0x00,0x07
18.456823600000000,,0x20,0x00
18.459800200000000,,0x8E,0x28
18.462776600000002,,0x00,0x0F
18.465753200000002,,0x10,0x20
18.468729799999998,,0x16,0x04
18.471706200000000,,0x80,0x00
18.474682600000001,,0x59,0xC2
18.510936800000000,,0xB0,0x0B
18.513378199999998,,0x00,0x07
18.516355000000001,,0x20,0x00
18.519331600000001,,0x06,0x28
18.522307999999999,,0x00,0x0F
18.525284599999999,,0x10,0x20
18.528261199999999,,0x16,0x04
18.531237800000000,,0x80,0x00
18.534214200000001,,0xD1,0xC2
18.570463600000000,,0xB0,0x0B
18.572909599999999,,0x00,0x07
18.575886199999999,,0x20,0x00
18.578862999999998,,0x8E,0x28
18.581839599999999,,0x00,0x0F
18.584816000000000,,0x10,0x20
18.587792600000000,,0x16,0x04
18.590769000000002,,0x80,0x00
18.593745400000000,,0x59,0xC2
18.630185399999998,,0xB0,0x0B
18.632439600000001,,0x00,0x07
18.635416400000000,,0x20,0x00
18.638393000000001,,0x06,0x28
18.641369600000001,,0x00,0x0F
18.644345999999999,,0x10,0x20
18.647322599999999,,0x16,0x04
18.650299199999999,,0x80,0x00
18.653275600000001,,0xD1,0xC2
18.689757799999999,,0xB0,0x0B
18.691969000000000,,0x00,0x07
18.694945400000002,,0x20,0x00
18.697921800000000,,0x8E,0x28
18.700898400000000,,0x00,0x0F
18.703875000000000,,0x10,0x20
18.706851600000000,,0x16,0x04
18.709828200000000,,0x80,0x00
18.712804599999998,,0x59,0xC2
18.749350600000000,,0xB0,0x0B
18.751498800000000,,0x00,0x07
18.754475200000002,,0x20,0x00
18.757451600000000,,0x06,0x28
18.760428200000000,,0x00,0x0F
18.763404600000001,,0x10,0x20
18.766381200000001,,0x16,0x04
18.769357599999999,,0x80,0x00
18.772334000000001,,0xD1,0xC2
18.808941999999998,,0xB0,0x0B
18.811027200000002,,0x00,0x07
18.814003599999999,,0x20,0x00
18.816980000000001,,0x8E,0x28
18.819956399999999,,0x00,0x0F
18.822932800000000,,0x10,0x20
18.825909400000000,,0x16,0x04
18.828886000000001,,0x80,0x00
18.831862399999999,,0x59,0xC2
18.868478600000000,,0xB0,0x0B
18.870559600000000,,0x00,0x07
18.873536000000001,,0x20,0x00
18.876512399999999,,0x06,0x28
18.879488800000001,,0x00,0x0F
18.882465400000001,,0x10,0x20
18.885442000000001,,0x16,0x04
18.888418600000001,,0x80,0x00
18.891395200000002,,0xD1,0xC2
18.927454600000001,,0xB0,0x0B
18.930090000000000,,0x00,0x07
18.933066400000001,,0x20,0x00
18.936042799999999,,0x8E,0x28
18.939019399999999,,0x00,0x0F
18.941995800000001,,0x10,0x20
18.944972199999999,,0x16,0x04
18.947948799999999,,0x80,0x00
18.950925200000000,,0x59,0xC2
18.987028400000000,,0xB0,0x0B
18.989619800000000,,0x00,0x07
18.992596200000001,,0x20,0x00
18.995572800000001,,0x06,0x28
18.998549400000002,,0x00,0x0F
19.001525999999998,,0x10,0x20
19.004502599999999,,0x16,0x04
19.007479000000000,,0x80,0x00
19.010455400000001,,0xD1,0xC2
19.046618800000001,,0xB0,0x0B
19.049149199999999,,0x00,0x07
19.052125799999999,,0x20,0x00
19.055102200000000,,0x8E,0x28
19.058078800000001,,0x00,0x0F
19.061055400000001,,0x10,0x20
19.064031799999999,,0x16,0x04
19.067008200000000,,0x80,0x00
19.069984800000000,,0x59,0xC2
19.106208400000000,,0xB0,0x0B
19.108678800000000,,0x00,0x07
19.111655400000000,,0x20,0x00
19.114632000000000,,0x06,0x28
19.117608400000002,,0x00,0x0F
19.120584999999998,,0x10,0x20
19.123561599999999,,0x16,0x04
19.126538199999999,,0x80,0x00
19.129514600000000,,0xD1,0xC2
19.165784200000001,,0xB0,0x0B
19.168209000000001,,0x00,0x07
19.171185800000000,,0x20,0x00
19.174162400000000,,0x8E,0x28
19.177139000000000,,0x00,0x0F
19.180115799999999,,0x10,0x20
19.183092599999998,,0x16,0x04
19.186069199999999,,0x80,0x00
19.189046000000001,,0x59,0xC2
19.225376600000001,,0xB0,0x0B
19.227740600000001,,0x00,0x07
19.230716999999999,,0x20,0x00
19.233693599999999,,0x06,0x28
19.236670000000000,,0x00,0x0F
19.239646600000000,,0x10,0x20
19.242623200000001,,0x16,0x04
19.245600000000000,,0x80,0x00
19.248576600000000,,0xD1,0xC2
19.284951199999998,,0xB0,0x0B
19.287271799999999,,0x00,0x07
19.290248399999999,,0x20,0x00
19.293225000000000,,0x8E,0x28
19.296201600000000,,0x00,0x0F
19.299178200000000,,0x10,0x20
19.302154999999999,,0x16,0x04
19.305131800000002,,0x80,0x00
19.308108199999999,,0x59,0xC2
19.344439600000001,,0xB0,0x0B
19.346803600000001,,0x00,0x07
19.349779999999999,,0x20,0x00
19.352756599999999,,0x06,0x28
19.355733200000000,,0x00,0x0F
19.358709800000000,,0x10,0x20
19.361686400000000,,0x17,0x04
19.364663000000000,,0x80,0x00
19.367639600000000,,0xD2,0xC2
19.403934799999998,,0xB0,0x0B
19.406335599999998,,0x00,0x07
19.409312400000001,,0x20,0x00
19.412289000000001,,0x8E,0x28
19.415265600000001,,0x00,0x0F
19.418242200000002,,0x10,0x20
19.421218799999998,,0x17,0x04
19.424195399999999,,0x80,0x00
19.427172200000001,,0x5A,0xC2
19.463416400000000,,0xB0,0x0B
19.465867599999999,,0x00,0x07
19.468844199999999,,0x20,0x00
19.471820800000000,,0x06,0x28
19.474797400000000,,0x00,0x0F
19.477773800000001,,0x10,0x20
19.480750199999999,,0x17,0x04
19.483726600000001,,0x80,0x00
19.486703200000001,,0xD2,0xC2
19.522913400000000,,0xB0,0x0B
19.525397999999999,,0x00,0x07
19.528374400000001,,0x20,0x00
19.531351000000001,,0x8E,0x28
19.534327399999999,,0x00,0x0F
19.537303800000000,,0x10,0x20
19.540280200000002,,0x17,0x04
19.543256800000002,,0x80,0x00
19.546233399999998,,0x5A,0xC2
19.582395000000002,,0xB0,0x0B
19.584928399999999,,0x00,0x07
19.587904999999999,,0x20,0x00
19.590881400000001,,0x06,0x28
19.593857799999999,,0x00,0x0F
19.596834399999999,,0x10,0x20
19.599810999999999,,0x17,0x04
19.602787400000000,,0x80,0x00
19.605763799999998,,0xD2,0xC2
19.641978600000002,,0xB0,0x0B
19.644456999999999,,0x00,0x07
19.647433400000001,,0x20,0x00
19.650410000000001,,0x8E,0x28
19.653386399999999,,0x00,0x0F
19.656362800000000,,0x10,0x20
19.659339200000002,,0x17,0x04
19.662315599999999,,0x80,0x00
19.665292200000000,,0x5A,0xC2
19.701616600000001,,0xB0,0x0B
19.703987000000001,,0x00,0x07
19.706963600000002,,0x20,0x00
19.709940199999998,,0x06,0x28
19.712916600000000,,0x00,0x0F
19.715893200000000,,0x10,0x20
19.718869800000000,,0x17,0x04
19.721846400000000,,0x80,0x00
19.724823000000001,,0xD2,0xC2
19.761241999999999,,0xB0,0x0B
19.763517600000000,,0x00,0x07
19.766494200000000,,0x20,0x00
19.769470800000001,,0x8E,0x28
19.772447600000000,,0x00,0x0F
19.775424200000000,,0x10,0x20
19.778400999999999,,0x17,0x04
19.781377599999999,,0x80,0x00
19.784354199999999,,0x5A,0xC2
19.820881199999999,,0xB0,0x0B
19.823049800000000,,0x00,0x07
19.826026200000001,,0x20,0x00
19.829002599999999,,0x06,0x28
19.831979199999999,,0x00,0x0F
19.834955799999999,,0x10,0x20
19.837932400000000,,0x17,0x04
19.840908800000001,,0x80,0x00
19.843885199999999,,0xD2,0xC2
19.880504599999998,,0xB0,0x0B
19.882581800000001,,0x00,0x07
19.885558199999998,,0x20,0x00
19.888534799999999,,0x8E,0x28
19.891511399999999,,0x00,0x0F
19.894487999999999,,0x10,0x20
19.897464599999999,,0x17,0x04
19.900441399999998,,0x80,0x00
19.903417999999999,,0x5A,0xC2
19.939533999999998,,0xB0,0x0B
19.942113800000001,,0x00,0x07
19.945090400000002,,0x20,0x00
19.948066799999999,,0x06,0x28
19.951043400000000,,0x00,0x0F
19.954019800000001,,0x10,0x20
19.956996400000001,,0x17,0x04
19.959973000000002,,0x80,0x00
19.962949600000002,,0xD2,0xC2
19.999175999999999,,0xB0,0x0B
20.001645199999999,,0x00,0x07
20.004621799999999,,0x20,0x00
20.007598399999999,,0x8E,0x28
20.010574999999999,,0x00,0x0F
20.013551400000001,,0x10,0x20
20.016528000000001,,0x17,0x04
20.019504600000001,,0x80,0x00
20.022481200000001,,0x5A,0xC2
20.058798599999999,,0xB0,0x0B
20.061174999999999,,0x00,0x07
20.064151599999999,,0x20,0x00
20.067128199999999,,0x06,0x28
20.070104600000001,,0x00,0x0F
20.073081200000001,,0x10,0x20
20.076057800000001,,0x17,0x04
20.079034199999999,,0x80,0x00
20.082010600000000,,0xD2,0xC2
20.118438200000000,,0xB0,0x0B
20.120704400000001,,0x00,0x07
20.123681000000001,,0x20,0x00
20.126657600000001,,0x8E,0x28
20.129634200000002,,0x00,0x0F
20.132610600000000,,0x10,0x20
20.135587200000000,,0x17,0x04
20.138563999999999,,0x80,0x00
20.141540599999999,,0x5A,0xC2
20.178062000000001,,0xB0,0x0B
20.180235799999998,,0x00,0x07
20.183212399999999,,0x20,0x00
20.186189200000001,,0x06,0x28
20.189165800000001,,0x00,0x0F
20.192142400000002,,0x10,0x20
20.195118999999998,,0x17,0x04
20.198095400000000,,0x80,0x00
20.201071800000001,,0xD2,0xC2
20.237127999999998,,0xB0,0x0B
20.239766400000001,,0x00,0x07
20.242742799999998,,0x20,0x00
20.245719399999999,,0x8E,0x28
20.248695999999999,,0x00,0x0F
20.251672599999999,,0x10,0x20
20.254649199999999,,0x17,0x04
20.257625600000001,,0x80,0x00
20.260601999999999,,0x5A,0xC2
20.296779000000001,,0xB0,0x0B
20.299295399999998,,0x00,0x07
20.302271999999999,,0x20,0x00
20.305248400000000,,0x06,0x28
20.308225199999999,,0x00,0x0F
20.311201600000000,,0x10,0x20
20.314178200000001,,0x17,0x04
20.317154800000001,,0x80,0x00
20.320131400000001,,0xD2,0xC2
20.356631400000001,,0xB0,0x0B
20.358825599999999,,0x00,0x07
20.361802000000001,,0x20,0x00
20.364778399999999,,0x8E,0x28
20.367754999999999,,0x00,0x0F
20.370731400000000,,0x10,0x20
20.373707799999998,,0x18,0x04
20.376684600000001,,0x80,0x00
20.379660999999999,,0x5B,0xC2
20.416175599999999,,0xB0,0x0B
20.418355399999999,,0x00,0x07
20.421331800000001,,0x20,0x00
20.424308400000001,,0x06,0x28
20.427284799999999,,0x00,0x0F
20.430261399999999,,0x10,0x20
20.433237800000001,,0x18,0x04
20.436214199999998,,0x80,0x00
20.439190600000000,,0xD3,0xC2
20.475703599999999,,0xB0,0x0B
20.477884000000000,,0x00,0x07
20.480860400000001,,0x20,0x00
20.483837000000001,,0x8E,0x28
20.486813800000000,,0x00,0x0F
20.489790200000002,,0x10,0x20
20.492766599999999,,0x18,0x04
20.495743200000000,,0x80,0x00
20.498719800000000,,0x5B,0xC2
20.535248200000002,,0xB0,0x0B
20.537414600000002,,0x00,0x07
20.540391199999998,,0x20,0x00
20.543367799999999,,0x06,0x28
20.546344200000000,,0x00,0x0F
20.549320800000000,,0x10,0x20
20.552297400000000,,0x18,0x04
20.555274000000001,,0x80,0x00
20.558250600000001,,0xD3,0xC2
20.594797400000001,,0xB0,0x0B
20.596945600000002,,0x00,0x07
20.599922200000002,,0x20,0x00
20.602898600000000,,0x8E,0x28
20.605875200000000,,0x00,0x0F
20.608851800000000,,0x10,0x20
20.611828400000000,,0x18,0x04
20.614804800000002,,0x80,0x00
20.617781200000000,,0x5B,0xC2
20.654333999999999,,0xB0,0x0B
20.656475400000001,,0x00,0x07
20.659452000000002,,0x20,0x00
20.662428400000000,,0x06,0x28
20.665405000000000,,0x00,0x0F
20.668381600000000,,0x10,0x20
20.671358000000001,,0x18,0x04
20.674334600000002,,0x80,0x00
20.677311199999998,,0xD3,0xC2
20.713926200000000,,0xB0,0x0B
20.716007399999999,,0x00,0x07
20.718983999999999,,0x20,0x00
20.721960400000000,,0x8E,0x28
20.724937000000001,,0x00,0x0F
20.727913399999998,,0x10,0x20
20.730889999999999,,0x18,0x04
20.733866400000000,,0x80,0x00
20.736843000000000,,0x5B,0xC2
20.773464199999999,,0xB0,0x0B
20.775538800000000,,0x00,0x07
20.778515400000000,,0x20,0x00
20.781492000000000,,0x06,0x28
20.784468600000000,,0x00,0x0F
20.787445200000001,,0x10,0x20
20.790421800000001,,0x18,0x04
20.793398600000000,,0x80,0x00
20.796375200000000,,0xD3,0xC2
20.832446000000001,,0xB0,0x0B
20.835070800000000,,0x00,0x07
20.838047199999998,,0x20,0x00
20.841023600000000,,0x8E,0x28
20.844000200000000,,0x00,0x0F
20.846976600000001,,0x10,0x20
20.849953200000002,,0x18,0x04
20.852929600000000,,0x80,0x00
20.855905799999999,,0x5B,0xC2
20.892038199999998,,0xB0,0x0B
20.894599599999999,,0x00,0x07
20.897576200000000,,0x20,0x00
20.900552600000001,,0x06,0x28
20.903529200000001,,0x00,0x0F
20.906505599999999,,0x10,0x20
20.909482199999999,,0x18,0x04
20.912458800000000,,0x80,0x00
20.915435400000000,,0xD3,0xC2
20.951613399999999,,0xB0,0x0B
20.954131000000000,,0x00,0x07
20.957107600000001,,0x20,0x00
20.960084200000001,,0x8E,0x28
20.963060800000001,,0x00,0x0F
20.966037400000001,,0x10,0x20
20.969014000000001,,0x18,0x04
20.971990399999999,,0x80,0x00
20.974966800000001,,0x5B,0xC2
21.011203200000001,,0xB0,0x0B
21.013661400000000,,0x00,0x07
21.016638000000000,,0x20,0x00
21.019614399999998,,0x06,0x28
21.022590999999998,,0x00,0x0F
21.025567599999999,,0x10,0x20
21.028544199999999,,0x18,0x04
21.031520600000000,,0x80,0x00
21.034497000000002,,0xD3,0xC2
21.070780599999999,,0xB0,0x0B
21.073192200000001,,0x00,0x07
21.076168800000001,,0x20,0x00
21.079145400000002,,0x8E,0x28
21.082121999999998,,0x00,0x0F
21.085098400000000,,0x10,0x20
21.088075000000000,,0x18,0x04
21.091051600000000,,0x80,0x00
21.094028200000000,,0x5B,0xC2
21.130372200000000,,0xB0,0x0B
21.132722999999999,,0x00,0x07
21.135699599999999,,0x20,0x00
21.138676000000000,,0x06,0x28
21.141652600000000,,0x00,0x0F
21.144628999999998,,0x10,0x20
21.147605400000000,,0x18,0x04
21.150582000000000,,0x80,0x00
21.153558600000000,,0xD3,0xC2
21.189963200000001,,0xB0,0x0B
21.192254399999999,,0x00,0x07
21.195230800000001,,0x20,0x00
21.198207400000001,,0x8E,0x28
21.201184000000001,,0x00,0x0F
21.204160600000002,,0x10,0x20
21.207137199999998,,0x18,0x04
21.210113799999998,,0x80,0x00
21.213090399999999,,0x5B,0xC2
21.249540600000000,,0xB0,0x0B
21.251784799999999,,0x00,0x07
21.254761200000001,,0x20,0x00
21.257737800000001,,0x06,0x28
21.260714199999999,,0x00,0x0F
21.263690799999999,,0x10,0x20
21.266667200000001,,0x18,0x04
21.269643800000001,,0x80,0x00
21.272620199999999,,0xD3,0xC2
21.308685199999999,,0xB0,0x0B
21.311314800000002,,0x00,0x07
21.314291399999998,,0x20,0x00
21.317267999999999,,0x8E,0x28
21.320244599999999,,0x00,0x0F
21.323221199999999,,0x10,0x20
21.326197799999999,,0x19,0x04
21.329174200000001,,0x80,0x00
21.332150599999999,,0x5C,0xC2
21.368734199999999,,0xB0,0x0B
21.370844800000000,,0x00,0x07
21.373821199999998,,0x20,0x00
21.376797600000000,,0x06,0x28
21.379774200000000,,0x00,0x0F
21.382750600000001,,0x10,0x20
21.385727200000002,,0x19,0x04
21.388703799999998,,0x80,0x00
21.391680399999998,,0xD4,0xC2
21.428231400000001,,0xB0,0x0B
21.430375399999999,,0x00,0x07
21.433352200000002,,0x20,0x00
21.436328799999998,,0x8E,0x28
21.439305200000000,,0x00,0x0F
21.442281800000000,,0x10,0x20
21.445258400000000,,0x19,0x04
21.448235000000000,,0x80,0x00
21.451211600000001,,0x5C,0xC2
21.487728400000002,,0xB0,0x0B
21.489906800000000,,0x00,0x07
21.492883200000001,,0x20,0x00
21.495859599999999,,0x06,0x28
21.498836200000000,,0x00,0x0F
21.501812600000001,,0x10,0x20
21.504788999999999,,0x19,0x04
21.507765400000000,,0x80,0x00
21.510742000000000,,0xD4,0xC2
21.547207199999999,,0xB0,0x0B
21.549434999999999,,0x00,0x07
21.552411400000000,,0x20,0x00
21.555387799999998,,0x8E,0x28
21.558364200000000,,0x00,0x0F
21.561340600000001,,0x10,0x20
21.564316800000000,,0x19,0x04
21.567293400000001,,0x80,0x00
21.570269799999998,,0x5C,0xC2
21.608185800000001,,0xB0,0x0B
21.610947800000002,,0x00,0x07
21.613924399999998,,0x20,0x00
21.616900999999999,,0x06,0x28
21.619877400000000,,0x00,0x0F
21.622853800000001,,0x10,0x20
21.625830400000002,,0x19,0x04
21.628806800000000,,0x80,0x00
21.631783400000000,,0xD4,0xC2
21.666176799999999,,0xB0,0x0B
21.668493800000000,,0x00,0x07
21.671470400000000,,0x20,0x00
21.674447000000001,,0x8E,0x28
21.677423600000001,,0x00,0x0F
21.680399999999999,,0x10,0x20
21.683376400000000,,0x19,0x04
21.686353000000000,,0x80,0x00
21.689329399999998,,0x5C,0xC2
21.725810800000001,,0xB0,0x0B
21.728022200000002,,0x00,0x07
21.730998599999999,,0x20,0x00
21.733975000000001,,0x06,0x28
21.736951399999999,,0x00,0x0F
21.739927800000000,,0x10,0x20
21.742904200000002,,0x19,0x04
21.745880600000000,,0x80,0x00
21.748857200000000,,0xD4,0xC2
21.785449799999999,,0xB0,0x0B
21.787551000000001,,0x00,0x07
21.790527200000000,,0x20,0x00
21.793503600000001,,0x8E,0x28
21.796479999999999,,0x00,0x0F
21.799456200000002,,0x10,0x20
21.802432799999998,,0x19,0x04
21.805409000000001,,0x80,0x00
21.808385399999999,,0x5C,0xC2
21.844456999999998,,0xB0,0x0B
21.847079399999998,,0x00,0x07
21.850055800000000,,0x20,0x00
21.853032400000000,,0x06,0x28
21.856009000000000,,0x00,0x0F
21.858985400000002,,0x10,0x20
21.861961999999998,,0x19,0x04
21.864938400000000,,0x80,0x00
21.867914800000001,,0xD4,0xC2
21.904094199999999,,0xB0,0x0B
21.906607600000001,,0x00,0x07
21.909583999999999,,0x20,0x00
21.912560400000000,,0x8E,0x28
21.915536800000002,,0x00,0x0F
21.918513000000001,,0x10,0x20
21.921489399999999,,0x19,0x04
21.924465800000000,,0x80,0x00
21.927442200000002,,0x5C,0xC2
21.963714599999999,,0xB0,0x0B
21.966135399999999,,0x00,0x07
21.969111800000000,,0x20,0x00
21.972088400000001,,0x06,0x28
21.975064799999998,,0x00,0x0F
21.978041399999999,,0x10,0x20
21.981017999999999,,0x19,0x04
21.983994599999999,,0x80,0x00
21.986971199999999,,0xD4,0xC2
22.023347999999999,,0xB0,0x0B
22.025664800000001,,0x00,0x07
22.028641400000001,,0x20,0x00
22.031617799999999,,0x8E,0x28
22.034594200000001,,0x00,0x0F
22.037570800000001,,0x10,0x20
22.040547199999999,,0x19,0x04
22.043523600000000,,0x80,0x00
22.046500200000001,,0x5C,0xC2
22.082984600000000,,0xB0,0x0B
22.085194200000000,,0x00,0x07
22.088170600000002,,0x20,0x00
22.091147200000002,,0x06,0x28
22.094123799999998,,0x00,0x0F
22.097100200000000,,0x10,0x20
22.100076600000001,,0x19,0x04
22.103053200000002,,0x80,0x00
22.106029400000001,,0xD4,0xC2
22.142606399999998,,0xB0,0x0B
22.144724799999999,,0x00,0x07
22.147701200000000,,0x20,0x00
22.150677399999999,,0x8E,0x28
22.153653800000001,,0x00,0x0F
22.156630199999999,,0x10,0x20
22.159606400000001,,0x19,0x04
22.162582799999999,,0x80,0x00
22.165559200000001,,0x5C,0xC2
22.201696800000001,,0xB0,0x0B
22.204252199999999,,0x20,0x07
22.207228400000002,,0x20,0x00
22.210204800000000,,0x06,0x28
22.213181400000000,,0x00,0x0F
22.216157599999999,,0x10,0x20
22.219134000000000,,0x19,0x04
22.222110399999998,,0x81,0x00
22.225086800000000,,0xF5,0xC2
22.261368000000001,,0xB0,0x0B
22.263780799999999,,0x20,0x07
22.266757200000001,,0x20,0x00
22.269733800000001,,0x8E,0x28
22.272710000000000,,0x00,0x0F
22.275686400000001,,0x10,0x20
22.278663000000002,,0x19,0x04
22.281639599999998,,0x81,0x00
22.284615800000001,,0x7D,0xC2
22.320955600000001,,0xB0,0x0B
22.323309600000002,,0x00,0x07
22.326286000000000,,0x20,0x00
22.329262600000000,,0x06,0x00
22.332239000000001,,0x00,0x0F
22.335215600000002,,0x10,0x20
22.338192200000002,,0x1A,0x04
22.341168799999998,,0x80,0x00
22.344145200000000,,0xD5,0x9A
22.380397599999998,,0xB0,0x0B
22.382839400000002,,0x00,0x07
22.385815800000000,,0x20,0x00
22.388792400000000,,0x8E,0x00
22.391768800000001,,0x00,0x0F
22.394745400000001,,0x10,0x20
22.397721799999999,,0x1A,0x04
22.400698400000000,,0x80,0x00
22.403675000000000,,0x5D,0x9A
22.439738200000001,,0xB0,0x0B
22.442370400000001,,0x00,0x07
22.445347000000002,,0x20,0x00
22.448323400000000,,0x06,0x00
22.451300000000000,,0x00,0x0F
22.454276400000001,,0x10,0x20
22.457253000000001,,0x1A,0x04
22.460229600000002,,0x80,0x00
22.463206000000000,,0xD5,0x9A
22.499666999999999,,0xB0,0x0B
22.501901799999999,,0x00,0x07
22.504878399999999,,0x20,0x00
22.507854999999999,,0x8E,0x00
22.510831799999998,,0x00,0x0F
22.513808399999998,,0x10,0x20
22.516785200000001,,0x1A,0x04
22.519761800000001,,0x80,0x00
22.522738199999999,,0x5D,0x9A
22.559005800000001,,0xB0,0x0B
22.561433200000000,,0x00,0x07
22.564409800000000,,0x20,0x00
22.567386599999999,,0x06,0x00
22.570363199999999,,0x00,0x0F
22.573339600000001,,0x10,0x20
22.576316200000001,,0x1A,0x04
22.579292800000001,,0x80,0x00
22.582269400000001,,0xD5,0x9A
22.618818600000001,,0xB0,0x0B
22.620964000000001,,0x00,0x07
22.623940600000001,,0x20,0x00
22.626916999999999,,0x8E,0x00
22.629893599999999,,0x00,0x0F
22.632870199999999,,0x10,0x20
22.635846600000001,,0x1A,0x04
22.638822999999999,,0x80,0x00
22.641799400000000,,0x5D,0x9A
22.678124799999999,,0xB0,0x0B
22.680493400000000,,0x00,0x07
22.683470000000000,,0x20,0x00
22.686446400000001,,0x06,0x00
22.689423000000001,,0x00,0x0F
22.692399399999999,,0x10,0x20
22.695376000000000,,0x1A,0x04
22.698352799999999,,0x80,0x00
22.701329399999999,,0xD5,0x9A
22.737416799999998,,0xB0,0x0B
22.740024200000001,,0x00,0x07
22.743000800000001,,0x20,0x00
22.745977400000001,,0x8E,0x00
22.748954000000001,,0x00,0x0F
22.751930600000001,,0x10,0x20
22.754907200000002,,0x1A,0x04
22.757883799999998,,0x80,0x00
22.760860399999999,,0x5D,0x9A
22.797299200000001,,0xB0,0x0B
22.799556400000000,,0x00,0x07
22.802532800000002,,0x20,0x00
22.805509199999999,,0x06,0x00
22.808485800000000,,0x00,0x0F
22.811462200000001,,0x10,0x20
22.814438800000001,,0x1A,0x04
22.817415400000002,,0x80,0x00
22.820391999999998,,0xD5,0x9A
22.856591200000000,,0xB0,0x0B
22.859087800000001,,0x00,0x07
22.862064400000001,,0x20,0x00
22.865040799999999,,0x8E,0x00
22.868017200000001,,0x00,0x0F
22.870993800000001,,0x10,0x20
22.873970199999999,,0x1A,0x04
22.876947000000001,,0x80,0x00
22.879923600000001,,0x5D,0x9A
22.916471600000001,,0xB0,0x0B
22.918618599999999,,0x00,0x07
22.921595199999999,,0x20,0x00
22.924571799999999,,0x06,0x00
22.927548399999999,,0x00,0x0F
22.930525200000002,,0x10,0x20
22.933501799999998,,0x1A,0x04
22.936478600000001,,0x80,0x00
22.939455200000001,,0xD5,0x9A
22.975781200000000,,0xB0,0x0B
22.978150200000002,,0x00,0x07
22.981126799999998,,0x20,0x00
22.984103399999999,,0x8E,0x00
22.987079800000000,,0x00,0x0F
22.990056200000001,,0x10,0x20
22.993032599999999,,0x1A,0x04
22.996009000000001,,0x80,0x00
22.998985600000001,,0x5D,0x9A
23.035073199999999,,0xB0,0x0B
23.037680200000000,,0x00,0x07
23.040656599999998,,0x20,0x00
23.043633199999999,,0x06,0x00
23.046610000000001,,0x00,0x0F
23.049586600000001,,0x10,0x20
23.052563200000002,,0x1A,0x04
23.055539799999998,,0x80,0x00
23.058516399999998,,0xD5,0x9A
23.094954800000000,,0xB0,0x0B
23.097212400000000,,0x00,0x07
23.100189000000000,,0x20,0x00
23.103165799999999,,0x8E,0x00
23.106142200000001,,0x00,0x0F
23.109118599999999,,0x10,0x20
23.112095000000000,,0x1A,0x04
23.115071400000001,,0x80,0x00
23.118047799999999,,0x5D,0x9A
23.154243200000000,,0xB0,0x0B
23.156741600000000,,0x00,0x07
23.159718000000002,,0x20,0x00
23.162694399999999,,0x06,0x00
23.165670800000001,,0x00,0x0F
23.168647000000000,,0x10,0x20
23.171623600000000,,0x1A,0x04
23.174600000000002,,0x80,0x00
23.177576400000000,,0xD5,0x9A
23.214122799999998,,0xB0,0x0B
23.216270000000002,,0x00,0x07
23.219246600000002,,0x20,0x00
23.222223000000000,,0x8E,0x00
23.225199400000001,,0x00,0x0F
23.228175799999999,,0x10,0x20
23.231152200000000,,0x1A,0x04
23.234128599999998,,0x80,0x00
23.237105000000000,,0x5D,0x9A
23.273440999999998,,0xB0,0x0B
23.275798800000000,,0x00,0x07
23.278775599999999,,0x20,0x00
23.281752200000000,,0x06,0x00
23.284728800000000,,0x00,0x0F
23.287705200000001,,0x10,0x20
23.290682000000000,,0x1A,0x04
23.293658600000001,,0x80,0x00
23.296635200000001,,0xD5,0x9A
23.333030200000000,,0xB0,0x0B
23.335330800000001,,0x00,0x07
23.338307400000001,,0x20,0x00
23.341284000000002,,0x8E,0x00
23.344260599999998,,0x00,0x0F
23.347237000000000,,0x10,0x20
23.350213600000000,,0x1B,0x04
23.353190000000001,,0x80,0x00
23.356166399999999,,0x5E,0x9A
23.392338200000001,,0xB0,0x0B
23.394861400000000,,0x00,0x07
23.397837800000001,,0x20,0x00
23.400814400000002,,0x06,0x00
23.403791200000001,,0x00,0x0F
23.406767599999998,,0x10,0x20
23.409744199999999,,0x1B,0x04
23.412720799999999,,0x80,0x00
23.415697399999999,,0xD6,0x9A
23.452203200000000,,0xB0,0x0B
23.454391999999999,,0x00,0x07
23.457368599999999,,0x20,0x00
23.460345400000001,,0x8E,0x00
23.463321799999999,,0x00,0x0F
23.466298200000001,,0x10,0x20
23.469275000000000,,0x1B,0x04
23.472251600000000,,0x80,0x00
23.475228000000001,,0x5E,0x9A
23.511507800000000,,0xB0,0x0B
23.513921199999999,,0x00,0x07
23.516897400000001,,0x20,0x00
23.519873799999999,,0x06,0x00
23.522850200000001,,0x00,0x0F
23.525826800000001,,0x10,0x20
23.528803199999999,,0x1B,0x04
23.531779400000001,,0x80,0x00
23.534755799999999,,0xD6,0x9A
23.571388800000001,,0xB0,0x0B
23.574440599999999,,0x00,0x07
23.577416800000002,,0x20,0x00
23.580393200000000,,0x8E,0x00
23.583369600000001,,0x00,0x0F
23.586345999999999,,0x10,0x20
23.589322599999999,,0x1B,0x04
23.592299000000001,,0x80,0x00
23.595275399999998,,0x5E,0x9A
23.630882400000001,,0xB0,0x0B
23.632979599999999,,0x00,0x07
23.635956000000000,,0x20,0x00
23.638932400000002,,0x06,0x00
23.641908800000000,,0x00,0x0F
23.644885400000000,,0x10,0x20
23.647861800000001,,0x1B,0x04
23.650838199999999,,0x80,0x00
23.653814600000000,,0xD6,0x9A
23.690196000000000,,0xB0,0x0B
23.692508799999999,,0x00,0x07
23.695485200000000,,0x20,0x00
23.698461800000000,,0x8E,0x00
23.701438400000001,,0x00,0x0F
23.704414799999999,,0x10,0x20
23.707391399999999,,0x1B,0x04
23.710367800000000,,0x80,0x00
23.713344400000000,,0x5E,0x9A
23.749537000000000,,0xB0,0x0B
23.752038599999999,,0x00,0x07
23.755015000000000,,0x20,0x00
23.757991600000000,,0x06,0x00
23.760968200000001,,0x00,0x0F
23.763944599999999,,0x10,0x20
23.766921400000001,,0x1B,0x04
23.769898000000001,,0x80,0x00
23.772874399999999,,0xD6,0x9A
23.809466000000000,,0xB0,0x0B
23.811571000000001,,0x00,0x07
23.814547600000001,,0x20,0x00
23.817524200000001,,0x8E,0x00
23.820500599999999,,0x00,0x0F
23.823477000000000,,0x10,0x20
23.826453600000001,,0x1B,0x04
23.829429999999999,,0x80,0x00
23.832406400000000,,0x5E,0x9A
23.868785200000001,,0xB0,0x0B
23.871100800000001,,0x00,0x07
23.874077199999999,,0x20,0x00
23.877053799999999,,0x06,0x00
23.880030200000000,,0x00,0x0F
23.883006800000000,,0x10,0x20
23.885983199999998,,0x1B,0x04
23.888959600000000,,0x80,0x00
23.891936200000000,,0xD6,0x9A
23.928123599999999,,0xB0,0x0B
23.930631200000001,,0x00,0x07
23.933607599999998,,0x20,0x00
23.936584000000000,,0x8E,0x00
23.939560600000000,,0x00,0x0F
23.942537200000000,,0x10,0x20
23.945513800000001,,0x1B,0x04
23.948490400000001,,0x80,0x00
23.951466799999999,,0x5E,0x9A
23.988048800000001,,0xB0,0x0B
23.990163400000000,,0x00,0x07
23.993139800000002,,0x20,0x00
23.996116199999999,,0x06,0x00
23.999092800000000,,0x00,0x0F
24.002069400000000,,0x10,0x20
24.005045800000001,,0x1B,0x04
24.008022400000002,,0x80,0x00
24.010998799999999,,0xD6,0x9A
24.047383799999999,,0xB0,0x0B
24.049693399999999,,0x00,0x07
24.052669999999999,,0x20,0x00
24.055646599999999,,0x8E,0x00
24.058623200000000,,0x00,0x0F
24.061599800000000,,0x10,0x20
24.064576200000001,,0x1B,0x04
24.067552599999999,,0x80,0x00
24.070529000000001,,0x5E,0x9A
24.106739600000001,,0xB0,0x0B
24.109224999999999,,0x00,0x07
24.112201599999999,,0x20,0x00
24.115178199999999,,0x06,0x00
24.118155000000002,,0x00,0x0F
24.121131599999998,,0x10,0x20
24.124108199999998,,0x1B,0x04
24.127084799999999,,0x80,0x00
24.130061399999999,,0xD6,0x9A
24.166669200000001,,0xB0,0x0B
24.168758400000002,,0x00,0x07
24.171735200000001,,0x20,0x00
24.174711800000001,,0x8E,0x00
24.177688600000000,,0x00,0x0F
24.180665200000000,,0x10,0x20
24.183641600000001,,0x1B,0x04
24.186618200000002,,0x80,0x00
24.189594799999998,,0x5E,0x9A
24.225975800000001,,0xB0,0x0B
24.228289799999999,,0x00,0x07
24.231266399999999,,0x20,0x00
24.234242800000001,,0x06,0x00
24.237219400000001,,0x00,0x0F
24.240196200000000,,0x10,0x20
24.243172800000000,,0x1B,0x04
24.246149400000000,,0x80,0x00
24.249126000000000,,0xD6,0x9A
24.285681600000000,,0xB0,0x0B
24.287821600000001,,0x20,0x07
24.290798200000001,,0x20,0x00
24.293774800000001,,0x8E,0x00
24.296751400000002,,0x00,0x0F
24.299728200000001,,0x10,0x20
24.302704800000001,,0x1C,0x04
24.305681400000001,,0x81,0x00
24.308658200000000,,0x80,0x9A
24.345071999999998,,0xB0,0x0B
24.347352999999998,,0x20,0x07
24.350329599999998,,0x20,0x00
24.353306000000000,,0x06,0x00
24.356282199999999,,0x00,0x0F
24.359258600000000,,0x10,0x20
24.362235200000001,,0x1C,0x04
24.365211599999999,,0x81,0x00
24.368188000000000,,0xF8,0x9A
24.404482800000000,,0xB0,0x0B
24.406882599999999,,0x20,0x07
24.409859200000000,,0x20,0x00
24.412835800000000,,0x8E,0x08
24.415812599999999,,0x00,0x0F
24.418789199999999,,0x10,0x20
24.421765799999999,,0x1C,0x04
24.424742400000000,,0x81,0x00
24.427718800000001,,0x80,0xA2
24.464088199999999,,0xB0,0x0B
24.466414199999999,,0x00,0x07
24.469390799999999,,0x20,0x00
24.472366999999998,,0x06,0x08
24.475343400000000,,0x00,0x0F
24.478319800000001,,0x10,0x20
24.481296199999999,,0x1C,0x04
24.484272600000001,,0x80,0x00
24.487248800000000,,0xD7,0xA2
24.523426199999999,,0xB0,0x0B
24.525943800000000,,0x00,0x07
24.528920200000002,,0x20,0x00
24.531896600000000,,0x8E,0x08
24.534873200000000,,0x00,0x0F
24.537849800000000,,0x10,0x20
24.540826400000000,,0x1C,0x04
24.543803000000000,,0x80,0x00
24.546779399999998,,0x5F,0xA2
24.583249599999998,,0xB0,0x0B
24.585473400000001,,0x00,0x07
24.588449799999999,,0x20,0x00
24.591426400000000,,0x06,0x08
24.594403000000000,,0x00,0x0F
24.597379400000001,,0x10,0x20
24.600356000000001,,0x1C,0x04
24.603332600000002,,0x80,0x00
24.606309199999998,,0xD7,0xA2
24.642544000000001,,0xB0,0x0B
24.645004799999999,,0x00,0x07
24.647981399999999,,0x20,0x00
24.650957999999999,,0x8E,0x08
24.653934400000001,,0x00,0x0F
24.656911000000001,,0x10,0x20
24.659887800000000,,0x1C,0x04
24.662864400000000,,0x80,0x00
24.665841000000000,,0x5F,0xA2
24.702426599999999,,0xB0,0x0B
24.704537200000001,,0x00,0x07
24.707513800000001,,0x20,0x00
24.710490400000001,,0x06,0x08
24.713466799999999,,0x00,0x0F
24.716443399999999,,0x10,0x20
24.719420000000000,,0x1C,0x04
24.722396799999999,,0x80,0x00
24.725373399999999,,0xD7,0xA2
24.761735600000002,,0xB0,0x0B
24.764068800000000,,0x00,0x07
24.767045199999998,,0x20,0x00
24.770022000000001,,0x8E,0x08
24.772998600000001,,0x00,0x0F
24.775975200000001,,0x10,0x20
24.778951800000002,,0x1C,0x04
24.781928400000002,,0x80,0x00
24.784904999999998,,0x5F,0xA2
24.821030400000001,,0xB0,0x0B
24.823601000000000,,0x00,0x07
24.826577600000000,,0x20,0x00
24.829554200000000,,0x06,0x08
24.832530800000001,,0x00,0x0F
24.835507400000001,,0x10,0x20
24.838484000000001,,0x1C,0x04
24.841460800000000,,0x80,0x00
24.844437400000000,,0xD7,0xA2
24.880910799999999,,0xB0,0x0B
24.883134399999999,,0x00,0x07
24.886111000000000,,0x20,0x00
24.889087600000000,,0x8E,0x08
24.892064200000000,,0x00,0x0F
24.895040800000000,,0x10,0x20
24.898017400000001,,0x1C,0x04
24.900994200000000,,0x80,0x00
24.903970999999999,,0x5F,0xA2
24.940206600000000,,0xB0,0x0B
24.942667000000000,,0x00,0x07
24.945643600000000,,0x20,0x00
24.948620200000001,,0x06,0x08
24.951596800000001,,0x00,0x0F
24.954573400000001,,0x10,0x20
24.957549799999999,,0x1C,0x04
24.960526200000000,,0x80,0x00
24.963502800000001,,0xD7,0xA2
25.000088600000002,,0xB0,0x0B
25.002199200000000,,0x00,0x07
25.005175800000000,,0x20,0x00
25.008152200000001,,0x8E,0x08
25.011128800000002,,0x00,0x0F
25.014105399999998,,0x10,0x20
25.017081800000000,,0x1C,0x04
25.020058599999999,,0x80,0x00
25.023034800000001,,0x5F,0xA2
25.059397000000001,,0xB0,0x0B
25.061729400000001,,0x00,0x07
25.064705799999999,,0x20,0x00
25.067682200000000,,0x06,0x08
25.070658600000002,,0x00,0x0F
25.073635199999998,,0x10,0x20
25.076611600000000,,0x1C,0x04
25.079588200000000,,0x80,0x00
25.082564600000001,,0xD7,0xA2
25.118688200000001,,0xB0,0x0B
25.121258999999998,,0x00,0x07
25.124235599999999,,0x20,0x00
25.127212199999999,,0x8E,0x08
25.130188600000000,,0x00,0x0F
25.133165200000001,,0x10,0x20
25.136141800000001,,0x1C,0x04
25.139118400000001,,0x80,0x00
25.142095000000001,,0x5F,0xA2
25.178567600000001,,0xB0,0x0B
25.180790399999999,,0x00,0x07
25.183767000000000,,0x20,0x00
25.186743600000000,,0x06,0x08
25.189720200000000,,0x00,0x0F
25.192696600000001,,0x10,0x20
25.195673200000002,,0x1C,0x04
25.198649799999998,,0x80,0x00
25.201626399999999,,0xD7,0xA2
25.237861200000001,,0xB0,0x0B
25.240321999999999,,0x00,0x07
25.243298800000002,,0x20,0x00
25.246275399999998,,0x8E,0x08
25.249252200000001,,0x00,0x0F
25.252228800000001,,0x10,0x20
25.255205400000001,,0x1C,0x04
25.258182200000000,,0x80,0x00
25.261158999999999,,0x5F,0xA2
25.297485600000002,,0xB0,0x0B
25.299854000000000,,0x00,0x07
25.302830600000000,,0x20,0x00
25.305807200000000,,0x06,0x08
25.308783800000000,,0x00,0x0F
25.311760400000001,,0x10,0x20
25.314736799999999,,0x1D,0x04
25.317713399999999,,0x80,0x00
25.320689999999999,,0xD8,0xA2
25.356793199999998,,0xB0,0x0B
25.359384800000001,,0x00,0x07
25.362361199999999,,0x20,0x00
25.365337799999999,,0x8E,0x08
25.368314399999999,,0x00,0x0F
25.371290800000001,,0x10,0x20
25.374267199999998,,0x1D,0x04
25.377243600000000,,0x80,0x00
25.380220200000000,,0x60,0xA2
25.416654800000000,,0xB0,0x0B
25.418915599999998,,0x00,0x07
25.421892199999998,,0x20,0x00
25.424868799999999,,0x06,0x08
25.427845399999999,,0x00,0x0F
25.430821800000000,,0x10,0x20
25.433798599999999,,0x1D,0x04
25.436775200000000,,0x80,0x00
25.439751800000000,,0xD8,0xA2
25.475961399999999,,0xB0,0x0B
25.478446000000002,,0x00,0x07
25.481422599999998,,0x20,0x00
25.484399199999999,,0x8E,0x08
25.487375799999999,,0x00,0x0F
25.490352200000000,,0x10,0x20
25.493328600000002,,0x1D,0x04
25.496305199999998,,0x80,0x00
25.499281600000000,,0x60,0xA2
25.535823799999999,,0xB0,0x0B
25.537975599999999,,0x00,0x07
25.540952200000000,,0x20,0x00
25.543928600000001,,0x06,0x08
25.546905200000001,,0x00,0x0F
25.549881800000001,,0x10,0x20
25.552858400000002,,0x1D,0x04
25.555834800000000,,0x80,0x00
25.558811400000000,,0xD8,0xA2
25.595335200000001,,0xB0,0x0B
25.597506599999999,,0x00,0x07
25.600483000000001,,0x20,0x00
25.603459600000001,,0x8E,0x08
25.606435999999999,,0x00,0x0F
25.609412400000000,,0x10,0x20
25.612388800000002,,0x1D,0x04
25.615365199999999,,0x80,0x00
25.618341600000001,,0x60,0xA2
25.654687400000000,,0xB0,0x0B
25.657035199999999,,0x00,0x07
25.660011600000001,,0x20,0x00
25.662987800000000,,0x06,0x08
25.665964200000001,,0x00,0x0F
25.668940599999999,,0x10,0x20
25.671917000000001,,0x1D,0x04
25.674893200000000,,0x80,0x00
25.677869600000001,,0xD8,0xA2
25.714024200000001,,0xB0,0x0B
25.716563600000001,,0x00,0x07
25.719539999999999,,0x20,0x00
25.722516400000000,,0x8E,0x08
25.725492800000001,,0x00,0x0F
25.728469199999999,,0x10,0x20
25.731445600000001,,0x1D,0x04
25.734421999999999,,0x80,0x00
25.737398400000000,,0x60,0xA2
25.773951000000000,,0xB0,0x0B
25.776092800000001,,0x00,0x07
25.779069400000001,,0x20,0x00
25.782046000000001,,0x06,0x08
25.785022600000001,,0x00,0x0F
25.787998999999999,,0x10,0x20
25.790975599999999,,0x1D,0x04
25.793952200000000,,0x80,0x00
25.796928600000001,,0xD8,0xA2
25.833287599999998,,0xB0,0x0B
25.835622000000001,,0x00,0x07
25.838598600000001,,0x20,0x00
25.841575200000001,,0x8E,0x08
25.844551599999999,,0x00,0x0F
25.847528000000001,,0x10,0x20
25.850504600000001,,0x1D,0x04
25.853480999999999,,0x80,0x00
25.856457400000000,,0x60,0xA2
25.892641600000001,,0xB0,0x0B
25.895151400000000,,0x00,0x07
25.898127800000001,,0x20,0x00
25.901104199999999,,0x06,0x08
25.904080400000002,,0x00,0x0F
25.907056999999998,,0x10,0x20
25.910033400000000,,0x1D,0x04
25.913009800000001,,0x80,0x00
25.915986199999999,,0xD8,0xA2
25.952572199999999,,0xB0,0x0B
25.954678600000001,,0x00,0x07
25.957654800000000,,0x20,0x00
25.960630999999999,,0x8E,0x08
25.963607400000001,,0x00,0x0F
25.966584000000001,,0x10,0x20
25.969560600000001,,0x1D,0x04
25.972537200000001,,0x80,0x00
25.975513599999999,,0x60,0xA2
26.011954599999999,,0xB0,0x0B
26.014207200000001,,0x20,0x07
26.017183599999999,,0x20,0x00
26.020160000000001,,0x06,0x08
26.023136600000001,,0x00,0x0F
26.026112999999999,,0x10,0x20
26.029089599999999,,0x1D,0x04
26.032066000000000,,0x81,0x00
26.035042399999998,,0xF9,0xA2
26.071359800000000,,0xB0,0x0B
26.073737200000000,,0x20,0x07
26.076713800000000,,0x20,0x00
26.079690400000000,,0x8E,0x08
26.082666799999998,,0x00,0x0F
26.085643399999999,,0x10,0x20
26.088619999999999,,0x1D,0x04
26.091596599999999,,0x81,0x00
26.094573199999999,,0x81,0xA2
26.130751400000001,,0xB0,0x0B
26.133268399999999,,0x20,0x07
26.136244999999999,,0x20,0x00
26.139221599999999,,0x06,0x10
26.142198199999999,,0x00,0x0F
26.145174600000001,,0x10,0x20
26.148151200000001,,0x1D,0x04
26.151127599999999,,0x81,0x00
26.154104400000001,,0xF9,0xAA
26.190400199999999,,0xB0,0x0B
26.192799200000000,,0x00,0x07
26.195775999999999,,0x20,0x00
26.198752800000001,,0x8E,0x10
26.201729400000001,,0x00,0x0F
26.204706000000002,,0x10,0x20
26.207682599999998,,0x1D,0x04
26.210659199999998,,0x80,0x00
26.213635799999999,,0x60,0xAA
26.249771599999999,,0xB0,0x0B
26.252331999999999,,0x00,0x07
26.255308599999999,,0x20,0x00
26.258285200000000,,0x06,0x10
26.261261600000001,,0x00,0x0F
26.264238200000001,,0x10,0x20
26.267214800000001,,0x1D,0x04
26.270191199999999,,0x80,0x00
26.273167999999998,,0xD8,0xAA
26.309407799999999,,0xB0,0x0B
26.311862999999999,,0x00,0x07
26.314839400000000,,0x20,0x00
26.317816199999999,,0x8E,0x10
26.320792600000001,,0x00,0x0F
26.323769200000001,,0x10,0x20
26.326745800000001,,0x1E,0x04
26.329722400000001,,0x80,0x00
26.332698799999999,,0x61,0xAA
26.368763200000000,,0xB0,0x0B
26.371394200000001,,0x00,0x07
26.374370800000001,,0x20,0x00
26.377347400000001,,0x06,0x10
26.380324000000002,,0x00,0x0F
26.383300800000001,,0x10,0x20
26.386277400000001,,0x1E,0x04
26.389254000000001,,0x80,0x00
26.392230600000001,,0xD9,0xAA
26.428672800000001,,0xB0,0x0B
26.430924399999999,,0x00,0x07
26.433900999999999,,0x20,0x00
26.436877599999999,,0x8E,0x10
26.439854000000000,,0x00,0x0F
26.442830600000001,,0x10,0x20
26.445806999999999,,0x1E,0x04
26.448783599999999,,0x80,0x00
26.451760199999999,,0x61,0xAA
26.488025600000000,,0xB0,0x0B
26.490455600000001,,0x00,0x07
26.493432200000001,,0x20,0x00
26.496408599999999,,0x06,0x10
26.499385199999999,,0x00,0x0F
26.502361600000000,,0x10,0x20
26.505338200000001,,0x1E,0x04
26.508314800000001,,0x80,0x00
26.511291400000001,,0xD9,0xAA
26.547387600000000,,0xB0,0x0B
26.549986600000000,,0x00,0x07
26.552961799999999,,0x20,0x00
26.555938200000000,,0x8E,0x10
26.558914600000001,,0x00,0x0F
26.561890999999999,,0x10,0x20
26.564867400000001,,0x1E,0x04
26.567843799999999,,0x80,0x00
26.570820200000000,,0x61,0xAA
26.607157000000001,,0xB0,0x0B
26.609514399999998,,0x00,0x07
26.612490800000000,,0x20,0x00
26.615467400000000,,0x06,0x10
26.618443800000001,,0x00,0x0F
26.621420400000002,,0x10,0x20
26.624396999999998,,0x1E,0x04
26.627373599999999,,0x80,0x00
26.630350400000001,,0xD9,0xAA
26.666466600000000,,0xB0,0x0B
26.669045799999999,,0x00,0x07
26.672022399999999,,0x20,0x00
26.674999199999998,,0x8E,0x10
26.677975600000000,,0x00,0x0F
26.680952200000000,,0x10,0x20
26.683928600000002,,0x1E,0x04
26.686904999999999,,0x80,0x00
26.689881400000001,,0x61,0xAA
26.726329799999998,,0xB0,0x0B
26.728574999999999,,0x00,0x07
26.731551400000001,,0x20,0x00
26.734528000000001,,0x06,0x10
26.737504399999999,,0x00,0x0F
26.740480999999999,,0x10,0x20
26.743457400000000,,0x1E,0x04
26.746433799999998,,0x80,0x00
26.749410399999999,,0xD9,0xAA
26.785633799999999,,0xB0,0x0B
26.788103400000001,,0x00,0x07
26.791079799999999,,0x20,0x00
26.794056399999999,,0x8E,0x10
26.797032800000000,,0x00,0x0F
26.800009200000002,,0x10,0x20
26.802985600000000,,0x1E,0x04
26.805962000000001,,0x80,0x00
26.808938600000001,,0x61,0xAA
26.845513199999999,,0xB0,0x0B
26.847635799999999,,0x00,0x07
26.850612399999999,,0x20,0x00
26.853588800000001,,0x06,0x10
26.856565400000001,,0x00,0x0F
26.859542000000001,,0x10,0x20
26.862518600000001,,0x1E,0x04
26.865495200000002,,0x80,0x00
26.868471599999999,,0xD9,0xAA
26.904805199999998,,0xB0,0x0B
26.907165599999999,,0x00,0x07
26.910142000000000,,0x20,0x00
26.913118399999998,,0x8E,0x10
26.916094800000000,,0x00,0x0F
26.919071200000001,,0x10,0x20
26.922047599999999,,0x1E,0x04
26.925024000000001,,0x80,0x00
26.928000399999998,,0x61,0xAA
26.964109600000000,,0xB0,0x0B
26.966695000000001,,0x00,0x07
26.969671399999999,,0x20,0x00
26.972647800000001,,0x06,0x10
26.975624199999999,,0x00,0x0F
26.978600600000000,,0x10,0x20
26.981577000000001,,0x1E,0x04
26.984553200000001,,0x80,0x00
26.987529800000001,,0xD9,0xAA
27.023968799999999,,0xB0,0x0B
27.026223600000002,,0x00,0x07
27.029200199999998,,0x20,0x00
27.032176799999998,,0x8E,0x10
27.035153200000000,,0x00,0x0F
27.038129800000000,,0x10,0x20
27.041106400000000,,0x1E,0x04
27.044083000000001,,0x80,0x00
27.047059399999998,,0x61,0xAA
27.083275799999999,,0xB0,0x0B
27.085754600000001,,0x00,0x07
27.088730999999999,,0x20,0x00
27.091707400000001,,0x06,0x10
27.094683799999999,,0x00,0x0F
27.097660399999999,,0x10,0x20
27.100636800000000,,0x1E,0x04
27.103613400000000,,0x80,0x00
27.106589799999998,,0xD9,0xAA
27.143154400000000,,0xB0,0x0B
27.145284000000000,,0x00,0x07
27.148260400000002,,0x20,0x00
27.151236999999998,,0x8E,0x10
27.154213599999999,,0x00,0x0F
27.157190000000000,,0x10,0x20
27.160166600000000,,0x1E,0x04
27.163143200000000,,0x80,0x00
27.166119599999998,,0x61,0xAA
27.202446399999999,,0xB0,0x0B
27.204815000000000,,0x00,0x07
27.207791600000000,,0x20,0x00
27.210768200000000,,0x06,0x10
27.213744999999999,,0x00,0x0F
27.216721799999998,,0x10,0x20
27.219698399999999,,0x1E,0x04
27.222674999999999,,0x80,0x00
27.225651800000001,,0xD9,0xAA
27.262066200000000,,0xB0,0x0B
27.264347999999998,,0x00,0x07
27.267324400000000,,0x20,0x00
27.270301000000000,,0x8E,0x10
27.273277600000000,,0x00,0x0F
27.276254399999999,,0x10,0x20
27.279230999999999,,0x1F,0x04
27.282207600000000,,0x80,0x00
27.285184200000000,,0x62,0xAA
27.321357200000001,,0xB0,0x0B
27.323880599999999,,0x00,0x07
27.326857199999999,,0x20,0x00
27.329833799999999,,0x06,0x10
27.332810400000000,,0x00,0x0F
27.335787000000000,,0x10,0x20
27.338763400000001,,0x1F,0x04
27.341740200000000,,0x80,0x00
27.344716800000000,,0xDA,0xAA
27.381238600000000,,0xB0,0x0B
27.383412000000000,,0x00,0x07
27.386388600000000,,0x20,0x00
27.389365200000000,,0x8E,0x10
27.392341800000001,,0x00,0x0F
27.395318199999998,,0x10,0x20
27.398294799999999,,0x1F,0x04
27.401271200000000,,0x80,0x00
27.404247800000000,,0x62,0xAA
27.440549000000001,,0xB0,0x0B
27.442943000000000,,0x00,0x07
27.445919600000000,,0x20,0x00
27.448896200000000,,0x06,0x10
27.451872600000002,,0x00,0x0F
27.454848999999999,,0x10,0x20
27.457825400000001,,0x1F,0x04
27.460802000000001,,0x80,0x00
27.463778399999999,,0xDA,0xAA
27.499839200000000,,0xB0,0x0B
27.502472999999998,,0x00,0x07
27.505449400000000,,0x20,0x00
27.508426000000000,,0x8E,0x10
27.511402600000000,,0x00,0x0F
27.514379200000000,,0x10,0x20
27.517355599999998,,0x1F,0x04
27.520332000000000,,0x80,0x00
27.523308400000001,,0x62,0xAA
27.559910599999998,,0xB0,0x0B
27.562003600000001,,0x00,0x07
27.564980400000000,,0x20,0x00
27.567957000000000,,0x06,0x10
27.570933400000001,,0x00,0x0F
27.573910000000001,,0x10,0x20
27.576886399999999,,0x1F,0x04
27.579863000000000,,0x80,0x00
27.582839799999999,,0xDA,0xAA
27.619215600000000,,0xB0,0x0B
27.621534600000000,,0x00,0x07
27.624511200000001,,0x20,0x00
27.627487800000001,,0x8E,0x10
27.630464400000001,,0x00,0x0F
27.633441000000001,,0x10,0x20
27.636417399999999,,0x1F,0x04
27.639393800000001,,0x80,0x00
27.642370400000001,,0x62,0xAA
27.678614199999998,,0xB0,0x0B
27.681065600000000,,0x20,0x07
27.684042200000000,,0x20,0x00
27.687018999999999,,0x06,0x10
27.689995600000000,,0x00,0x0F
27.692972399999999,,0x10,0x20
27.695949200000001,,0x1F,0x04
27.698925800000001,,0x81,0x00
27.701902400000002,,0xFB,0xAA
27.738023800000001,,0xB0,0x0B
27.740598800000001,,0x20,0x07
27.743575199999999,,0x20,0x00
27.746552000000001,,0x8E,0x10
27.749528600000001,,0x00,0x0F
27.752505400000000,,0x10,0x20
27.755482000000001,,0x1F,0x04
27.758458600000001,,0x81,0x00
27.761435200000001,,0x83,0xAA
27.797994200000002,,0xB0,0x0B
27.800131199999999,,0x20,0x07
27.803107799999999,,0x20,0x00
27.806084400000000,,0x06,0x18
27.809061000000000,,0x00,0x0F
27.812037400000001,,0x10,0x20
27.815014000000001,,0x1F,0x04
27.817990399999999,,0x81,0x00
27.820967000000000,,0xFB,0xB2
27.857053600000000,,0xB0,0x0B
27.859660999999999,,0x00,0x07
27.862637599999999,,0x20,0x00
27.865614200000000,,0x8E,0x18
27.868590600000001,,0x00,0x0F
27.871567200000001,,0x10,0x20
27.874543599999999,,0x1F,0x04
27.877520199999999,,0x80,0x00
27.880496600000001,,0x62,0xB2
27.916968600000001,,0xB0,0x0B
27.919192400000000,,0x00,0x07
27.922169199999999,,0x20,0x00
27.925145600000000,,0x06,0x18
27.928122200000001,,0x00,0x0F
27.931098800000001,,0x10,0x20
27.934075600000000,,0x1F,0x04
27.937052200000000,,0x80,0x00
27.940028800000000,,0xDA,0xB2
27.976324200000001,,0xB0,0x0B
27.978724600000000,,0x00,0x07
27.981701200000000,,0x20,0x00
27.984677800000000,,0x8E,0x18
27.987654200000001,,0x00,0x0F
27.990630800000002,,0x10,0x20
27.993607200000000,,0x1F,0x04
27.996583800000000,,0x80,0x00
27.999560200000001,,0x62,0xB2
28.035680200000002,,0xB0,0x0B
28.038254599999998,,0x00,0x07
28.041231199999999,,0x20,0x00
28.044207799999999,,0x06,0x18
28.047184200000000,,0x00,0x0F
28.050160800000000,,0x10,0x20
28.053137400000001,,0x1F,0x04
28.056114000000001,,0x80,0x00
28.059090600000001,,0xDA,0xB2
28.095588800000002,,0xB0,0x0B
28.097786599999999,,0x00,0x07
28.100763400000002,,0x20,0x00
28.103740400000000,,0x8E,0x18
28.106717000000000,,0x00,0x0F
28.109693600000000,,0x10,0x20
28.112670200000000,,0x1F,0x04
28.115646800000000,,0x80,0x00
28.118623400000001,,0x62,0xB2
28.154945200000000,,0xB0,0x0B
28.157319999999999,,0x00,0x07
28.160296599999999,,0x20,0x00
28.163273400000001,,0x06,0x18
28.166250000000002,,0x00,0x0F
28.169226599999998,,0x10,0x20
28.172203199999998,,0x1F,0x04
28.175180000000001,,0x80,0x00
28.178156600000001,,0xDA,0xB2
28.214287800000001,,0xB0,0x0B
28.216852599999999,,0x00,0x07
28.219829399999998,,0x20,0x00
28.222806200000001,,0x8E,0x18
28.225783000000000,,0x00,0x0F
28.228759799999999,,0x10,0x20
28.231736600000001,,0x1F,0x04
28.234713400000000,,0x80,0x00
28.237690000000001,,0x62,0xB2
28.273956600000002,,0xB0,0x0B
28.276390200000002,,0x00,0x07
28.279367199999999,,0x20,0x00
28.282344200000001,,0x06,0x18
28.285321199999998,,0x00,0x0F
28.288298200000000,,0x10,0x20
28.291275200000001,,0x20,0x04
28.294252199999999,,0x80,0x00
28.297229200000000,,0xDB,0xB2
28.333317800000000,,0xB0,0x0B
28.335927399999999,,0x00,0x07
28.338903999999999,,0x20,0x00
28.341880799999998,,0x8E,0x18
28.344857600000001,,0x00,0x0F
28.347834599999999,,0x10,0x20
28.350811400000001,,0x20,0x04
28.353788200000000,,0x80,0x00
28.356764999999999,,0x63,0xB2
28.393235199999999,,0xB0,0x0B
28.395462599999998,,0x00,0x07
28.398439400000001,,0x20,0x00
28.401416000000001,,0x06,0x18
28.404392800000000,,0x00,0x0F
28.407369400000000,,0x10,0x20
28.410346000000001,,0x20,0x04
28.413322800000000,,0x80,0x00
28.416299200000001,,0xDB,0xB2
28.452591000000002,,0xB0,0x0B
28.454996200000000,,0x00,0x07
28.457972800000000,,0x20,0x00
28.460949599999999,,0x8E,0x18
28.463926200000000,,0x00,0x0F
28.466902800000000,,0x10,0x20
28.469879400000000,,0x20,0x04
28.472856000000000,,0x80,0x00
28.475832600000000,,0x63,0xB2
28.511932600000002,,0xB0,0x0B
28.514528400000000,,0x00,0x07
28.517505000000000,,0x20,0x00
28.520481400000001,,0x06,0x18
28.523457600000000,,0x00,0x0F
28.526434200000001,,0x10,0x20
28.529410599999999,,0x20,0x04
28.532387000000000,,0x80,0x00
28.535364600000001,,0xDB,0xB2
28.571731199999999,,0xB0,0x0B
28.574060800000002,,0x00,0x07
28.577037399999998,,0x20,0x00
28.580013999999998,,0x8E,0x18
28.582990800000001,,0x00,0x0F
28.585967199999999,,0x10,0x20
28.588943799999999,,0x20,0x04
28.591920600000002,,0x80,0x00
28.594897199999998,,0x63,0xB2
28.631039600000001,,0xB0,0x0B
28.633594200000001,,0x00,0x07
28.636570599999999,,0x20,0x00
28.639547199999999,,0x06,0x18
28.642523799999999,,0x00,0x0F
28.645500400000000,,0x10,0x20
28.648476800000001,,0x20,0x04
28.651453400000001,,0x80,0x00
28.654430000000001,,0xDB,0xB2
28.690905799999999,,0xB0,0x0B
28.693125599999998,,0x00,0x07
28.696102199999999,,0x20,0x00
28.699078799999999,,0x8E,0x18
28.702055399999999,,0x00,0x0F
28.705031999999999,,0x10,0x20
28.708008599999999,,0x20,0x04
28.710985200000000,,0x80,0x00
28.713961999999999,,0x63,0xB2
28.750213800000001,,0xB0,0x0B
28.752657800000001,,0x00,0x07
28.755634199999999,,0x20,0x00
28.758610800000000,,0x06,0x18
28.761587400000000,,0x00,0x0F
28.764564000000000,,0x10,0x20
28.767540400000001,,0x20,0x04
28.770516799999999,,0x80,0x00
28.773493400000000,,0xDB,0xB2
28.810077000000000,,0xB0,0x0B
28.812191400000000,,0x00,0x07
28.815168000000000,,0x20,0x00
28.818144600000000,,0x8E,0x18
28.821121200000000,,0x00,0x0F
28.824097800000001,,0x10,0x20
28.827074400000001,,0x20,0x04
28.830051200000000,,0x80,0x00
28.833027600000001,,0x63,0xB2
28.869383200000001,,0xB0,0x0B
28.871723800000002,,0x00,0x07
28.874700399999998,,0x20,0x00
28.877676999999998,,0x06,0x18
28.880653599999999,,0x00,0x0F
28.883630199999999,,0x10,0x20
28.886606799999999,,0x20,0x04
28.889583399999999,,0x80,0x00
28.892560199999998,,0xDB,0xB2
28.928692399999999,,0xB0,0x0B
28.931255000000000,,0x00,0x07
28.934231799999999,,0x20,0x00
28.937208399999999,,0x8E,0x18
28.940185000000000,,0x00,0x0F
28.943161400000001,,0x10,0x20
28.946138200000000,,0x20,0x04
28.949114600000001,,0x80,0x00
28.952091200000002,,0x63,0xB2
28.988557000000000,,0xB0,0x0B
28.990786400000001,,0x00,0x07
28.993763000000001,,0x20,0x00
28.996739800000000,,0x06,0x18
28.999716200000002,,0x00,0x0F
29.002693000000001,,0x10,0x20
29.005669600000001,,0x20,0x04
29.008646200000001,,0x80,0x00
29.011623000000000,,0xDB,0xB2
29.047865000000002,,0xB0,0x0B
29.050319399999999,,0x00,0x07
29.053296000000000,,0x20,0x00
29.056272799999999,,0x8E,0x18
29.059249600000001,,0x00,0x0F
29.062226200000001,,0x10,0x20
29.065203000000000,,0x20,0x04
29.068179600000001,,0x80,0x00
29.071155999999998,,0x63,0xB2
29.107731399999999,,0xB0,0x0B
29.109853999999999,,0x00,0x07
29.112830599999999,,0x20,0x00
29.115807199999999,,0x06,0x18
29.118783799999999,,0x00,0x0F
29.121760600000002,,0x10,0x20
29.124737199999998,,0x20,0x04
29.127714000000001,,0x80,0x00
29.130690600000001,,0xDB,0xB2
29.167041800000000,,0xB0,0x0B
29.169387400000002,,0x00,0x07
29.172364000000002,,0x20,0x00
29.175340599999998,,0x8E,0x18
29.178317199999999,,0x00,0x0F
29.181293799999999,,0x10,0x20
29.184270399999999,,0x20,0x04
29.187247200000002,,0x80,0x00
29.190223599999999,,0x63,0xB2
29.226364199999999,,0xB0,0x0B
29.228917400000000,,0x00,0x07
29.231894000000000,,0x20,0x00
29.234870399999998,,0x06,0x18
29.237846800000000,,0x00,0x0F
29.240823200000001,,0x10,0x20
29.243799599999999,,0x20,0x04
29.246776000000001,,0x80,0x00
29.249752399999998,,0xDB,0xB2
29.285991200000002,,0xB0,0x0B
29.288449199999999,,0x20,0x07
29.291425799999999,,0x20,0x00
29.294402600000002,,0x8E,0x18
29.297379200000002,,0x00,0x0F
29.300355799999998,,0x10,0x20
29.303332399999999,,0x21,0x04
29.306308999999999,,0x81,0x00
29.309285599999999,,0x85,0xB2
29.345350000000000,,0xB0,0x0B
29.347980400000001,,0x20,0x07
29.350956799999999,,0x20,0x00
29.353933399999999,,0x06,0x18
29.356909999999999,,0x00,0x0F
29.359886599999999,,0x10,0x20
29.362863200000000,,0x21,0x04
29.365839800000000,,0x81,0x00
29.368816400000000,,0xFD,0xB2
29.405270200000000,,0xB0,0x0B
29.407511400000001,,0x20,0x07
29.410487799999999,,0x20,0x00
29.413464399999999,,0x8E,0x20
29.416440600000001,,0x00,0x0F
29.419416999999999,,0x10,0x20
29.422393400000001,,0x21,0x04
29.425370000000001,,0x81,0x00
29.428346600000001,,0x85,0xBA
29.464957800000001,,0xB0,0x0B
29.467043000000000,,0x00,0x07
29.470019400000002,,0x20,0x00
29.472995999999998,,0x06,0x20
29.475972400000000,,0x00,0x0F
29.478949000000000,,0x10,0x20
29.481925400000002,,0x21,0x04
29.484902200000001,,0x80,0x00
29.487879000000000,,0xDC,0xBA
29.524472800000002,,0xB0,0x0B
29.526578000000001,,0x00,0x07
29.529554399999999,,0x20,0x00
29.532531200000001,,0x8E,0x20
29.535507800000001,,0x00,0x0F
29.538484400000002,,0x10,0x20
29.541460799999999,,0x21,0x04
29.544437400000000,,0x80,0x00
29.547414000000000,,0x64,0xBA
29.583552600000001,,0xB0,0x0B
29.586109600000000,,0x00,0x07
29.589086200000001,,0x20,0x00
29.592062800000001,,0x06,0x20
29.595039600000000,,0x00,0x0F
29.598016399999999,,0x10,0x20
29.600992999999999,,0x21,0x04
29.603969599999999,,0x80,0x00
29.606946400000002,,0xDC,0xBA
29.643147200000001,,0xB0,0x0B
29.645642400000000,,0x00,0x07
29.648619000000000,,0x20,0x00
29.651595600000000,,0x8E,0x20
29.654572200000000,,0x00,0x0F
29.657548800000001,,0x10,0x20
29.660525400000001,,0x21,0x04
29.663502000000001,,0x80,0x00
29.666478800000000,,0x64,0xBA
29.702724000000000,,0xB0,0x0B
29.705175400000002,,0x00,0x07
29.708151800000000,,0x20,0x00
29.711128400000000,,0x06,0x20
29.714105000000000,,0x00,0x0F
29.717081400000001,,0x10,0x20
29.720057799999999,,0x21,0x04
29.723034400000000,,0x80,0x00
29.726011000000000,,0xDC,0xBA
29.762315800000000,,0xB0,0x0B
29.764706199999999,,0x00,0x07
29.767682600000001,,0x20,0x00
29.770658999999998,,0x8E,0x20
29.773635400000000,,0x00,0x0F
29.776612000000000,,0x10,0x20
29.779588400000002,,0x21,0x04
29.782565000000002,,0x80,0x00
29.785541599999998,,0x64,0xBA
29.821907199999998,,0xB0,0x0B
29.824236200000001,,0x00,0x07
29.827212599999999,,0x20,0x00
29.830189200000000,,0x06,0x20
29.833165800000000,,0x00,0x0F
29.836142599999999,,0x10,0x20
29.839119199999999,,0x21,0x04
29.842095600000000,,0x80,0x00
29.845072200000001,,0xDC,0xBA
29.881484199999999,,0xB0,0x0B
29.883767800000001,,0x00,0x07
29.886744400000001,,0x20,0x00
29.889720799999999,,0x8E,0x20
29.892697399999999,,0x00,0x0F
29.895673800000001,,0x10,0x20
29.898650400000001,,0x21,0x04
29.901626799999999,,0x80,0x00
29.904603399999999,,0x64,0xBA
29.941077799999999,,0xB0,0x0B
29.943297999999999,,0x00,0x07
29.946274400000000,,0x20,0x00
29.949250599999999,,0x06,0x20
29.952227000000001,,0x00,0x0F
29.955203399999998,,0x10,0x20
29.958179800000000,,0x21,0x04
29.961156200000001,,0x80,0x00
29.964132800000002,,0xDC,0xBA
30.000650600000000,,0xB0,0x0B
30.002825800000000,,0x00,0x07
30.005802200000002,,0x20,0x00
30.008778599999999,,0x8E,0x20
30.011755000000001,,0x00,0x0F
30.014731399999999,,0x10,0x20
30.017707600000001,,0x21,0x04
30.020683999999999,,0x80,0x00
30.023660599999999,,0x64,0xBA
30.060238800000000,,0xB0,0x0B
30.062353200000000,,0x00,0x07
30.065329599999998,,0x20,0x00
30.068306000000000,,0x06,0x20
30.071282400000001,,0x00,0x0F
30.074258600000000,,0x10,0x20
30.077235000000002,,0x21,0x04
30.080211200000001,,0x80,0x00
30.083187599999999,,0xDC,0xBA
30.119252199999998,,0xB0,0x0B
30.121880999999998,,0x00,0x07
30.124857599999999,,0x20,0x00
30.127834400000001,,0x8E,0x20
30.130810799999999,,0x00,0x0F
30.133787399999999,,0x10,0x20
30.136763800000001,,0x21,0x04
30.139740400000001,,0x80,0x00
30.142717000000001,,0x64,0xBA
30.178826999999998,,0xB0,0x0B
30.181411799999999,,0x00,0x07
30.184388400000000,,0x20,0x00
30.187365000000000,,0x06,0x20
30.190341400000001,,0x00,0x0F
30.193318000000001,,0x10,0x20
30.196294600000002,,0x21,0x04
30.199271199999998,,0x80,0x00
30.202248000000001,,0xDC,0xBA
30.238714800000000,,0xB0,0x0B
30.240943000000001,,0x00,0x07
30.243919600000002,,0x20,0x00
30.246896199999998,,0x8E,0x20
30.249872600000000,,0x00,0x0F
30.252849000000001,,0x10,0x20
30.255825600000001,,0x22,0x04
30.258802200000002,,0x80,0x00
30.261778799999998,,0x65,0xBA
30.298292400000001,,0xB0,0x0B
30.300474399999999,,0x00,0x07
30.303450999999999,,0x20,0x00
30.306427599999999,,0x06,0x20
30.309404199999999,,0x00,0x0F
30.312380800000000,,0x10,0x20
30.315357200000001,,0x22,0x04
30.318334000000000,,0x80,0x00
30.321310400000002,,0xDD,0xBA
30.357884599999998,,0xB0,0x0B
30.360007199999998,,0x00,0x07
30.362983799999999,,0x20,0x00
30.365960399999999,,0x8E,0x20
30.368936999999999,,0x00,0x0F
30.371913599999999,,0x10,0x20
30.374890400000002,,0x22,0x04
30.377866999999998,,0x80,0x00
30.380843400000000,,0x65,0xBA
30.417477399999999,,0xB0,0x0B
30.420530200000002,,0x00,0x07
30.423506600000000,,0x20,0x00
30.426483200000000,,0x06,0x20
30.429459600000001,,0x00,0x0F
30.432436200000001,,0x10,0x20
30.435412800000002,,0x22,0x04
30.438389399999998,,0x80,0x00
30.441365999999999,,0xDD,0xBA
30.476477800000001,,0xB0,0x0B
30.479068000000002,,0x00,0x07
30.482044599999998,,0x20,0x00
30.485021000000000,,0x8E,0x20
30.487997400000001,,0x00,0x0F
30.490973600000000,,0x10,0x20
30.493950000000002,,0x22,0x04
30.496926599999998,,0x80,0x00
30.499903000000000,,0x65,0xBA
30.535961199999999,,0xB0,0x0B
30.538598799999999,,0x00,0x07
30.541575399999999,,0x20,0x00
30.544551999999999,,0x06,0x20
30.547528400000001,,0x00,0x0F
30.550505200000000,,0x10,0x20
30.553481800000000,,0x22,0x04
30.556458599999999,,0x80,0x00
30.559435199999999,,0xDD,0xBA
30.595491200000001,,0xB0,0x0B
30.598130999999999,,0x00,0x07
30.601107599999999,,0x20,0x00
30.604084199999999,,0x8E,0x20
30.607060799999999,,0x00,0x0F
30.610037599999998,,0x10,0x20
30.613014199999999,,0x22,0x04
30.615990799999999,,0x80,0x00
30.618967399999999,,0x65,0xBA
30.655037199999999,,0xB0,0x0B
30.657662599999998,,0x00,0x07
30.660639199999999,,0x20,0x00
30.663615600000000,,0x06,0x20
30.666592200000000,,0x00,0x0F
30.669568800000000,,0x10,0x20
30.672545400000001,,0x22,0x04
30.675522000000001,,0x80,0x00
30.678498800000000,,0xDD,0xBA
30.714583600000001,,0xB0,0x0B
30.717193399999999,,0x00,0x07
30.720170000000000,,0x20,0x00
30.723146799999999,,0x8E,0x20
30.726123200000000,,0x00,0x0F
30.729099800000000,,0x10,0x20
30.732076400000000,,0x22,0x04
30.735053199999999,,0x80,0x00
30.738029600000001,,0x65,0xBA
30.774115800000001,,0xB0,0x0B
30.776725800000001,,0x00,0x07
30.779702400000001,,0x20,0x00
30.782678799999999,,0x06,0x20
30.785655400000000,,0x00,0x0F
30.788632199999999,,0x10,0x20
30.791608799999999,,0x22,0x04
30.794585399999999,,0x80,0x00
30.797562200000002,,0xDD,0xBA
30.833661599999999,,0xB0,0x0B
30.836256400000000,,0x00,0x07
30.839232800000001,,0x20,0x00
30.842209600000000,,0x8E,0x20
30.845186200000001,,0x00,0x0F
30.848162800000001,,0x10,0x20
30.851139400000001,,0x22,0x04
30.854116000000001,,0x80,0x00
30.857092600000001,,0x65,0xBA
30.893189400000001,,0xB0,0x0B
30.895787599999998,,0x00,0x07
30.898764199999999,,0x20,0x00
30.901740600000000,,0x06,0x20
30.904717000000002,,0x00,0x0F
30.907693600000002,,0x10,0x20
30.910670000000000,,0x22,0x04
30.913646600000000,,0x80,0x00
30.916623000000001,,0xDD,0xBA
30.952734199999998,,0xB0,0x0B
30.955318599999998,,0x00,0x07
30.958295400000001,,0x20,0x00
30.961272000000001,,0x8E,0x20
30.964248600000001,,0x00,0x0F
30.967225200000001,,0x10,0x20
30.970201800000002,,0x22,0x04
30.973178399999998,,0x80,0x00
30.976154800000000,,0x65,0xBA
31.012286400000001,,0xB0,0x0B
31.014849399999999,,0x00,0x07
31.017825800000001,,0x20,0x00
31.020802400000001,,0x06,0x20
31.023779000000001,,0x00,0x0F
31.026755600000001,,0x10,0x20
31.029731999999999,,0x22,0x04
31.032708400000001,,0x80,0x00
31.035685000000001,,0xDD,0xBA
31.071863000000000,,0xB0,0x0B
31.074378800000002,,0x20,0x07
31.077355200000000,,0x20,0x00
31.080331600000001,,0x8E,0x20
31.083307999999999,,0x00,0x0F
31.086284400000000,,0x10,0x20
31.089261000000000,,0x22,0x04
31.092237399999998,,0x81,0x00
31.095213999999999,,0x86,0xBA
31.131457200000000,,0xB0,0x0B
31.133908800000000,,0x20,0x07
31.136885400000001,,0x20,0x00
31.139862200000000,,0x06,0x20
31.142838600000001,,0x00,0x0F
31.145814999999999,,0x10,0x20
31.148791400000000,,0x22,0x04
31.151767799999998,,0x81,0x00
31.154744200000000,,0xFE,0xBA
31.191040999999998,,0xB0,0x0B
31.193439399999999,,0x00,0x07
31.196415999999999,,0x20,0x00
31.199392599999999,,0x8E,0x28
31.202369000000001,,0x00,0x0F
31.205345600000001,,0x10,0x20
31.208321999999999,,0x22,0x04
31.211298599999999,,0x80,0x00
31.214275199999999,,0x65,0xC2
31.250504800000002,,0xB0,0x0B
31.252970399999999,,0x00,0x07
31.255946800000000,,0x20,0x00
31.258923400000000,,0x06,0x28
31.261899799999998,,0x00,0x0F
31.264876000000001,,0x10,0x20
31.267852600000001,,0x23,0x04
31.270829200000001,,0x80,0x00
31.273805800000002,,0xDE,0xC2
31.309999000000001,,0xB0,0x0B
31.312500600000000,,0x00,0x07
31.315477000000001,,0x20,0x00
31.318453800000000,,0x8E,0x28
31.321430200000002,,0x00,0x0F
31.324406799999998,,0x10,0x20
31.327383399999999,,0x23,0x04
31.330359999999999,,0x80,0x00
31.333336599999999,,0x66,0xC2
31.369479200000001,,0xB0,0x0B
31.372031199999999,,0x00,0x07
31.375007799999999,,0x20,0x00
31.377984200000000,,0x06,0x28
31.380960800000000,,0x00,0x0F
31.383937599999999,,0x10,0x20
31.386914200000000,,0x23,0x04
31.389890800000000,,0x80,0x00
31.392867400000000,,0xDE,0xC2
31.428975000000001,,0xB0,0x0B
31.431562400000001,,0x00,0x07
31.434539200000000,,0x20,0x00
31.437515800000000,,0x8E,0x28
31.440492200000001,,0x00,0x0F
31.443469000000000,,0x10,0x20
31.446445799999999,,0x23,0x04
31.449422400000000,,0x80,0x00
31.452399000000000,,0x66,0xC2
31.488457000000000,,0xB0,0x0B
31.491095399999999,,0x00,0x07
31.494071999999999,,0x20,0x00
31.497048599999999,,0x06,0x28
31.500025200000000,,0x00,0x0F
31.503001800000000,,0x10,0x20
31.505978400000000,,0x23,0x04
31.508955000000000,,0x80,0x00
31.511931600000000,,0xDE,0xC2
31.548054400000002,,0xB0,0x0B
31.550627200000001,,0x00,0x07
31.553603800000001,,0x20,0x00
31.556580400000001,,0x8E,0x28
31.559556799999999,,0x00,0x0F
31.562533400000000,,0x10,0x20
31.565509800000001,,0x23,0x04
31.568486600000000,,0x80,0x00
31.571463200000000,,0x66,0xC2
31.607693800000000,,0xB0,0x0B
31.610157600000001,,0x00,0x07
31.613134200000001,,0x20,0x00
31.616110800000001,,0x06,0x28
31.619087199999999,,0x00,0x0F
31.622063799999999,,0x10,0x20
31.625040200000001,,0x23,0x04
31.628016800000001,,0x80,0x00
31.630993400000001,,0xDE,0xC2
31.667317400000002,,0xB0,0x0B
31.669687199999998,,0x00,0x07
31.672663600000000,,0x20,0x00
31.675639799999999,,0x8E,0x28
31.678616399999999,,0x00,0x0F
31.681592800000001,,0x10,0x20
31.684569400000001,,0x23,0x04
31.687545799999999,,0x80,0x00
31.690522399999999,,0x66,0xC2
31.726958199999999,,0xB0,0x0B
31.729217999999999,,0x00,0x07
31.732194600000000,,0x20,0x00
31.735171200000000,,0x06,0x28
31.738147800000000,,0x00,0x0F
31.741124400000000,,0x10,0x20
31.744101000000001,,0x23,0x04
31.747077600000001,,0x80,0x00
31.750054400000000,,0xDE,0xC2
31.786582599999999,,0xB0,0x0B
31.788749599999999,,0x00,0x07
31.791726199999999,,0x20,0x00
31.794702999999998,,0x8E,0x28
31.797679599999999,,0x00,0x0F
31.800656199999999,,0x10,0x20
31.803632799999999,,0x23,0x04
31.806609600000002,,0x80,0x00
31.809586199999998,,0x66,0xC2
31.845646800000001,,0xB0,0x0B
31.848281600000000,,0x00,0x07
31.851258200000000,,0x20,0x00
31.854234800000000,,0x06,0x28
31.857211400000001,,0x00,0x0F
31.860187799999999,,0x10,0x20
31.863164399999999,,0x23,0x04
31.866140999999999,,0x80,0x00
31.869117599999999,,0xDE,0xC2
31.905282199999998,,0xB0,0x0B
31.907811200000001,,0x00,0x07
31.910787599999999,,0x20,0x00
31.913764000000000,,0x8E,0x28
31.916740600000001,,0x00,0x0F
31.919716999999999,,0x10,0x20
31.922693400000000,,0x23,0x04
31.925669800000001,,0x80,0x00
31.928646400000002,,0x66,0xC2
31.964904400000002,,0xB0,0x0B
31.967340799999999,,0x00,0x07
31.970317200000000,,0x20,0x00
31.973293800000000,,0x06,0x28
31.976270400000001,,0x00,0x0F
31.979247000000001,,0x10,0x20
31.982223600000001,,0x23,0x04
31.985199800000000,,0x80,0x00
31.988176200000002,,0xDE,0xC2
32.024541399999997,,0xB0,0x0B
32.026868999999998,,0x00,0x07
32.029845399999999,,0x20,0x00
32.032822000000003,,0x8E,0x28
32.035798399999997,,0x00,0x0F
32.038774799999999,,0x10,0x20
32.041751200000000,,0x23,0x04
32.044727799999997,,0x80,0x00
32.047704000000003,,0x66,0xC2
32.084162999999997,,0xB0,0x0B
32.086397800000000,,0x00,0x07
32.089374200000002,,0x20,0x00
32.092350799999998,,0x06,0x28
32.095327200000000,,0x00,0x0F
32.098303600000001,,0x10,0x20
32.101280000000003,,0x23,0x04
32.104256399999997,,0x80,0x00
32.107233000000001,,0xDE,0xC2
32.143800400000003,,0xB0,0x0B
32.145926799999998,,0x00,0x07
32.148903400000002,,0x20,0x00
32.151879800000003,,0x8E,0x28
32.154856000000002,,0x00,0x0F
32.157832399999997,,0x10,0x20
32.160808799999998,,0x23,0x04
32.163785200000000,,0x80,0x00
32.166761600000001,,0x66,0xC2
32.202875800000001,,0xB0,0x0B
32.205455200000003,,0x00,0x07
32.208431599999997,,0x20,0x00
32.211408200000001,,0x06,0x28
32.214384600000002,,0x00,0x0F
32.217360999999997,,0x10,0x20
32.220337600000001,,0x23,0x04
32.223314000000002,,0x80,0x00
32.226290599999999,,0xDE,0xC2
32.262726800000003,,0xB0,0x0B
32.264984599999998,,0x00,0x07
32.267961000000000,,0x20,0x00
32.270937600000003,,0x8E,0x28
32.273913999999998,,0x00,0x0F
32.276890799999997,,0x10,0x20
32.279867199999998,,0x24,0x04
32.282843800000002,,0x80,0x00
32.285820399999999,,0x67,0xC2
32.322270799999998,,0xB0,0x0B
32.324514600000001,,0x00,0x07
32.327491000000002,,0x20,0x00
32.330467400000003,,0x06,0x28
32.333443799999998,,0x00,0x0F
32.336420400000002,,0x10,0x20
32.339396800000003,,0x24,0x04
32.342373199999997,,0x80,0x00
32.345349800000001,,0xDF,0xC2
32.381796199999997,,0xB0,0x0B
32.384044000000003,,0x00,0x07
32.387020399999997,,0x20,0x00
32.389997000000001,,0x8E,0x28
32.392973599999998,,0x00,0x0F
32.395950200000001,,0x10,0x20
32.398927000000000,,0x24,0x04
32.401903400000002,,0x80,0x00
32.404879999999999,,0x67,0xC2
32.441340599999997,,0xB0,0x0B
32.443573800000003,,0x00,0x07
32.446550400000000,,0x20,0x00
32.449527000000003,,0x06,0x28
32.452503399999998,,0x00,0x0F
32.455480000000001,,0x10,0x20
32.458456400000003,,0x24,0x04
32.461433000000000,,0x80,0x00
32.464409400000001,,0xDF,0xC2
32.500893200000000,,0xB0,0x0B
32.503105800000000,,0x00,0x07
32.506082399999997,,0x20,0x00
32.509058799999998,,0x8E,0x28
32.512035200000000,,0x00,0x0F
32.515011600000001,,0x10,0x20
32.517988199999998,,0x24,0x04
32.520964800000002,,0x80,0x00
32.523941399999998,,0x67,0xC2
32.560432599999999,,0xB0,0x0B
32.562637000000002,,0x00,0x07
32.565613599999999,,0x20,0x00
32.568590000000000,,0x06,0x28
32.571566599999997,,0x00,0x0F
32.574543200000001,,0x10,0x20
32.577519799999997,,0x24,0x04
32.580496400000001,,0x80,0x00
32.583472800000003,,0xDF,0xC2
32.620022599999999,,0xB0,0x0B
32.622168600000002,,0x00,0x07
32.625145199999999,,0x20,0x00
32.628121999999998,,0x8E,0x28
32.631098600000001,,0x00,0x0F
32.634075199999998,,0x10,0x20
32.637051599999999,,0x24,0x04
32.640028399999998,,0x80,0x00
32.643005000000002,,0x67,0xC2
32.679600000000001,,0xB0,0x0B
32.681701199999999,,0x00,0x07
32.684677800000003,,0x20,0x00
32.687654400000000,,0x06,0x28
32.690631000000003,,0x00,0x0F
32.693607399999998,,0x10,0x20
32.696584000000001,,0x24,0x04
32.699560599999998,,0x80,0x00
32.702537200000002,,0xDF,0xC2
32.739152599999997,,0xB0,0x0B
32.741233600000001,,0x00,0x07
32.744210199999998,,0x20,0x00
32.747186800000001,,0x8E,0x28
32.750163399999998,,0x00,0x0F
32.753140000000002,,0x10,0x20
32.756116599999999,,0x24,0x04
32.759093200000002,,0x80,0x00
32.762069799999999,,0x67,0xC2
32.798705400000003,,0xB0,0x0B
32.801756800000000,,0x00,0x07
32.804733200000001,,0x20,0x00
32.807709600000003,,0x06,0x28
32.810685999999997,,0x00,0x0F
32.813662399999998,,0x10,0x20
32.816638800000000,,0x24,0x04
32.819615200000001,,0x80,0x00
32.822591799999998,,0xDF,0xC2
32.857704599999998,,0xB0,0x0B
32.860294600000003,,0x00,0x07
32.863271200000000,,0x20,0x00
32.866247999999999,,0x8E,0x28
32.869224600000003,,0x00,0x0F
32.872201199999999,,0x10,0x20
32.875177800000003,,0x24,0x04
32.878154400000000,,0x80,0x00
32.881131199999999,,0x67,0xC2
32.917296999999998,,0xB0,0x0B
32.919827200000000,,0x00,0x07
32.922803999999999,,0x20,0x00
32.925780600000003,,0x06,0x28
32.928757200000000,,0x00,0x0F
32.931733800000003,,0x10,0x20
32.934710600000003,,0x24,0x04
32.937687400000002,,0x80,0x00
32.940663999999998,,0xDF,0xC2
32.976873200000000,,0xB0,0x0B
32.979360000000000,,0x00,0x07
32.982336599999996,,0x20,0x00
32.985313200000000,,0x8E,0x28
32.988289799999997,,0x00,0x0F
32.991266400000001,,0x10,0x20
32.994242999999997,,0x24,0x04
32.997219800000003,,0x80,0x00
33.000196199999998,,0x67,0xC2
33.036467199999997,,0xB0,0x0B
33.038891800000002,,0x00,0x07
33.041868399999998,,0x20,0x00
33.044845000000002,,0x06,0x28
33.047821599999999,,0x00,0x0F
33.050798200000003,,0x10,0x20
33.053774799999999,,0x24,0x04
33.056751400000003,,0x80,0x00
33.059728000000000,,0xDF,0xC2
33.096060999999999,,0xB0,0x0B
33.098424000000001,,0x00,0x07
33.101400599999998,,0x20,0x00
33.104377200000002,,0x8E,0x28
33.107353799999999,,0x00,0x0F
33.110330400000002,,0x10,0x20
33.113306999999999,,0x24,0x04
33.116283600000003,,0x80,0x00
33.119260199999999,,0x67,0xC2
33.155635799999999,,0xB0,0x0B
33.157955999999999,,0x00,0x07
33.160932600000002,,0x20,0x00
33.163908999999997,,0x06,0x28
33.166885600000001,,0x00,0x0F
33.169862199999997,,0x10,0x20
33.172838599999999,,0x24,0x04
33.175815200000002,,0x80,0x00
33.178792000000001,,0xDF,0xC2
33.215346599999997,,0xB0,0x0B
33.217486800000003,,0x00,0x07
33.220463400000000,,0x20,0x00
33.223439999999997,,0x8E,0x28
33.226416600000000,,0x00,0x0F
33.229393000000002,,0x10,0x20
33.232369599999998,,0x25,0x04
33.235346000000000,,0x80,0x00
33.238322599999996,,0x68,0xC2
33.274828800000002,,0xB0,0x0B
33.277017200000003,,0x00,0x07
33.279993800000000,,0x20,0x00
33.282970400000004,,0x06,0x28
33.285947000000000,,0x00,0x0F
33.288923400000002,,0x10,0x20
33.291899800000003,,0x25,0x04
33.294876199999997,,0x80,0x00
33.297852599999999,,0xE0,0xC2
33.334324400000000,,0xB0,0x0B
33.336547799999998,,0x00,0x07
33.339524200000000,,0x20,0x00
33.342500800000003,,0x8E,0x28
33.345477400000000,,0x00,0x0F
33.348453800000001,,0x10,0x20
33.351430399999998,,0x25,0x04
33.354406800000000,,0x80,0x00
33.357383200000001,,0x68,0xC2
33.393822200000002,,0xB0,0x0B
33.396077400000003,,0x00,0x07
33.399053799999997,,0x20,0x00
33.402030199999999,,0x06,0x28
33.405006800000002,,0x00,0x0F
33.407983199999997,,0x10,0x20
33.410959800000001,,0x25,0x04
33.413936200000002,,0x80,0x00
33.416912799999999,,0xE0,0xC2
