Time [s],Packet ID,MOSI,MISO
0.056706200000000,0,0xB0,0x0B
0.059084800000000,,0x00,0x01
0.062061000000000,,0x20,0x06
0.065037200000000,,0x06,0x00
0.068013400000000,,0x00,0x0F
0.070989600000000,,0x10,0x22
0.073966000000000,,0x03,0x04
0.076942200000000,,0x80,0x00
0.079918400000000,,0xBE,0x9C
0.116059200000000,,0xB0,0x0B
0.118610200000000,,0x00,0x01
0.121586600000000,,0x20,0x06
0.124563200000000,,0x8E,0x00
0.127539400000000,,0x00,0x0F
0.130515600000000,,0x10,0x22
0.133492000000000,,0x03,0x04
0.136468400000000,,0x80,0x00
0.139444800000000,,0x46,0x9C
0.175979800000000,,0xB0,0x0B
0.178135600000000,,0x00,0x01
0.181112000000000,,0x20,0x06
0.184088200000000,,0x06,0x00
0.187064600000000,,0x00,0x0F
0.190040800000000,,0x10,0x22
0.193017000000000,,0x03,0x04
0.195993400000000,,0x80,0x00
0.198969800000000,,0xBE,0x9C
0.235332800000000,,0xB0,0x0B
0.237663200000000,,0x00,0x01
0.240639800000000,,0x20,0x06
0.243616000000000,,0x8E,0x00
0.246592400000000,,0x00,0x0F
0.249568800000000,,0x10,0x22
0.252545200000000,,0x03,0x04
0.255521600000000,,0x80,0x00
0.258498000000000,,0x46,0x9C
0.294705000000000,,0xB0,0x0B
0.297191600000000,,0x00,0x01
0.300167800000000,,0x20,0x06
0.303144400000000,,0x06,0x00
0.306120800000000,,0x00,0x0F
0.309097200000000,,0x10,0x22
0.312073400000000,,0x03,0x04
0.315049800000000,,0x80,0x00
0.318026200000000,,0xBE,0x9C
0.354623800000000,,0xB0,0x0B
0.356720800000000,,0x00,0x01
0.359697000000000,,0x20,0x06
0.362673200000000,,0x8E,0x00
0.365649400000000,,0x00,0x0F
0.368625800000000,,0x10,0x22
0.371602000000000,,0x03,0x04
0.374578600000000,,0x80,0x00
0.377555000000000,,0x46,0x9C
0.413942800000000,,0xB0,0x0B
0.416249400000000,,0x00,0x01
0.419225800000000,,0x20,0x06
0.422202400000000,,0x06,0x00
0.425178800000000,,0x00,0x0F
0.428155400000000,,0x10,0x22
0.431131800000000,,0x03,0x04
0.434108400000000,,0x80,0x00
0.437085000000000,,0xBE,0x9C
0.473190000000000,,0xB0,0x0B
0.475780600000000,,0x00,0x01
0.478757000000000,,0x20,0x06
0.481733600000000,,0x8E,0x00
0.484710000000000,,0x00,0x0F
0.487686600000000,,0x10,0x22
0.490663200000000,,0x04,0x04
0.493639600000000,,0x80,0x00
0.496616200000000,,0x47,0x9C
0.533097600000000,,0xB0,0x0B
0.535309400000000,,0x00,0x01
0.538285800000000,,0x20,0x06
0.541262200000000,,0x06,0x00
0.544238800000000,,0x00,0x0F
0.547215200000000,,0x10,0x22
0.550191800000000,,0x04,0x04
0.553168200000000,,0x80,0x00
0.556144600000000,,0xBF,0x9C
0.592468800000000,,0xB0,0x0B
0.594837200000000,,0x00,0x01
0.597813400000000,,0x20,0x06
0.600789800000000,,0x8E,0x00
0.603766000000000,,0x00,0x0F
0.606742200000000,,0x10,0x22
0.609718400000000,,0x04,0x04
0.612694800000000,,0x80,0x00
0.615671000000000,,0x47,0x9C
0.651842000000000,,0xB0,0x0B
0.654363800000000,,0x00,0x01
0.657340200000000,,0x20,0x06
0.660316600000000,,0x06,0x00
0.663293200000000,,0x00,0x0F
0.666269600000000,,0x10,0x22
0.669246200000000,,0x04,0x04
0.672222600000000,,0x80,0x00
0.675199000000000,,0xBF,0x9C
0.711744000000000,,0xB0,0x0B
0.713892000000000,,0x00,0x01
0.716868400000000,,0x20,0x06
0.719844800000000,,0x8E,0x00
0.722821400000000,,0x00,0x0F
0.725797800000000,,0x10,0x22
0.728774200000000,,0x04,0x04
0.731750600000000,,0x80,0x00
0.734727000000000,,0x47,0x9C
0.771123800000000,,0xB0,0x0B
0.773420200000000,,0x00,0x01
0.776396800000000,,0x20,0x06
0.779373200000000,,0x06,0x00
0.782349400000000,,0x00,0x0F
0.785326000000000,,0x10,0x22
0.788302400000000,,0x04,0x04
0.791279000000000,,0x80,0x00
0.794255400000000,,0xBF,0x9C
0.830480800000000,,0xB0,0x0B
0.832950200000000,,0x00,0x01
0.835926800000000,,0x20,0x07
0.838903200000000,,0x8E,0x00
0.841879600000000,,0x00,0x0F
0.844856200000000,,0x10,0x22
0.847832800000000,,0x04,0x04
0.850809200000000,,0x80,0x00
0.853785600000000,,0x47,0x9D
0.889852800000000,,0xB0,0x0B
0.892479800000000,,0x00,0x01
0.895456200000000,,0x20,0x07
0.898432800000000,,0x06,0x00
0.901409200000000,,0x00,0x0F
0.904385600000000,,0x10,0x22
0.907362200000000,,0x04,0x04
0.910338600000000,,0x80,0x00
0.913315200000000,,0xBF,0x9D
0.949775200000000,,0xB0,0x0B
0.952008800000000,,0x00,0x01
0.954985200000000,,0x20,0x07
0.957961600000000,,0x8E,0x00
0.960938000000000,,0x00,0x0F
0.963914400000000,,0x10,0x22
0.966890800000000,,0x04,0x04
0.969867200000000,,0x80,0x00
0.972843600000000,,0x47,0x9D
1.009132200000000,,0xB0,0x0B
1.011536200000000,,0x00,0x01
1.014512600000000,,0x20,0x07
1.017489200000000,,0x06,0x00
1.020465600000000,,0x00,0x0F
1.023441800000000,,0x10,0x22
1.026418000000000,,0x04,0x04
1.029394600000000,,0x80,0x00
1.032371000000000,,0xBF,0x9D
1.068504600000000,,0xB0,0x0B
1.071063800000000,,0x00,0x01
1.074040000000000,,0x20,0x07
1.077016200000000,,0x8E,0x00
1.079992800000000,,0x00,0x0F
1.082969000000000,,0x10,0x22
1.085945200000000,,0x04,0x04
1.088921600000000,,0x80,0x00
1.091897800000000,,0x47,0x9D
1.128406600000000,,0xB0,0x0B
1.130591400000000,,0x00,0x01
1.133568000000000,,0x20,0x07
1.136544400000000,,0x06,0x00
1.139521000000000,,0x00,0x0F
1.142497400000000,,0x10,0x22
1.145474000000000,,0x04,0x04
1.148450400000000,,0x80,0x00
1.151427000000000,,0xBF,0x9D
1.187777600000000,,0xB0,0x0B
1.190122200000000,,0x00,0x01
1.193098800000000,,0x20,0x07
1.196075400000000,,0x8E,0x00
1.199051800000000,,0x00,0x0F
1.202028400000000,,0x10,0x22
1.205005000000000,,0x04,0x04
1.207981600000000,,0x80,0x00
1.210958000000000,,0x47,0x9D
1.247152000000000,,0xB0,0x0B
1.249653400000000,,0x00,0x01
1.252630000000000,,0x20,0x07
1.255606600000000,,0x06,0x00
1.258583200000000,,0x00,0x0F
1.261560000000000,,0x10,0x22
1.264536600000000,,0x04,0x04
1.267513400000000,,0x80,0x00
1.270490200000000,,0xBF,0x9D
1.307063600000000,,0xB0,0x0B
1.309186200000000,,0x00,0x01
1.312162800000000,,0x20,0x07
1.315139400000000,,0x8E,0x00
1.318116000000000,,0x00,0x0F
1.321092400000000,,0x10,0x22
1.324069000000000,,0x04,0x04
1.327045400000000,,0x80,0x00
1.330021800000000,,0x47,0x9D
1.366439400000000,,0xB0,0x0B
1.368717000000000,,0x00,0x01
1.371693600000000,,0x20,0x07
1.374670000000000,,0x06,0x00
1.377646600000000,,0x00,0x0F
1.380623200000000,,0x10,0x22
1.383599600000000,,0x04,0x04
1.386576400000000,,0x80,0x00
1.389552800000000,,0xBF,0x9D
1.425795000000000,,0xB0,0x0B
1.428246800000000,,0x00,0x01
1.431223000000000,,0x20,0x07
1.434199400000000,,0x8E,0x00
1.437176000000000,,0x00,0x0F
1.440152400000000,,0x10,0x22
1.443128800000000,,0x04,0x04
1.446105400000000,,0x80,0x00
1.449082000000000,,0x47,0x9D
1.485591400000000,,0xB0,0x0B
1.487775800000000,,0x00,0x01
1.490752400000000,,0x20,0x07
1.493729000000000,,0x06,0x00
1.496705600000000,,0x00,0x0F
1.499682000000000,,0x10,0x22
1.502658400000000,,0x05,0x04
1.505635000000000,,0x80,0x00
1.508611600000000,,0xC0,0x9D
1.544963800000000,,0xB0,0x0B
1.547304800000000,,0x00,0x01
1.550281200000000,,0x20,0x07
1.553257800000000,,0x8E,0x00
1.556234000000000,,0x00,0x0F
1.559210400000000,,0x10,0x20
1.562186800000000,,0x05,0x04
1.565163200000000,,0x80,0x00
1.568139600000000,,0x48,0x9B
1.604318200000000,,0xB0,0x0B
1.606832800000000,,0x00,0x01
1.609809200000000,,0x20,0x07
1.612785600000000,,0x06,0x00
1.615762000000000,,0x00,0x0F
1.618738400000000,,0x10,0x20
1.621714600000000,,0x05,0x04
1.624691200000000,,0x80,0x00
1.627667800000000,,0xC0,0x9B
1.664241600000000,,0xB0,0x0B
1.666364000000000,,0x00,0x01
1.669340400000000,,0x20,0x07
1.672316600000000,,0x8E,0x00
1.675292800000000,,0x00,0x0F
1.678269000000000,,0x10,0x20
1.681245200000000,,0x05,0x04
1.684221400000000,,0x80,0x00
1.687197800000000,,0x48,0x9B
1.723595400000000,,0xB0,0x0B
1.725889800000000,,0x00,0x01
1.728866000000000,,0x20,0x07
1.731842200000000,,0x06,0x00
1.734818600000000,,0x00,0x0F
1.737794800000000,,0x10,0x20
1.740771000000000,,0x05,0x04
1.743747400000000,,0x80,0x00
1.746723800000000,,0xC0,0x9B
1.782970600000000,,0xB0,0x0B
1.785416200000000,,0x00,0x01
1.788392600000000,,0x20,0x07
1.791368800000000,,0x8E,0x00
1.794345200000000,,0x00,0x0F
1.797321800000000,,0x10,0x20
1.800298200000000,,0x05,0x04
1.803274600000000,,0x80,0x00
1.806251000000000,,0x48,0x9B
1.842340600000000,,0xB0,0x0B
1.844944000000000,,0x00,0x01
1.847920400000000,,0x20,0x07
1.850896800000000,,0x06,0x00
1.853873200000000,,0x00,0x0F
1.856849600000000,,0x10,0x20
1.859826000000000,,0x05,0x04
1.862802400000000,,0x80,0x00
1.865779000000000,,0xC0,0x9B
1.902243800000000,,0xB0,0x0B
1.904473000000000,,0x00,0x01
1.907449400000000,,0x20,0x07
1.910425800000000,,0x8E,0x00
1.913402200000000,,0x00,0x0F
1.916378600000000,,0x10,0x20
1.919355000000000,,0x05,0x04
1.922331400000000,,0x80,0x00
1.925308000000000,,0x48,0x9B
1.961614200000000,,0xB0,0x0B
1.964002000000000,,0x00,0x01
1.966978600000000,,0x20,0x07
1.969955000000000,,0x06,0x00
1.972931400000000,,0x00,0x0F
1.975908000000000,,0x10,0x20
1.978884400000000,,0x05,0x04
1.981860800000000,,0x80,0x00
1.984837200000000,,0xC0,0x9B
2.020971600000000,,0xB0,0x0B
2.023531600000000,,0x00,0x01
2.026508200000000,,0x20,0x07
2.029484600000000,,0x8E,0x00
2.032461000000000,,0x00,0x0F
2.035437600000000,,0x10,0x20
2.038414200000000,,0x05,0x04
2.041390800000000,,0x80,0x00
2.044367400000000,,0x48,0x9B
2.080896800000000,,0xB0,0x0B
2.083062200000000,,0x00,0x01
2.086038800000000,,0x20,0x07
2.089015400000000,,0x06,0x00
2.091991800000000,,0x00,0x0F
2.094968200000000,,0x10,0x20
2.097944600000000,,0x05,0x04
2.100921000000000,,0x80,0x00
2.103897400000000,,0xC0,0x9B
2.140267600000000,,0xB0,0x0B
2.142591600000000,,0x00,0x01
2.145568000000000,,0x20,0x07
2.148544800000000,,0x8E,0x00
2.151521200000000,,0x00,0x0F
2.154497600000000,,0x10,0x20
2.157474200000000,,0x05,0x04
2.160450600000000,,0x80,0x00
2.163427200000000,,0x48,0x9B
2.199625000000000,,0xB0,0x0B
2.202122400000000,,0x00,0x01
2.205098800000000,,0x20,0x07
2.208075400000000,,0x06,0x00
2.211051800000000,,0x00,0x0F
2.214028200000000,,0x10,0x20
2.217004600000000,,0x05,0x04
2.219981200000000,,0x80,0x00
2.222957600000000,,0xC0,0x9B
2.259546800000000,,0xB0,0x0B
2.261651800000000,,0x00,0x01
2.264628400000000,,0x20,0x07
2.267605000000000,,0x8E,0x00
2.270581400000000,,0x00,0x0F
2.273558000000000,,0x10,0x20
2.276534600000000,,0x05,0x04
2.279511200000000,,0x80,0x00
2.282487600000000,,0x48,0x9B
2.318869800000000,,0xB0,0x0B
2.321182400000000,,0x00,0x01
2.324159000000000,,0x20,0x07
2.327135600000000,,0x06,0x00
2.330112200000000,,0x00,0x0F
2.333088600000000,,0x10,0x20
2.336065200000000,,0x05,0x04
2.339041800000000,,0x80,0x00
2.342018400000000,,0xC0,0x9B
2.378243400000000,,0xB0,0x0B
2.380713600000000,,0x00,0x01
2.383690000000000,,0x20,0x07
2.386666600000000,,0x8E,0x00
2.389643000000000,,0x00,0x0F
2.392619600000000,,0x10,0x20
2.395596200000000,,0x05,0x04
2.398572600000000,,0x80,0x00
2.401549000000000,,0x48,0x9B
2.437630400000000,,0xB0,0x0B
2.440244200000000,,0x00,0x01
2.443220600000000,,0x20,0x07
2.446197000000000,,0x06,0x00
2.449173600000000,,0x00,0x0F
2.452150200000000,,0x10,0x20
2.455127000000000,,0x05,0x04
2.458103600000000,,0x80,0x00
2.461080200000000,,0xC0,0x9B
2.497398200000000,,0xB0,0x0B
2.499776200000000,,0x00,0x01
2.502752800000000,,0x20,0x07
2.505729600000000,,0x8E,0x00
2.508706200000000,,0x00,0x0F
2.511682800000000,,0x10,0x20
2.514659400000000,,0x06,0x04
2.517636000000000,,0x80,0x00
2.520612600000000,,0x49,0x9B
2.556773200000000,,0xB0,0x0B
2.559307800000000,,0x00,0x01
2.562284400000000,,0x20,0x07
2.565261000000000,,0x06,0x00
2.568237600000000,,0x00,0x0F
2.571214200000000,,0x10,0x20
2.574191000000000,,0x06,0x04
2.577167600000000,,0x80,0x00
2.580144400000000,,0xC1,0x9B
2.616682600000000,,0xB0,0x0B
2.618840200000000,,0x00,0x01
2.621816800000000,,0x20,0x07
2.624793400000000,,0x8E,0x00
2.627769800000000,,0x00,0x0F
2.630746400000000,,0x10,0x20
2.633723000000000,,0x06,0x04
2.636699600000000,,0x80,0x00
2.639676200000000,,0x49,0x9B
2.676057600000000,,0xB0,0x0B
2.678371200000000,,0x00,0x01
2.681347600000000,,0x20,0x07
2.684324200000000,,0x06,0x00
2.687301000000000,,0x00,0x0F
2.690277400000000,,0x10,0x20
2.693254000000000,,0x06,0x04
2.696230600000000,,0x80,0x00
2.699207200000000,,0xC1,0x9B
2.735437000000000,,0xB0,0x0B
2.737902400000000,,0x00,0x01
2.740879200000000,,0x20,0x07
2.743855800000000,,0x8E,0x00
2.746832400000000,,0x00,0x0F
2.749809000000000,,0x10,0x20
2.752785400000000,,0x06,0x04
2.755762000000000,,0x80,0x00
2.758738600000000,,0x49,0x9B
2.794794800000000,,0xB0,0x0B
2.797433200000000,,0x00,0x01
2.800409800000000,,0x20,0x07
2.803386400000000,,0x06,0x00
2.806363200000000,,0x00,0x0F
2.809339800000000,,0x10,0x20
2.812316400000000,,0x06,0x04
2.815293000000000,,0x80,0x00
2.818269600000000,,0xC1,0x9B
2.854722800000000,,0xB0,0x0B
2.856965600000000,,0x00,0x01
2.859942200000000,,0x20,0x07
2.862918600000000,,0x8E,0x00
2.865895200000000,,0x00,0x0F
2.868871800000000,,0x10,0x20
2.871848400000000,,0x06,0x04
2.874825000000000,,0x80,0x00
2.877801600000000,,0x49,0x9B
2.914082800000000,,0xB0,0x0B
2.916496200000000,,0x00,0x01
2.919472600000000,,0x20,0x07
2.922449000000000,,0x06,0x00
2.925425400000000,,0x00,0x0F
2.928402000000000,,0x10,0x20
2.931378400000000,,0x06,0x04
2.934355000000000,,0x80,0x00
2.937331600000000,,0xC1,0x9B
2.973453800000000,,0xB0,0x0B
2.976025600000000,,0x00,0x01
2.979002000000000,,0x20,0x07
2.981978400000000,,0x8E,0x00
2.984954800000000,,0x00,0x0F
2.987931200000000,,0x10,0x20
2.990907600000000,,0x06,0x04
2.993884000000000,,0x80,0x00
2.996860400000000,,0x49,0x9B
3.033376000000000,,0xB0,0x0B
3.035553800000000,,0x00,0x01
3.038530400000000,,0x20,0x07
3.041507000000000,,0x06,0x00
3.044483400000000,,0x00,0x0F
3.047460000000000,,0x10,0x20
3.050436400000000,,0x06,0x04
3.053412800000000,,0x80,0x00
3.056389200000000,,0xC1,0x9B
3.092733800000000,,0xB0,0x0B
3.095082800000000,,0x00,0x01
3.098059200000000,,0x20,0x07
3.101035800000000,,0x8E,0x00
3.104012200000000,,0x00,0x0F
3.106988800000000,,0x10,0x20
3.109965200000000,,0x06,0x04
3.112941600000000,,0x80,0x00
3.115918400000000,,0x49,0x9B
3.152108200000000,,0xB0,0x0B
3.154613400000000,,0x00,0x01
3.157589800000000,,0x20,0x07
3.160566200000000,,0x06,0x00
3.163542800000000,,0x00,0x0F
3.166519200000000,,0x10,0x20
3.169495600000000,,0x06,0x04
3.172472200000000,,0x80,0x00
3.175448600000000,,0xC1,0x9B
3.212014400000000,,0xB0,0x0B
3.214143000000000,,0x00,0x01
3.217119400000000,,0x20,0x07
3.220096000000000,,0x8E,0x00
3.223072600000000,,0x00,0x0F
3.226049200000000,,0x10,0x20
3.229025600000000,,0x06,0x04
3.232002200000000,,0x80,0x00
3.234978800000000,,0x49,0x9B
3.271387200000000,,0xB0,0x0B
3.273673800000000,,0x00,0x01
3.276650400000000,,0x20,0x07
3.279627000000000,,0x06,0x00
3.282603600000000,,0x00,0x0F
3.285580200000000,,0x10,0x20
3.288556800000000,,0x06,0x04
3.291533200000000,,0x80,0x00
3.294509800000000,,0xC1,0x9B
3.330760600000000,,0xB0,0x0B
3.333203800000000,,0x00,0x01
3.336180400000000,,0x20,0x07
3.339157000000000,,0x8E,0x00
3.342133200000000,,0x00,0x0F
3.345109600000000,,0x10,0x20
3.348086000000000,,0x06,0x04
3.351062400000000,,0x80,0x00
3.354038600000000,,0x49,0x9B
3.390118600000000,,0xB0,0x0B
3.392733600000000,,0x00,0x01
3.395710200000000,,0x20,0x07
3.398686800000000,,0x06,0x00
3.401663400000000,,0x00,0x0F
3.404639800000000,,0x10,0x20
3.407616400000000,,0x06,0x04
3.410593000000000,,0x80,0x00
3.413569400000000,,0xC1,0x9B
3.449922000000000,,0xB0,0x0B
3.452263600000000,,0x00,0x01
3.455240000000000,,0x20,0x07
3.458216600000000,,0x8E,0x00
3.461192800000000,,0x00,0x0F
3.464169200000000,,0x10,0x20
3.467145600000000,,0x07,0x04
3.470122000000000,,0x80,0x00
3.473098400000000,,0x4A,0x9B
3.509278000000000,,0xB0,0x0B
3.511792400000000,,0x00,0x01
3.514768800000000,,0x20,0x07
3.517745400000000,,0x06,0x00
3.520721800000000,,0x00,0x0F
3.523698200000000,,0x10,0x20
3.526674800000000,,0x07,0x04
3.529651200000000,,0x80,0x00
3.532627600000000,,0xC2,0x9B
3.569200200000000,,0xB0,0x0B
3.571322600000000,,0x00,0x01
3.574299000000000,,0x20,0x07
3.577275600000000,,0x8E,0x00
3.580252000000000,,0x00,0x0F
3.583228400000000,,0x10,0x20
3.586205000000000,,0x07,0x04
3.589181600000000,,0x80,0x00
3.592158000000000,,0x4A,0x9B
3.628573200000000,,0xB0,0x0B
3.630852400000000,,0x00,0x01
3.633828800000000,,0x20,0x07
3.636805600000000,,0x06,0x00
3.639782200000000,,0x00,0x0F
3.642758600000000,,0x10,0x20
3.645735200000000,,0x07,0x04
3.648712000000000,,0x80,0x00
3.651688600000000,,0xC2,0x9B
3.687932600000000,,0xB0,0x0B
3.690384400000000,,0x00,0x01
3.693360800000000,,0x20,0x07
3.696337200000000,,0x8E,0x00
3.699313800000000,,0x00,0x0F
3.702290200000000,,0x10,0x20
3.705266800000000,,0x07,0x04
3.708243200000000,,0x80,0x00
3.711219800000000,,0x4A,0x9B
3.747310400000000,,0xB0,0x0B
3.749913600000000,,0x00,0x01
3.752890000000000,,0x20,0x07
3.755866400000000,,0x06,0x00
3.758842800000000,,0x00,0x0F
3.761819200000000,,0x10,0x20
3.764795400000000,,0x07,0x04
3.767771800000000,,0x80,0x00
3.770748200000000,,0xC2,0x9B
3.807213600000000,,0xB0,0x0B
3.809441200000000,,0x00,0x01
3.812417600000000,,0x20,0x07
3.815394000000000,,0x8E,0x00
3.818370600000000,,0x00,0x0F
3.821347000000000,,0x10,0x20
3.824323600000000,,0x07,0x04
3.827300000000000,,0x80,0x00
3.830276400000000,,0x4A,0x9B
3.866588000000000,,0xB0,0x0B
3.868970800000000,,0x00,0x01
3.871947200000000,,0x20,0x07
3.874923800000000,,0x06,0x00
3.877900200000000,,0x00,0x0F
3.880876600000000,,0x10,0x20
3.883853200000000,,0x07,0x04
3.886829600000000,,0x80,0x00
3.889806200000000,,0xC2,0x9B
3.925960800000000,,0xB0,0x0B
3.928500400000000,,0x00,0x01
3.931477200000000,,0x20,0x07
3.934453600000000,,0x8E,0x00
3.937430200000000,,0x00,0x0F
3.940406800000000,,0x10,0x20
3.943383400000000,,0x07,0x04
3.946359800000000,,0x80,0x00
3.949336400000000,,0x4A,0x9B
3.985870600000000,,0xB0,0x0B
3.988030200000000,,0x00,0x01
3.991006600000000,,0x20,0x07
3.993983200000000,,0x06,0x00
3.996959600000000,,0x00,0x0F
3.999936200000000,,0x10,0x20
4.002912600000000,,0x07,0x04
4.005888800000000,,0x80,0x00
4.008865200000000,,0xC2,0x9B
4.045243800000000,,0xB0,0x0B
4.047558800000000,,0x00,0x01
4.050535400000000,,0x20,0x07
4.053511800000000,,0x8E,0x00
4.056488400000000,,0x00,0x0F
4.059465000000000,,0x10,0x20
4.062441400000000,,0x07,0x04
4.065417600000000,,0x80,0x00
4.068394200000000,,0x4A,0x9B
4.104601600000000,,0xB0,0x0B
4.107088800000000,,0x00,0x01
4.110065400000000,,0x20,0x07
4.113041800000000,,0x06,0x00
4.116018400000000,,0x00,0x0F
4.118995000000000,,0x10,0x20
4.121971600000000,,0x07,0x04
4.124948000000000,,0x80,0x00
4.127924600000000,,0xC2,0x9B
4.164524600000000,,0xB0,0x0B
4.166621800000000,,0x00,0x01
4.169598400000000,,0x20,0x07
4.172575000000000,,0x8E,0x00
4.175551600000000,,0x00,0x0F
4.178528400000000,,0x10,0x20
4.181505000000000,,0x07,0x04
4.184481600000000,,0x80,0x00
4.187458200000000,,0x4A,0x9B
4.223862400000000,,0xB0,0x0B
4.226153000000000,,0x00,0x01
4.229129400000000,,0x20,0x07
4.232106000000000,,0x06,0x00
4.235082600000000,,0x00,0x0F
4.238059200000000,,0x10,0x20
4.241036000000000,,0x07,0x04
4.244012600000000,,0x80,0x00
4.246989400000000,,0xC2,0x9B
4.283222800000000,,0xB0,0x0B
4.285685200000000,,0x00,0x01
4.288661800000000,,0x20,0x07
4.291638600000000,,0x8E,0x00
4.294615200000000,,0x00,0x0F
4.297591800000000,,0x10,0x20
4.300568400000000,,0x07,0x04
4.303545200000000,,0x80,0x00
4.306521800000000,,0x4A,0x9B
4.342600200000000,,0xB0,0x0B
4.345218600000000,,0x00,0x01
4.348195400000000,,0x20,0x07
4.351172000000000,,0x06,0x00
4.354148600000000,,0x00,0x0F
4.357125400000000,,0x10,0x20
4.360102200000000,,0x07,0x04
4.363079000000000,,0x80,0x00
4.366055600000000,,0xC2,0x9B
4.402510800000000,,0xB0,0x0B
4.404752200000000,,0x00,0x01
4.407728800000000,,0x20,0x07
4.410705600000000,,0x8E,0x00
4.413682200000000,,0x00,0x0F
4.416658800000000,,0x10,0x20
4.419635400000000,,0x07,0x04
4.422611800000000,,0x80,0x00
4.425588400000000,,0x4A,0x9B
4.461759800000000,,0xB0,0x0B
4.464285000000000,,0x00,0x01
4.467261800000000,,0x20,0x07
4.470238600000000,,0x06,0x00
4.473215200000000,,0x00,0x0F
4.476191800000000,,0x10,0x20
4.479168400000000,,0x08,0x04
4.482145200000000,,0x80,0x00
4.485121600000000,,0xC3,0x9B
4.521687400000000,,0xB0,0x0B
4.523818600000000,,0x00,0x01
4.526795200000000,,0x20,0x07
4.529771800000000,,0x8E,0x00
4.532748400000000,,0x00,0x0F
4.535725000000000,,0x10,0x20
4.538701800000000,,0x08,0x04
4.541678400000000,,0x80,0x00
4.544654800000000,,0x4B,0x9B
4.581046600000000,,0xB0,0x0B
4.583350800000000,,0x00,0x01
4.586327400000000,,0x20,0x07
4.589304200000000,,0x06,0x00
